!Keysight Technologies,E5063A,MY54502693,A.05.04
!Date: Sat Feb 27 16:19:38 2021
!Data & Calibration Information:
!Freq	S11:NONE(--)	S21:NONE(--)	S12:NONE(--)	S22:NONE(--)
# Hz S RI R 50
5000000000.000	0.000000e+000	0.000000e+000	3.051460e-001	-1.652255e-001	0.000000e+000	0.000000e+000	0.000000e+000	0.000000e+000
5000020002.000	0.000000e+000	0.000000e+000	2.997409e-001	-1.694618e-001	0.000000e+000	0.000000e+000	0.000000e+000	0.000000e+000
5000040004.000	0.000000e+000	0.000000e+000	2.934801e-001	-1.737307e-001	0.000000e+000	0.000000e+000	0.000000e+000	0.000000e+000
5000060006.001	0.000000e+000	0.000000e+000	2.865786e-001	-1.779417e-001	0.000000e+000	0.000000e+000	0.000000e+000	0.000000e+000
5000080008.001	0.000000e+000	0.000000e+000	2.788476e-001	-1.820253e-001	0.000000e+000	0.000000e+000	0.000000e+000	0.000000e+000
5000100010.001	0.000000e+000	0.000000e+000	2.697616e-001	-1.860486e-001	0.000000e+000	0.000000e+000	0.000000e+000	0.000000e+000
5000120012.001	0.000000e+000	0.000000e+000	2.592935e-001	-1.895520e-001	0.000000e+000	0.000000e+000	0.000000e+000	0.000000e+000
5000140014.001	0.000000e+000	0.000000e+000	2.472044e-001	-1.925556e-001	0.000000e+000	0.000000e+000	0.000000e+000	0.000000e+000
5000160016.002	0.000000e+000	0.000000e+000	2.326683e-001	-1.944866e-001	0.000000e+000	0.000000e+000	0.000000e+000	0.000000e+000
5000180018.002	0.000000e+000	0.000000e+000	2.151924e-001	-1.944088e-001	0.000000e+000	0.000000e+000	0.000000e+000	0.000000e+000
5000200020.002	0.000000e+000	0.000000e+000	1.938982e-001	-1.911019e-001	0.000000e+000	0.000000e+000	0.000000e+000	0.000000e+000
5000220022.002	0.000000e+000	0.000000e+000	1.682229e-001	-1.813353e-001	0.000000e+000	0.000000e+000	0.000000e+000	0.000000e+000
5000240024.002	0.000000e+000	0.000000e+000	1.392253e-001	-1.608286e-001	0.000000e+000	0.000000e+000	0.000000e+000	0.000000e+000
5000260026.003	0.000000e+000	0.000000e+000	1.114961e-001	-1.216219e-001	0.000000e+000	0.000000e+000	0.000000e+000	0.000000e+000
5000280028.003	0.000000e+000	0.000000e+000	9.991459e-002	-6.322308e-002	0.000000e+000	0.000000e+000	0.000000e+000	0.000000e+000
5000300030.003	0.000000e+000	0.000000e+000	1.183763e-001	1.259839e-003	0.000000e+000	0.000000e+000	0.000000e+000	0.000000e+000
5000320032.003	0.000000e+000	0.000000e+000	1.624876e-001	4.722255e-002	0.000000e+000	0.000000e+000	0.000000e+000	0.000000e+000
5000340034.003	0.000000e+000	0.000000e+000	2.144813e-001	6.739359e-002	0.000000e+000	0.000000e+000	0.000000e+000	0.000000e+000
5000360036.004	0.000000e+000	0.000000e+000	2.639909e-001	6.655406e-002	0.000000e+000	0.000000e+000	0.000000e+000	0.000000e+000
5000380038.004	0.000000e+000	0.000000e+000	3.032675e-001	5.186224e-002	0.000000e+000	0.000000e+000	0.000000e+000	0.000000e+000
5000400040.004	0.000000e+000	0.000000e+000	3.315973e-001	3.049300e-002	0.000000e+000	0.000000e+000	0.000000e+000	0.000000e+000
5000420042.004	0.000000e+000	0.000000e+000	3.508741e-001	6.595623e-003	0.000000e+000	0.000000e+000	0.000000e+000	0.000000e+000
5000440044.004	0.000000e+000	0.000000e+000	3.628399e-001	-1.672962e-002	0.000000e+000	0.000000e+000	0.000000e+000	0.000000e+000
5000460046.005	0.000000e+000	0.000000e+000	3.695638e-001	-3.795978e-002	0.000000e+000	0.000000e+000	0.000000e+000	0.000000e+000
5000480048.005	0.000000e+000	0.000000e+000	3.726261e-001	-5.673974e-002	0.000000e+000	0.000000e+000	0.000000e+000	0.000000e+000
5000500050.005	0.000000e+000	0.000000e+000	3.735291e-001	-7.342167e-002	0.000000e+000	0.000000e+000	0.000000e+000	0.000000e+000
5000520052.005	0.000000e+000	0.000000e+000	3.729542e-001	-8.795966e-002	0.000000e+000	0.000000e+000	0.000000e+000	0.000000e+000
5000540054.005	0.000000e+000	0.000000e+000	3.714580e-001	-1.005738e-001	0.000000e+000	0.000000e+000	0.000000e+000	0.000000e+000
5000560056.006	0.000000e+000	0.000000e+000	3.692673e-001	-1.118036e-001	0.000000e+000	0.000000e+000	0.000000e+000	0.000000e+000
5000580058.006	0.000000e+000	0.000000e+000	3.667622e-001	-1.217937e-001	0.000000e+000	0.000000e+000	0.000000e+000	0.000000e+000
5000600060.006	0.000000e+000	0.000000e+000	3.640276e-001	-1.305973e-001	0.000000e+000	0.000000e+000	0.000000e+000	0.000000e+000
5000620062.006	0.000000e+000	0.000000e+000	3.610896e-001	-1.387119e-001	0.000000e+000	0.000000e+000	0.000000e+000	0.000000e+000
5000640064.006	0.000000e+000	0.000000e+000	3.581925e-001	-1.461012e-001	0.000000e+000	0.000000e+000	0.000000e+000	0.000000e+000
5000660066.007	0.000000e+000	0.000000e+000	3.552915e-001	-1.529149e-001	0.000000e+000	0.000000e+000	0.000000e+000	0.000000e+000
5000680068.007	0.000000e+000	0.000000e+000	3.523542e-001	-1.592578e-001	0.000000e+000	0.000000e+000	0.000000e+000	0.000000e+000
5000700070.007	0.000000e+000	0.000000e+000	3.494240e-001	-1.651847e-001	0.000000e+000	0.000000e+000	0.000000e+000	0.000000e+000
5000720072.007	0.000000e+000	0.000000e+000	3.465471e-001	-1.706934e-001	0.000000e+000	0.000000e+000	0.000000e+000	0.000000e+000
5000740074.007	0.000000e+000	0.000000e+000	3.436275e-001	-1.758546e-001	0.000000e+000	0.000000e+000	0.000000e+000	0.000000e+000
5000760076.008	0.000000e+000	0.000000e+000	3.407958e-001	-1.808264e-001	0.000000e+000	0.000000e+000	0.000000e+000	0.000000e+000
5000780078.008	0.000000e+000	0.000000e+000	3.378675e-001	-1.856567e-001	0.000000e+000	0.000000e+000	0.000000e+000	0.000000e+000
5000800080.008	0.000000e+000	0.000000e+000	3.350633e-001	-1.900936e-001	0.000000e+000	0.000000e+000	0.000000e+000	0.000000e+000
5000820082.008	0.000000e+000	0.000000e+000	3.321573e-001	-1.945569e-001	0.000000e+000	0.000000e+000	0.000000e+000	0.000000e+000
5000840084.008	0.000000e+000	0.000000e+000	3.293397e-001	-1.988001e-001	0.000000e+000	0.000000e+000	0.000000e+000	0.000000e+000
5000860086.009	0.000000e+000	0.000000e+000	3.264688e-001	-2.027629e-001	0.000000e+000	0.000000e+000	0.000000e+000	0.000000e+000
5000880088.009	0.000000e+000	0.000000e+000	3.236114e-001	-2.066418e-001	0.000000e+000	0.000000e+000	0.000000e+000	0.000000e+000
5000900090.009	0.000000e+000	0.000000e+000	3.207703e-001	-2.104830e-001	0.000000e+000	0.000000e+000	0.000000e+000	0.000000e+000
5000920092.009	0.000000e+000	0.000000e+000	3.179791e-001	-2.143030e-001	0.000000e+000	0.000000e+000	0.000000e+000	0.000000e+000
5000940094.009	0.000000e+000	0.000000e+000	3.151694e-001	-2.179064e-001	0.000000e+000	0.000000e+000	0.000000e+000	0.000000e+000
5000960096.010	0.000000e+000	0.000000e+000	3.123494e-001	-2.214887e-001	0.000000e+000	0.000000e+000	0.000000e+000	0.000000e+000
5000980098.010	0.000000e+000	0.000000e+000	3.095607e-001	-2.249546e-001	0.000000e+000	0.000000e+000	0.000000e+000	0.000000e+000
5001000100.010	0.000000e+000	0.000000e+000	3.066383e-001	-2.282079e-001	0.000000e+000	0.000000e+000	0.000000e+000	0.000000e+000
5001020102.010	0.000000e+000	0.000000e+000	3.036669e-001	-2.316470e-001	0.000000e+000	0.000000e+000	0.000000e+000	0.000000e+000
5001040104.010	0.000000e+000	0.000000e+000	3.008855e-001	-2.349320e-001	0.000000e+000	0.000000e+000	0.000000e+000	0.000000e+000
5001060106.011	0.000000e+000	0.000000e+000	2.980709e-001	-2.381467e-001	0.000000e+000	0.000000e+000	0.000000e+000	0.000000e+000
5001080108.011	0.000000e+000	0.000000e+000	2.949924e-001	-2.413661e-001	0.000000e+000	0.000000e+000	0.000000e+000	0.000000e+000
5001100110.011	0.000000e+000	0.000000e+000	2.921049e-001	-2.444629e-001	0.000000e+000	0.000000e+000	0.000000e+000	0.000000e+000
5001120112.011	0.000000e+000	0.000000e+000	2.890045e-001	-2.476038e-001	0.000000e+000	0.000000e+000	0.000000e+000	0.000000e+000
5001140114.011	0.000000e+000	0.000000e+000	2.861700e-001	-2.505904e-001	0.000000e+000	0.000000e+000	0.000000e+000	0.000000e+000
5001160116.012	0.000000e+000	0.000000e+000	2.830289e-001	-2.536468e-001	0.000000e+000	0.000000e+000	0.000000e+000	0.000000e+000
5001180118.012	0.000000e+000	0.000000e+000	2.799056e-001	-2.566525e-001	0.000000e+000	0.000000e+000	0.000000e+000	0.000000e+000
5001200120.012	0.000000e+000	0.000000e+000	2.768660e-001	-2.596856e-001	0.000000e+000	0.000000e+000	0.000000e+000	0.000000e+000
5001220122.012	0.000000e+000	0.000000e+000	2.735330e-001	-2.625924e-001	0.000000e+000	0.000000e+000	0.000000e+000	0.000000e+000
5001240124.012	0.000000e+000	0.000000e+000	2.702438e-001	-2.656117e-001	0.000000e+000	0.000000e+000	0.000000e+000	0.000000e+000
5001260126.013	0.000000e+000	0.000000e+000	2.669954e-001	-2.685962e-001	0.000000e+000	0.000000e+000	0.000000e+000	0.000000e+000
5001280128.013	0.000000e+000	0.000000e+000	2.635363e-001	-2.715028e-001	0.000000e+000	0.000000e+000	0.000000e+000	0.000000e+000
5001300130.013	0.000000e+000	0.000000e+000	2.600760e-001	-2.744347e-001	0.000000e+000	0.000000e+000	0.000000e+000	0.000000e+000
5001320132.013	0.000000e+000	0.000000e+000	2.564846e-001	-2.775122e-001	0.000000e+000	0.000000e+000	0.000000e+000	0.000000e+000
5001340134.013	0.000000e+000	0.000000e+000	2.528745e-001	-2.804299e-001	0.000000e+000	0.000000e+000	0.000000e+000	0.000000e+000
5001360136.014	0.000000e+000	0.000000e+000	2.489861e-001	-2.834296e-001	0.000000e+000	0.000000e+000	0.000000e+000	0.000000e+000
5001380138.014	0.000000e+000	0.000000e+000	2.449252e-001	-2.864077e-001	0.000000e+000	0.000000e+000	0.000000e+000	0.000000e+000
5001400140.014	0.000000e+000	0.000000e+000	2.408129e-001	-2.894698e-001	0.000000e+000	0.000000e+000	0.000000e+000	0.000000e+000
5001420142.014	0.000000e+000	0.000000e+000	2.363089e-001	-2.926191e-001	0.000000e+000	0.000000e+000	0.000000e+000	0.000000e+000
5001440144.014	0.000000e+000	0.000000e+000	2.316045e-001	-2.958345e-001	0.000000e+000	0.000000e+000	0.000000e+000	0.000000e+000
5001460146.015	0.000000e+000	0.000000e+000	2.266417e-001	-2.991265e-001	0.000000e+000	0.000000e+000	0.000000e+000	0.000000e+000
5001480148.015	0.000000e+000	0.000000e+000	2.212819e-001	-3.022630e-001	0.000000e+000	0.000000e+000	0.000000e+000	0.000000e+000
5001500150.015	0.000000e+000	0.000000e+000	2.153214e-001	-3.058398e-001	0.000000e+000	0.000000e+000	0.000000e+000	0.000000e+000
5001520152.015	0.000000e+000	0.000000e+000	2.087304e-001	-3.094795e-001	0.000000e+000	0.000000e+000	0.000000e+000	0.000000e+000
5001540154.015	0.000000e+000	0.000000e+000	2.013502e-001	-3.129738e-001	0.000000e+000	0.000000e+000	0.000000e+000	0.000000e+000
5001560156.016	0.000000e+000	0.000000e+000	1.927300e-001	-3.169424e-001	0.000000e+000	0.000000e+000	0.000000e+000	0.000000e+000
5001580158.016	0.000000e+000	0.000000e+000	1.824830e-001	-3.207928e-001	0.000000e+000	0.000000e+000	0.000000e+000	0.000000e+000
5001600160.016	0.000000e+000	0.000000e+000	1.696900e-001	-3.246758e-001	0.000000e+000	0.000000e+000	0.000000e+000	0.000000e+000
5001620162.016	0.000000e+000	0.000000e+000	1.533500e-001	-3.279100e-001	0.000000e+000	0.000000e+000	0.000000e+000	0.000000e+000
5001640164.016	0.000000e+000	0.000000e+000	1.319168e-001	-3.293112e-001	0.000000e+000	0.000000e+000	0.000000e+000	0.000000e+000
5001660166.017	0.000000e+000	0.000000e+000	1.017706e-001	-3.260358e-001	0.000000e+000	0.000000e+000	0.000000e+000	0.000000e+000
5001680168.017	0.000000e+000	0.000000e+000	5.965467e-002	-3.088134e-001	0.000000e+000	0.000000e+000	0.000000e+000	0.000000e+000
5001700170.017	0.000000e+000	0.000000e+000	1.029123e-002	-2.528736e-001	0.000000e+000	0.000000e+000	0.000000e+000	0.000000e+000
5001720172.017	0.000000e+000	0.000000e+000	1.593764e-002	-1.368449e-001	0.000000e+000	0.000000e+000	0.000000e+000	0.000000e+000
5001740174.017	0.000000e+000	0.000000e+000	1.335818e-001	-7.815363e-002	0.000000e+000	0.000000e+000	0.000000e+000	0.000000e+000
5001760176.018	0.000000e+000	0.000000e+000	2.167822e-001	-1.238552e-001	0.000000e+000	0.000000e+000	0.000000e+000	0.000000e+000
5001780178.018	0.000000e+000	0.000000e+000	2.412025e-001	-1.743977e-001	0.000000e+000	0.000000e+000	0.000000e+000	0.000000e+000
5001800180.018	0.000000e+000	0.000000e+000	2.440199e-001	-2.078832e-001	0.000000e+000	0.000000e+000	0.000000e+000	0.000000e+000
5001820182.018	0.000000e+000	0.000000e+000	2.406853e-001	-2.306085e-001	0.000000e+000	0.000000e+000	0.000000e+000	0.000000e+000
5001840184.018	0.000000e+000	0.000000e+000	2.354035e-001	-2.465637e-001	0.000000e+000	0.000000e+000	0.000000e+000	0.000000e+000
5001860186.019	0.000000e+000	0.000000e+000	2.296973e-001	-2.582892e-001	0.000000e+000	0.000000e+000	0.000000e+000	0.000000e+000
5001880188.019	0.000000e+000	0.000000e+000	2.239643e-001	-2.675803e-001	0.000000e+000	0.000000e+000	0.000000e+000	0.000000e+000
5001900190.019	0.000000e+000	0.000000e+000	2.182397e-001	-2.747940e-001	0.000000e+000	0.000000e+000	0.000000e+000	0.000000e+000
5001920192.019	0.000000e+000	0.000000e+000	2.128077e-001	-2.809218e-001	0.000000e+000	0.000000e+000	0.000000e+000	0.000000e+000
5001940194.019	0.000000e+000	0.000000e+000	2.075872e-001	-2.860038e-001	0.000000e+000	0.000000e+000	0.000000e+000	0.000000e+000
5001960196.020	0.000000e+000	0.000000e+000	2.025232e-001	-2.904820e-001	0.000000e+000	0.000000e+000	0.000000e+000	0.000000e+000
5001980198.020	0.000000e+000	0.000000e+000	1.975592e-001	-2.941951e-001	0.000000e+000	0.000000e+000	0.000000e+000	0.000000e+000
5002000200.020	0.000000e+000	0.000000e+000	1.925649e-001	-2.977077e-001	0.000000e+000	0.000000e+000	0.000000e+000	0.000000e+000
5002020202.020	0.000000e+000	0.000000e+000	1.878529e-001	-3.006328e-001	0.000000e+000	0.000000e+000	0.000000e+000	0.000000e+000
5002040204.020	0.000000e+000	0.000000e+000	1.831979e-001	-3.034522e-001	0.000000e+000	0.000000e+000	0.000000e+000	0.000000e+000
5002060206.021	0.000000e+000	0.000000e+000	1.785318e-001	-3.059571e-001	0.000000e+000	0.000000e+000	0.000000e+000	0.000000e+000
5002080208.021	0.000000e+000	0.000000e+000	1.739489e-001	-3.081146e-001	0.000000e+000	0.000000e+000	0.000000e+000	0.000000e+000
5002100210.021	0.000000e+000	0.000000e+000	1.694192e-001	-3.100662e-001	0.000000e+000	0.000000e+000	0.000000e+000	0.000000e+000
5002120212.021	0.000000e+000	0.000000e+000	1.647145e-001	-3.119236e-001	0.000000e+000	0.000000e+000	0.000000e+000	0.000000e+000
5002140214.021	0.000000e+000	0.000000e+000	1.600089e-001	-3.135681e-001	0.000000e+000	0.000000e+000	0.000000e+000	0.000000e+000
5002160216.022	0.000000e+000	0.000000e+000	1.554078e-001	-3.150808e-001	0.000000e+000	0.000000e+000	0.000000e+000	0.000000e+000
5002180218.022	0.000000e+000	0.000000e+000	1.506849e-001	-3.164710e-001	0.000000e+000	0.000000e+000	0.000000e+000	0.000000e+000
5002200220.022	0.000000e+000	0.000000e+000	1.460046e-001	-3.175720e-001	0.000000e+000	0.000000e+000	0.000000e+000	0.000000e+000
5002220222.022	0.000000e+000	0.000000e+000	1.410777e-001	-3.186221e-001	0.000000e+000	0.000000e+000	0.000000e+000	0.000000e+000
5002240224.022	0.000000e+000	0.000000e+000	1.362510e-001	-3.195510e-001	0.000000e+000	0.000000e+000	0.000000e+000	0.000000e+000
5002260226.023	0.000000e+000	0.000000e+000	1.312357e-001	-3.203120e-001	0.000000e+000	0.000000e+000	0.000000e+000	0.000000e+000
5002280228.023	0.000000e+000	0.000000e+000	1.262688e-001	-3.206172e-001	0.000000e+000	0.000000e+000	0.000000e+000	0.000000e+000
5002300230.023	0.000000e+000	0.000000e+000	1.211535e-001	-3.210123e-001	0.000000e+000	0.000000e+000	0.000000e+000	0.000000e+000
5002320232.023	0.000000e+000	0.000000e+000	1.158913e-001	-3.210422e-001	0.000000e+000	0.000000e+000	0.000000e+000	0.000000e+000
5002340234.023	0.000000e+000	0.000000e+000	1.104391e-001	-3.210222e-001	0.000000e+000	0.000000e+000	0.000000e+000	0.000000e+000
5002360236.024	0.000000e+000	0.000000e+000	1.049925e-001	-3.207002e-001	0.000000e+000	0.000000e+000	0.000000e+000	0.000000e+000
5002380238.024	0.000000e+000	0.000000e+000	9.910756e-002	-3.200828e-001	0.000000e+000	0.000000e+000	0.000000e+000	0.000000e+000
5002400240.024	0.000000e+000	0.000000e+000	9.325734e-002	-3.190643e-001	0.000000e+000	0.000000e+000	0.000000e+000	0.000000e+000
5002420242.024	0.000000e+000	0.000000e+000	8.712406e-002	-3.177305e-001	0.000000e+000	0.000000e+000	0.000000e+000	0.000000e+000
5002440244.024	0.000000e+000	0.000000e+000	8.068145e-002	-3.159407e-001	0.000000e+000	0.000000e+000	0.000000e+000	0.000000e+000
5002460246.025	0.000000e+000	0.000000e+000	7.410377e-002	-3.137156e-001	0.000000e+000	0.000000e+000	0.000000e+000	0.000000e+000
5002480248.025	0.000000e+000	0.000000e+000	6.720658e-002	-3.108873e-001	0.000000e+000	0.000000e+000	0.000000e+000	0.000000e+000
5002500250.025	0.000000e+000	0.000000e+000	5.996709e-002	-3.072946e-001	0.000000e+000	0.000000e+000	0.000000e+000	0.000000e+000
5002520252.025	0.000000e+000	0.000000e+000	5.244926e-002	-3.027634e-001	0.000000e+000	0.000000e+000	0.000000e+000	0.000000e+000
5002540254.025	0.000000e+000	0.000000e+000	4.451904e-002	-2.970640e-001	0.000000e+000	0.000000e+000	0.000000e+000	0.000000e+000
5002560256.026	0.000000e+000	0.000000e+000	3.651371e-002	-2.900108e-001	0.000000e+000	0.000000e+000	0.000000e+000	0.000000e+000
5002580258.026	0.000000e+000	0.000000e+000	2.826690e-002	-2.808776e-001	0.000000e+000	0.000000e+000	0.000000e+000	0.000000e+000
5002600260.026	0.000000e+000	0.000000e+000	1.994874e-002	-2.692143e-001	0.000000e+000	0.000000e+000	0.000000e+000	0.000000e+000
5002620262.026	0.000000e+000	0.000000e+000	1.225104e-002	-2.544231e-001	0.000000e+000	0.000000e+000	0.000000e+000	0.000000e+000
5002640264.026	0.000000e+000	0.000000e+000	6.095240e-003	-2.348898e-001	0.000000e+000	0.000000e+000	0.000000e+000	0.000000e+000
5002660266.027	0.000000e+000	0.000000e+000	3.564263e-003	-2.092751e-001	0.000000e+000	0.000000e+000	0.000000e+000	0.000000e+000
5002680268.027	0.000000e+000	0.000000e+000	8.950894e-003	-1.763040e-001	0.000000e+000	0.000000e+000	0.000000e+000	0.000000e+000
5002700270.027	0.000000e+000	0.000000e+000	2.921072e-002	-1.383583e-001	0.000000e+000	0.000000e+000	0.000000e+000	0.000000e+000
5002720272.027	0.000000e+000	0.000000e+000	7.047331e-002	-1.047791e-001	0.000000e+000	0.000000e+000	0.000000e+000	0.000000e+000
5002740274.027	0.000000e+000	0.000000e+000	1.264667e-001	-9.072004e-002	0.000000e+000	0.000000e+000	0.000000e+000	0.000000e+000
5002760276.028	0.000000e+000	0.000000e+000	1.804763e-001	-1.011148e-001	0.000000e+000	0.000000e+000	0.000000e+000	0.000000e+000
5002780278.028	0.000000e+000	0.000000e+000	2.222466e-001	-1.289603e-001	0.000000e+000	0.000000e+000	0.000000e+000	0.000000e+000
5002800280.028	0.000000e+000	0.000000e+000	2.478854e-001	-1.645361e-001	0.000000e+000	0.000000e+000	0.000000e+000	0.000000e+000
5002820282.028	0.000000e+000	0.000000e+000	2.600393e-001	-2.016570e-001	0.000000e+000	0.000000e+000	0.000000e+000	0.000000e+000
5002840284.028	0.000000e+000	0.000000e+000	2.613917e-001	-2.354626e-001	0.000000e+000	0.000000e+000	0.000000e+000	0.000000e+000
5002860286.029	0.000000e+000	0.000000e+000	2.556448e-001	-2.648457e-001	0.000000e+000	0.000000e+000	0.000000e+000	0.000000e+000
5002880288.029	0.000000e+000	0.000000e+000	2.454084e-001	-2.893208e-001	0.000000e+000	0.000000e+000	0.000000e+000	0.000000e+000
5002900290.029	0.000000e+000	0.000000e+000	2.328903e-001	-3.087908e-001	0.000000e+000	0.000000e+000	0.000000e+000	0.000000e+000
5002920292.029	0.000000e+000	0.000000e+000	2.193763e-001	-3.244125e-001	0.000000e+000	0.000000e+000	0.000000e+000	0.000000e+000
5002940294.029	0.000000e+000	0.000000e+000	2.056270e-001	-3.364245e-001	0.000000e+000	0.000000e+000	0.000000e+000	0.000000e+000
5002960296.030	0.000000e+000	0.000000e+000	1.925007e-001	-3.457747e-001	0.000000e+000	0.000000e+000	0.000000e+000	0.000000e+000
5002980298.030	0.000000e+000	0.000000e+000	1.799806e-001	-3.530885e-001	0.000000e+000	0.000000e+000	0.000000e+000	0.000000e+000
5003000300.030	0.000000e+000	0.000000e+000	1.682353e-001	-3.587799e-001	0.000000e+000	0.000000e+000	0.000000e+000	0.000000e+000
5003020302.030	0.000000e+000	0.000000e+000	1.571897e-001	-3.632222e-001	0.000000e+000	0.000000e+000	0.000000e+000	0.000000e+000
5003040304.030	0.000000e+000	0.000000e+000	1.467372e-001	-3.667174e-001	0.000000e+000	0.000000e+000	0.000000e+000	0.000000e+000
