"# Channel 1"
"# Trace 1"
Frequency, Formatted Data, Formatted Data
+4.20000000000E+009, +6.13228730031E-001, -3.39891787110E-001
+4.20002000200E+009, +6.09575828755E-001, -3.45983191834E-001
+4.20004000400E+009, +6.05667191578E-001, -3.51846554173E-001
+4.20006000600E+009, +6.01733964103E-001, -3.57782845429E-001
+4.20008000800E+009, +5.97733659423E-001, -3.63577921161E-001
+4.20010001000E+009, +5.93690245146E-001, -3.69499924419E-001
+4.20012001200E+009, +5.89540135213E-001, -3.75369814886E-001
+4.20014001400E+009, +5.85347819802E-001, -3.81275812289E-001
+4.20016001600E+009, +5.80939773577E-001, -3.86930823380E-001
+4.20018001800E+009, +5.76441731882E-001, -3.92798225349E-001
+4.20020002000E+009, +5.71911303025E-001, -3.98656640532E-001
+4.20022002200E+009, +5.67130305222E-001, -4.04411715753E-001
+4.20024002400E+009, +5.62259555077E-001, -4.10180092371E-001
+4.20026002600E+009, +5.57283504830E-001, -4.16070093224E-001
+4.20028002800E+009, +5.52169282836E-001, -4.21835233274E-001
+4.20030003000E+009, +5.46849995579E-001, -4.27556870957E-001
+4.20032003200E+009, +5.41370972951E-001, -4.33234628813E-001
+4.20034003400E+009, +5.35799188961E-001, -4.39011265307E-001
+4.20036003600E+009, +5.29874304486E-001, -4.44744921314E-001
+4.20038003800E+009, +5.23875049671E-001, -4.50540293706E-001
+4.20040004000E+009, +5.17539628940E-001, -4.56308265095E-001
+4.20042004200E+009, +5.10925671395E-001, -4.62097869737E-001
+4.20044004400E+009, +5.04041508654E-001, -4.67849677439E-001
+4.20046004600E+009, +4.96768941576E-001, -4.73728825629E-001
+4.20048004800E+009, +4.89164461305E-001, -4.79368779378E-001
+4.20050005001E+009, +4.80997338500E-001, -4.85227746318E-001
+4.20052005201E+009, +4.72435330811E-001, -4.91064421481E-001
+4.20054005401E+009, +4.63266865088E-001, -4.96897148588E-001
+4.20056005601E+009, +4.53391078223E-001, -5.02630237577E-001
+4.20058005801E+009, +4.42786499651E-001, -5.08460747084E-001
+4.20060006001E+009, +4.31160636730E-001, -5.14013005870E-001
+4.20062006201E+009, +4.18485639196E-001, -5.19578604316E-001
+4.20064006401E+009, +4.04432802424E-001, -5.24882132547E-001
+4.20066006601E+009, +3.88751211322E-001, -5.29823441172E-001
+4.20068006801E+009, +3.71035771433E-001, -5.34086791315E-001
+4.20070007001E+009, +3.50550469001E-001, -5.37361653201E-001
+4.20072007201E+009, +3.26433582146E-001, -5.39234855560E-001
+4.20074007401E+009, +2.97746355631E-001, -5.38215210513E-001
+4.20076007601E+009, +2.62369523217E-001, -5.31892902923E-001
+4.20078007801E+009, +2.18535539035E-001, -5.15738775939E-001
+4.20080008001E+009, +1.63099211121E-001, -4.77064445206E-001
+4.20082008201E+009, +1.07211758455E-001, -3.94846247332E-001
+4.20084008401E+009, +9.45828871944E-002, -2.57903198241E-001
+4.20086008601E+009, +1.63091315075E-001, -1.30429986063E-001
+4.20088008801E+009, +2.68294860412E-001, -6.88886014795E-002
+4.20090009001E+009, +3.67823225738E-001, -6.16917382560E-002
+4.20092009201E+009, +4.46609326449E-001, -8.68799525978E-002
+4.20094009401E+009, +5.03752591013E-001, -1.28557741479E-001
+4.20096009601E+009, +5.40746453338E-001, -1.75937398209E-001
+4.20098009801E+009, +5.62105268945E-001, -2.22444317808E-001
+4.20100010001E+009, +5.72521664822E-001, -2.66171966781E-001
+4.20102010201E+009, +5.75047047980E-001, -3.05035429404E-001
+4.20104010401E+009, +5.72496641776E-001, -3.38591973001E-001
+4.20106010601E+009, +5.66740573923E-001, -3.67934900770E-001
+4.20108010801E+009, +5.59030835858E-001, -3.93086415424E-001
+4.20110011001E+009, +5.50428282505E-001, -4.14280258079E-001
+4.20112011201E+009, +5.41374694716E-001, -4.32691331519E-001
+4.20114011401E+009, +5.32094917544E-001, -4.49032494473E-001
+4.20116011601E+009, +5.22972402710E-001, -4.63057255992E-001
+4.20118011801E+009, +5.14189316956E-001, -4.75760670940E-001
+4.20120012001E+009, +5.05387221001E-001, -4.87247601346E-001
+4.20122012201E+009, +4.96870212158E-001, -4.97417778102E-001
+4.20124012401E+009, +4.88646423016E-001, -5.06732359916E-001
+4.20126012601E+009, +4.80476857642E-001, -5.15282898304E-001
+4.20128012801E+009, +4.72521526545E-001, -5.23185679037E-001
+4.20130013001E+009, +4.64876888218E-001, -5.30645012779E-001
+4.20132013201E+009, +4.57415634313E-001, -5.37594210973E-001
+4.20134013401E+009, +4.49991360291E-001, -5.44160783641E-001
+4.20136013601E+009, +4.42652314401E-001, -5.50223081690E-001
+4.20138013801E+009, +4.35505998013E-001, -5.56111243310E-001
+4.20140014001E+009, +4.28470007436E-001, -5.61526454605E-001
+4.20142014201E+009, +4.21625405516E-001, -5.66867346752E-001
+4.20144014401E+009, +4.14723679680E-001, -5.71902656101E-001
+4.20146014601E+009, +4.07897839089E-001, -5.76851672124E-001
+4.20148014801E+009, +4.01191075225E-001, -5.81543770770E-001
+4.20150015002E+009, +3.94584194511E-001, -5.85925305078E-001
+4.20152015202E+009, +3.87960583259E-001, -5.90235783708E-001
+4.20154015402E+009, +3.81336765586E-001, -5.94438303260E-001
+4.20156015602E+009, +3.74850055723E-001, -5.98407378395E-001
+4.20158015802E+009, +3.68433831957E-001, -6.02289101003E-001
+4.20160016002E+009, +3.62057022044E-001, -6.06073404882E-001
+4.20162016202E+009, +3.55640255467E-001, -6.09756382632E-001
+4.20164016402E+009, +3.49241108490E-001, -6.13251755234E-001
+4.20166016602E+009, +3.42855429110E-001, -6.16578004421E-001
+4.20168016802E+009, +3.36461054045E-001, -6.20060353766E-001
+4.20170017002E+009, +3.30172167986E-001, -6.23302081138E-001
+4.20172017202E+009, +3.23831072036E-001, -6.26490850124E-001
+4.20174017402E+009, +3.17623662435E-001, -6.29542638003E-001
+4.20176017602E+009, +3.11248784031E-001, -6.32468337449E-001
+4.20178017802E+009, +3.04990977460E-001, -6.35362215999E-001
+4.20180018002E+009, +2.98661362398E-001, -6.38201117227E-001
+4.20182018202E+009, +2.92364789179E-001, -6.41014084066E-001
+4.20184018402E+009, +2.86083212729E-001, -6.43678685871E-001
+4.20186018602E+009, +2.79816253818E-001, -6.46311990741E-001
+4.20188018802E+009, +2.73590579636E-001, -6.48710934985E-001
+4.20190019002E+009, +2.67247077986E-001, -6.51064528732E-001
+4.20192019202E+009, +2.60919737547E-001, -6.53420397132E-001
+4.20194019402E+009, +2.54601316238E-001, -6.55703518037E-001
+4.20196019602E+009, +2.48221497663E-001, -6.57863179536E-001
+4.20198019802E+009, +2.41960611706E-001, -6.60149778174E-001
+4.20200020002E+009, +2.35559315611E-001, -6.62177448423E-001
+4.20202020202E+009, +2.29248558189E-001, -6.64139558900E-001
+4.20204020402E+009, +2.22843293628E-001, -6.66119999476E-001
+4.20206020602E+009, +2.16459336547E-001, -6.68009385847E-001
+4.20208020802E+009, +2.09983947127E-001, -6.69842490404E-001
+4.20210021002E+009, +2.03552578356E-001, -6.71647779959E-001
+4.20212021202E+009, +1.97143233228E-001, -6.73356826922E-001
+4.20214021402E+009, +1.90590287799E-001, -6.75014857356E-001
+4.20216021602E+009, +1.84106207380E-001, -6.76507826751E-001
+4.20218021802E+009, +1.77510542743E-001, -6.78026518205E-001
+4.20220022002E+009, +1.70928068724E-001, -6.79428391840E-001
+4.20222022202E+009, +1.64336309547E-001, -6.80849618212E-001
+4.20224022402E+009, +1.57684585266E-001, -6.82117178744E-001
+4.20226022602E+009, +1.51029322186E-001, -6.83300311389E-001
+4.20228022802E+009, +1.44379520459E-001, -6.84516771015E-001
+4.20230023002E+009, +1.37679416861E-001, -6.85508936943E-001
+4.20232023202E+009, +1.30836633150E-001, -6.86629639583E-001
+4.20234023402E+009, +1.23948996701E-001, -6.87558263034E-001
+4.20236023602E+009, +1.17054253489E-001, -6.88323390218E-001
+4.20238023802E+009, +1.10129642128E-001, -6.89096569853E-001
+4.20240024002E+009, +1.03145390471E-001, -6.89831498422E-001
+4.20242024202E+009, +9.60542931875E-002, -6.90421801979E-001
+4.20244024402E+009, +8.89924747289E-002, -6.90796644727E-001
+4.20246024602E+009, +8.18202761155E-002, -6.91209837944E-001
+4.20248024802E+009, +7.45847670469E-002, -6.91495413034E-001
+4.20250025003E+009, +6.71977262704E-002, -6.91742680181E-001
+4.20252025203E+009, +5.97369629884E-002, -6.91793377531E-001
+4.20254025403E+009, +5.21641430326E-002, -6.91761024058E-001
+4.20256025603E+009, +4.45394577129E-002, -6.91499626301E-001
+4.20258025803E+009, +3.66844495825E-002, -6.91165151927E-001
+4.20260026003E+009, +2.86966009006E-002, -6.90661717079E-001
+4.20262026203E+009, +2.05902899940E-002, -6.90181619486E-001
+4.20264026403E+009, +1.23650311056E-002, -6.89311158055E-001
+4.20266026603E+009, +4.09411464364E-003, -6.88255812978E-001
+4.20268026803E+009, -4.51087545663E-003, -6.86952276871E-001
+4.20270027003E+009, -1.34567038452E-002, -6.85299084801E-001
+4.20272027203E+009, -2.24463780323E-002, -6.83374623966E-001
+4.20274027403E+009, -3.17811122784E-002, -6.81145071862E-001
+4.20276027603E+009, -4.14644874858E-002, -6.78682951887E-001
+4.20278027803E+009, -5.14761042144E-002, -6.75469715717E-001
+4.20280028003E+009, -6.17636839008E-002, -6.71765046169E-001
+4.20282028203E+009, -7.25218493957E-002, -6.67316278353E-001
+4.20284028403E+009, -8.37058278043E-002, -6.61939152318E-001
+4.20286028603E+009, -9.54052424692E-002, -6.55541177200E-001
+4.20288028803E+009, -1.07694555476E-001, -6.47616336892E-001
+4.20290029003E+009, -1.20506991421E-001, -6.37976037261E-001
+4.20292029203E+009, -1.33512669455E-001, -6.26051187344E-001
+4.20294029403E+009, -1.46848913165E-001, -6.10912335482E-001
+4.20296029603E+009, -1.59890938088E-001, -5.91486812818E-001
+4.20298029803E+009, -1.71735939200E-001, -5.66130639699E-001
+4.20300030003E+009, -1.79673903641E-001, -5.32705167851E-001
+4.20302030203E+009, -1.78514366683E-001, -4.88656441321E-001
+4.20304030403E+009, -1.58894905767E-001, -4.36115470930E-001
+4.20306030603E+009, -1.13130588066E-001, -3.87487848270E-001
+4.20308030803E+009, -4.57036081930E-002, -3.61496777214E-001
+4.20310031003E+009, +2.35512146558E-002, -3.67642833005E-001
+4.20312031203E+009, +7.67592457313E-002, -3.97661029982E-001
+4.20314031403E+009, +1.10668817756E-001, -4.39622270186E-001
+4.20316031603E+009, +1.26642275890E-001, -4.83890305250E-001
+4.20318031803E+009, +1.29093868074E-001, -5.24932667491E-001
+4.20320032003E+009, +1.22162503961E-001, -5.60625153537E-001
+4.20322032203E+009, +1.09483428664E-001, -5.90222634978E-001
+4.20324032403E+009, +9.37775301559E-002, -6.13721482716E-001
+4.20326032603E+009, +7.68303131637E-002, -6.32032584053E-001
+4.20328032803E+009, +5.94908705035E-002, -6.46429393604E-001
+4.20330033003E+009, +4.26367500166E-002, -6.57455831422E-001
+4.20332033203E+009, +2.65950043276E-002, -6.65825729456E-001
+4.20334033403E+009, +1.13938792581E-002, -6.72169683240E-001
+4.20336033603E+009, -2.83041445901E-003, -6.76920663262E-001
+4.20338033803E+009, -1.60658490369E-002, -6.80503498546E-001
+4.20340034003E+009, -2.88882614875E-002, -6.83151146490E-001
+4.20342034203E+009, -4.09191323824E-002, -6.85075751186E-001
+4.20344034403E+009, -5.21984703635E-002, -6.86313979674E-001
+4.20346034603E+009, -6.29723547338E-002, -6.87171436880E-001
+4.20348034803E+009, -7.33066394731E-002, -6.87500335039E-001
+4.20350035004E+009, -8.32368806115E-002, -6.87559926509E-001
+4.20352035204E+009, -9.28795347846E-002, -6.87393368191E-001
+4.20354035404E+009, -1.02053281902E-001, -6.86986733887E-001
+4.20356035604E+009, -1.10877796945E-001, -6.86401623086E-001
+4.20358035804E+009, -1.19522048754E-001, -6.85612199292E-001
+4.20360036004E+009, -1.27963560115E-001, -6.84609406933E-001
+4.20362036204E+009, -1.36155057509E-001, -6.83516579150E-001
+4.20364036404E+009, -1.44136330218E-001, -6.82328182864E-001
+4.20366036604E+009, -1.51865169271E-001, -6.80960976516E-001
+4.20368036804E+009, -1.59489948012E-001, -6.79582928777E-001
+4.20370037004E+009, -1.67062317715E-001, -6.77978561522E-001
+4.20372037204E+009, -1.74429842487E-001, -6.76414360509E-001
+4.20374037404E+009, -1.81533261647E-001, -6.74580004968E-001
+4.20376037604E+009, -1.88735585531E-001, -6.72874579007E-001
+4.20378037804E+009, -1.95815858499E-001, -6.71011023244E-001
+4.20380038004E+009, -2.02766333619E-001, -6.69033864273E-001
+4.20382038204E+009, -2.09562335378E-001, -6.67070129023E-001
+4.20384038404E+009, -2.16304298676E-001, -6.64958434599E-001
+4.20386038604E+009, -2.22887190613E-001, -6.62841913896E-001
+4.20388038804E+009, -2.29513985035E-001, -6.60652581710E-001
+4.20390039004E+009, -2.36118555231E-001, -6.58386849542E-001
+4.20392039204E+009, -2.42588851327E-001, -6.56087769635E-001
+4.20394039404E+009, -2.49061643997E-001, -6.53737997101E-001
+4.20396039604E+009, -2.55283786991E-001, -6.51223247168E-001
+4.20398039804E+009, -2.61707577937E-001, -6.48787646256E-001
+4.20400040004E+009, -2.67945732607E-001, -6.46162807557E-001
+4.20402040204E+009, -2.74077990066E-001, -6.43548575178E-001
+4.20404040404E+009, -2.80258138760E-001, -6.40919934839E-001
+4.20406040604E+009, -2.86325161069E-001, -6.38232881049E-001
+4.20408040804E+009, -2.92396499082E-001, -6.35515385385E-001
+4.20410041004E+009, -2.98415564910E-001, -6.32620099383E-001
+4.20412041204E+009, -3.04359825244E-001, -6.29744441592E-001
+4.20414041404E+009, -3.10298265565E-001, -6.26756977767E-001
+4.20416041604E+009, -3.16155715526E-001, -6.23770358391E-001
+4.20418041804E+009, -3.22040470923E-001, -6.20749019383E-001
+4.20420042004E+009, -3.27948003953E-001, -6.17674218095E-001
+4.20422042204E+009, -3.33808583730E-001, -6.14459947858E-001
+4.20424042404E+009, -3.39514060116E-001, -6.11230879806E-001
+4.20426042604E+009, -3.45255624336E-001, -6.07932566761E-001
+4.20428042804E+009, -3.50900208605E-001, -6.04440667733E-001
+4.20430043004E+009, -3.56616777191E-001, -6.01069043565E-001
+4.20432043204E+009, -3.62369050468E-001, -5.97613617065E-001
+4.20434043404E+009, -3.68054445320E-001, -5.94079890077E-001
+4.20436043604E+009, -3.73703270813E-001, -5.90416481953E-001
+4.20438043804E+009, -3.79359294084E-001, -5.86770219320E-001
+4.20440044004E+009, -3.84902647861E-001, -5.82906194822E-001
+4.20442044204E+009, -3.90407135934E-001, -5.79018817346E-001
+4.20444044404E+009, -3.96098239452E-001, -5.75123323683E-001
+4.20446044604E+009, -4.01857756459E-001, -5.71121978250E-001
+4.20448044804E+009, -4.07374812455E-001, -5.67045480041E-001
+4.20450045005E+009, -4.12911080533E-001, -5.62898630797E-001
+4.20452045205E+009, -4.18478240491E-001, -5.58521341630E-001
+4.20454045405E+009, -4.24063110121E-001, -5.54130945430E-001
+4.20456045605E+009, -4.29500530725E-001, -5.49599039750E-001
+4.20458045805E+009, -4.35174515308E-001, -5.44976653324E-001
+4.20460046005E+009, -4.40939478092E-001, -5.40372886070E-001
+4.20462046205E+009, -4.46477604002E-001, -5.35434187818E-001
+4.20464046405E+009, -4.52057982445E-001, -5.30311279891E-001
+4.20466046605E+009, -4.57697421252E-001, -5.25134410280E-001
+4.20468046805E+009, -4.63227806306E-001, -5.19788042238E-001
+4.20470047005E+009, -4.68861485469E-001, -5.14208450264E-001
+4.20472047205E+009, -4.74605047187E-001, -5.08496573359E-001
+4.20474047405E+009, -4.80435009307E-001, -5.02592165726E-001
+4.20476047605E+009, -4.86362320228E-001, -4.96338133506E-001
+4.20478047805E+009, -4.92132580452E-001, -4.89785838704E-001
+4.20480048005E+009, -4.98077404670E-001, -4.82836580824E-001
+4.20482048205E+009, -5.04096277208E-001, -4.75558631896E-001
+4.20484048405E+009, -5.10228702823E-001, -4.67749826931E-001
+4.20486048605E+009, -5.16493364377E-001, -4.59602245678E-001
+4.20488048805E+009, -5.22780601711E-001, -4.50744822316E-001
+4.20490049005E+009, -5.29250231643E-001, -4.41049965225E-001
+4.20492049205E+009, -5.35712695338E-001, -4.30576820716E-001
+4.20494049405E+009, -5.42262443391E-001, -4.18977978910E-001
+4.20496049605E+009, -5.48864997942E-001, -4.05951611538E-001
+4.20498049805E+009, -5.55447482001E-001, -3.91213074062E-001
+4.20500050005E+009, -5.61934850873E-001, -3.74187452485E-001
+4.20502050205E+009, -5.67897543756E-001, -3.53808367727E-001
+4.20504050405E+009, -5.72520049027E-001, -3.29491183117E-001
+4.20506050605E+009, -5.74633532884E-001, -2.99366050495E-001
+4.20508050805E+009, -5.71147305295E-001, -2.60382853675E-001
+4.20510051005E+009, -5.53934838155E-001, -2.08301304700E-001
+4.20512051205E+009, -5.05417249129E-001, -1.45186289428E-001
+4.20514051405E+009, -3.99369703312E-001, -9.66555662928E-002
+4.20516051605E+009, -2.62208309283E-001, -1.21984510053E-001
+4.20518051805E+009, -1.72546116451E-001, -2.17523172904E-001
+4.20520052005E+009, -1.52347680949E-001, -3.24421069261E-001
+4.20522052205E+009, -1.77736737239E-001, -4.08886229624E-001
+4.20524052405E+009, -2.22469103049E-001, -4.63418703919E-001
+4.20526052605E+009, -2.70244731759E-001, -4.93622199796E-001
+4.20528052805E+009, -3.14600441960E-001, -5.07700102167E-001
+4.20530053005E+009, -3.52741800129E-001, -5.11527356126E-001
+4.20532053205E+009, -3.84172793601E-001, -5.09249670510E-001
+4.20534053405E+009, -4.10612557616E-001, -5.03855995415E-001
+4.20536053605E+009, -4.32822547917E-001, -4.96750203792E-001
+4.20538053805E+009, -4.50966437841E-001, -4.89102078585E-001
+4.20540054005E+009, -4.66620143238E-001, -4.80968000777E-001
+4.20542054205E+009, -4.80140475777E-001, -4.72957223024E-001
+4.20544054405E+009, -4.91911083969E-001, -4.64955660267E-001
+4.20546054605E+009, -5.02287738529E-001, -4.57296100600E-001
+4.20548054805E+009, -5.11730901491E-001, -4.49741622241E-001
+4.20550055006E+009, -5.20336647174E-001, -4.42245139026E-001
+4.20552055206E+009, -5.28254084169E-001, -4.34964367559E-001
+4.20554055406E+009, -5.35377857828E-001, -4.27841314884E-001
+4.20556055606E+009, -5.42057116551E-001, -4.20907215355E-001
+4.20558055806E+009, -5.48263902045E-001, -4.13980416701E-001
+4.20560056006E+009, -5.54276155724E-001, -4.07263020432E-001
+4.20562056206E+009, -5.59884179585E-001, -4.00578954114E-001
+4.20564056406E+009, -5.65190551296E-001, -3.94052733513E-001
+4.20566056606E+009, -5.70352682821E-001, -3.87553588880E-001
+4.20568056806E+009, -5.75017556464E-001, -3.81125272703E-001
+4.20570057006E+009, -5.79704677439E-001, -3.74736039075E-001
+4.20572057206E+009, -5.84164924313E-001, -3.68299369466E-001
+4.20574057406E+009, -5.88426019294E-001, -3.62009680546E-001
+4.20576057606E+009, -5.92664369549E-001, -3.55684413342E-001
+4.20578057806E+009, -5.96689567678E-001, -3.49461625299E-001
+4.20580058006E+009, -6.00530878414E-001, -3.43142299709E-001
+4.20582058206E+009, -6.04250684368E-001, -3.36957146114E-001
+4.20584058406E+009, -6.07931130403E-001, -3.30733163066E-001
+4.20586058606E+009, -6.11419800382E-001, -3.24396875621E-001
+4.20588058806E+009, -6.14924178665E-001, -3.18176404455E-001
+4.20590059006E+009, -6.18360172739E-001, -3.11957731584E-001
+4.20592059206E+009, -6.21751906459E-001, -3.05628615968E-001
+4.20594059406E+009, -6.24937722334E-001, -2.99340161588E-001
+4.20596059606E+009, -6.27983044483E-001, -2.92968340326E-001
+4.20598059806E+009, -6.31058580986E-001, -2.86704513160E-001
+4.20600060006E+009, -6.33997521374E-001, -2.80325659914E-001
+4.20602060206E+009, -6.36984538465E-001, -2.73954391685E-001
+4.20604060406E+009, -6.39940117747E-001, -2.67507154147E-001
+4.20606060606E+009, -6.42552895953E-001, -2.60999915464E-001
+4.20608060806E+009, -6.45308221007E-001, -2.54553411836E-001
+4.20610061006E+009, -6.47829975138E-001, -2.47988294986E-001
+4.20612061206E+009, -6.50514377879E-001, -2.41428756819E-001
+4.20614061406E+009, -6.52992961519E-001, -2.34722713418E-001
+4.20616061606E+009, -6.55534423208E-001, -2.28023667778E-001
+4.20618061806E+009, -6.58019704888E-001, -2.21142875386E-001
+4.20620062006E+009, -6.60338653382E-001, -2.14217797608E-001
+4.20622062206E+009, -6.62593589304E-001, -2.07178833354E-001
+4.20624062406E+009, -6.64822573982E-001, -2.00050134304E-001
+4.20626062606E+009, -6.67026983590E-001, -1.92863180454E-001
+4.20628062806E+009, -6.69241591693E-001, -1.85310327411E-001
+4.20630063006E+009, -6.71466598450E-001, -1.77844705219E-001
