!Keysight Technologies,E5063A,MY54502693,A.05.04
!Date: Sat Feb 27 16:33:00 2021
!Data & Calibration Information:
!Freq	S11:NONE(--)	S21:NONE(--)	S12:NONE(--)	S22:NONE(--)
# Hz S RI R 50
5600000000.000	0.000000e+000	0.000000e+000	2.484627e-002	-2.670391e-001	0.000000e+000	0.000000e+000	0.000000e+000	0.000000e+000
5600020002.000	0.000000e+000	0.000000e+000	1.550507e-002	-2.627520e-001	0.000000e+000	0.000000e+000	0.000000e+000	0.000000e+000
5600040004.000	0.000000e+000	0.000000e+000	5.145984e-003	-2.551975e-001	0.000000e+000	0.000000e+000	0.000000e+000	0.000000e+000
5600060006.001	0.000000e+000	0.000000e+000	-6.151315e-003	-2.415696e-001	0.000000e+000	0.000000e+000	0.000000e+000	0.000000e+000
5600080008.001	0.000000e+000	0.000000e+000	-1.456664e-002	-2.175080e-001	0.000000e+000	0.000000e+000	0.000000e+000	0.000000e+000
5600100010.001	0.000000e+000	0.000000e+000	-9.553759e-003	-1.836582e-001	0.000000e+000	0.000000e+000	0.000000e+000	0.000000e+000
5600120012.001	0.000000e+000	0.000000e+000	1.338431e-002	-1.554542e-001	0.000000e+000	0.000000e+000	0.000000e+000	0.000000e+000
5600140014.001	0.000000e+000	0.000000e+000	4.199645e-002	-1.442687e-001	0.000000e+000	0.000000e+000	0.000000e+000	0.000000e+000
5600160016.002	0.000000e+000	0.000000e+000	6.764111e-002	-1.459363e-001	0.000000e+000	0.000000e+000	0.000000e+000	0.000000e+000
5600180018.002	0.000000e+000	0.000000e+000	8.677754e-002	-1.550675e-001	0.000000e+000	0.000000e+000	0.000000e+000	0.000000e+000
5600200020.002	0.000000e+000	0.000000e+000	1.000053e-001	-1.679428e-001	0.000000e+000	0.000000e+000	0.000000e+000	0.000000e+000
5600220022.002	0.000000e+000	0.000000e+000	1.077869e-001	-1.817746e-001	0.000000e+000	0.000000e+000	0.000000e+000	0.000000e+000
5600240024.002	0.000000e+000	0.000000e+000	1.114628e-001	-1.953862e-001	0.000000e+000	0.000000e+000	0.000000e+000	0.000000e+000
5600260026.003	0.000000e+000	0.000000e+000	1.119486e-001	-2.078124e-001	0.000000e+000	0.000000e+000	0.000000e+000	0.000000e+000
5600280028.003	0.000000e+000	0.000000e+000	1.101527e-001	-2.190699e-001	0.000000e+000	0.000000e+000	0.000000e+000	0.000000e+000
5600300030.003	0.000000e+000	0.000000e+000	1.071752e-001	-2.285755e-001	0.000000e+000	0.000000e+000	0.000000e+000	0.000000e+000
5600320032.003	0.000000e+000	0.000000e+000	1.032511e-001	-2.369173e-001	0.000000e+000	0.000000e+000	0.000000e+000	0.000000e+000
5600340034.003	0.000000e+000	0.000000e+000	9.862247e-002	-2.438157e-001	0.000000e+000	0.000000e+000	0.000000e+000	0.000000e+000
5600360036.004	0.000000e+000	0.000000e+000	9.402268e-002	-2.497777e-001	0.000000e+000	0.000000e+000	0.000000e+000	0.000000e+000
5600380038.004	0.000000e+000	0.000000e+000	8.926130e-002	-2.546971e-001	0.000000e+000	0.000000e+000	0.000000e+000	0.000000e+000
5600400040.004	0.000000e+000	0.000000e+000	8.450304e-002	-2.589399e-001	0.000000e+000	0.000000e+000	0.000000e+000	0.000000e+000
5600420042.004	0.000000e+000	0.000000e+000	7.995722e-002	-2.624107e-001	0.000000e+000	0.000000e+000	0.000000e+000	0.000000e+000
5600440044.004	0.000000e+000	0.000000e+000	7.555555e-002	-2.655323e-001	0.000000e+000	0.000000e+000	0.000000e+000	0.000000e+000
5600460046.005	0.000000e+000	0.000000e+000	7.123745e-002	-2.681742e-001	0.000000e+000	0.000000e+000	0.000000e+000	0.000000e+000
5600480048.005	0.000000e+000	0.000000e+000	6.710827e-002	-2.705205e-001	0.000000e+000	0.000000e+000	0.000000e+000	0.000000e+000
5600500050.005	0.000000e+000	0.000000e+000	6.301743e-002	-2.725941e-001	0.000000e+000	0.000000e+000	0.000000e+000	0.000000e+000
5600520052.005	0.000000e+000	0.000000e+000	5.901975e-002	-2.743329e-001	0.000000e+000	0.000000e+000	0.000000e+000	0.000000e+000
5600540054.005	0.000000e+000	0.000000e+000	5.525575e-002	-2.760803e-001	0.000000e+000	0.000000e+000	0.000000e+000	0.000000e+000
5600560056.006	0.000000e+000	0.000000e+000	5.149217e-002	-2.775172e-001	0.000000e+000	0.000000e+000	0.000000e+000	0.000000e+000
5600580058.006	0.000000e+000	0.000000e+000	4.787042e-002	-2.789661e-001	0.000000e+000	0.000000e+000	0.000000e+000	0.000000e+000
5600600060.006	0.000000e+000	0.000000e+000	4.433356e-002	-2.800943e-001	0.000000e+000	0.000000e+000	0.000000e+000	0.000000e+000
5600620062.006	0.000000e+000	0.000000e+000	4.058901e-002	-2.813035e-001	0.000000e+000	0.000000e+000	0.000000e+000	0.000000e+000
5600640064.006	0.000000e+000	0.000000e+000	3.731865e-002	-2.822036e-001	0.000000e+000	0.000000e+000	0.000000e+000	0.000000e+000
5600660066.007	0.000000e+000	0.000000e+000	3.376237e-002	-2.830997e-001	0.000000e+000	0.000000e+000	0.000000e+000	0.000000e+000
5600680068.007	0.000000e+000	0.000000e+000	3.044348e-002	-2.838838e-001	0.000000e+000	0.000000e+000	0.000000e+000	0.000000e+000
5600700070.007	0.000000e+000	0.000000e+000	2.714377e-002	-2.847711e-001	0.000000e+000	0.000000e+000	0.000000e+000	0.000000e+000
5600720072.007	0.000000e+000	0.000000e+000	2.375812e-002	-2.854524e-001	0.000000e+000	0.000000e+000	0.000000e+000	0.000000e+000
5600740074.007	0.000000e+000	0.000000e+000	2.045962e-002	-2.860940e-001	0.000000e+000	0.000000e+000	0.000000e+000	0.000000e+000
5600760076.008	0.000000e+000	0.000000e+000	1.712150e-002	-2.866687e-001	0.000000e+000	0.000000e+000	0.000000e+000	0.000000e+000
5600780078.008	0.000000e+000	0.000000e+000	1.382571e-002	-2.872944e-001	0.000000e+000	0.000000e+000	0.000000e+000	0.000000e+000
5600800080.008	0.000000e+000	0.000000e+000	1.058312e-002	-2.878978e-001	0.000000e+000	0.000000e+000	0.000000e+000	0.000000e+000
5600820082.008	0.000000e+000	0.000000e+000	7.230693e-003	-2.881721e-001	0.000000e+000	0.000000e+000	0.000000e+000	0.000000e+000
5600840084.008	0.000000e+000	0.000000e+000	4.006606e-003	-2.887018e-001	0.000000e+000	0.000000e+000	0.000000e+000	0.000000e+000
5600860086.009	0.000000e+000	0.000000e+000	6.463723e-004	-2.891058e-001	0.000000e+000	0.000000e+000	0.000000e+000	0.000000e+000
5600880088.009	0.000000e+000	0.000000e+000	-2.527076e-003	-2.895526e-001	0.000000e+000	0.000000e+000	0.000000e+000	0.000000e+000
5600900090.009	0.000000e+000	0.000000e+000	-5.857002e-003	-2.897070e-001	0.000000e+000	0.000000e+000	0.000000e+000	0.000000e+000
5600920092.009	0.000000e+000	0.000000e+000	-9.240069e-003	-2.900593e-001	0.000000e+000	0.000000e+000	0.000000e+000	0.000000e+000
5600940094.009	0.000000e+000	0.000000e+000	-1.270573e-002	-2.902916e-001	0.000000e+000	0.000000e+000	0.000000e+000	0.000000e+000
5600960096.010	0.000000e+000	0.000000e+000	-1.610097e-002	-2.904146e-001	0.000000e+000	0.000000e+000	0.000000e+000	0.000000e+000
5600980098.010	0.000000e+000	0.000000e+000	-1.936840e-002	-2.907052e-001	0.000000e+000	0.000000e+000	0.000000e+000	0.000000e+000
5601000100.010	0.000000e+000	0.000000e+000	-2.282657e-002	-2.907342e-001	0.000000e+000	0.000000e+000	0.000000e+000	0.000000e+000
5601020102.010	0.000000e+000	0.000000e+000	-2.644008e-002	-2.909478e-001	0.000000e+000	0.000000e+000	0.000000e+000	0.000000e+000
5601040104.010	0.000000e+000	0.000000e+000	-2.990429e-002	-2.908551e-001	0.000000e+000	0.000000e+000	0.000000e+000	0.000000e+000
5601060106.011	0.000000e+000	0.000000e+000	-3.342843e-002	-2.908900e-001	0.000000e+000	0.000000e+000	0.000000e+000	0.000000e+000
5601080108.011	0.000000e+000	0.000000e+000	-3.719155e-002	-2.907709e-001	0.000000e+000	0.000000e+000	0.000000e+000	0.000000e+000
5601100110.011	0.000000e+000	0.000000e+000	-4.086904e-002	-2.906291e-001	0.000000e+000	0.000000e+000	0.000000e+000	0.000000e+000
5601120112.011	0.000000e+000	0.000000e+000	-4.485991e-002	-2.905475e-001	0.000000e+000	0.000000e+000	0.000000e+000	0.000000e+000
5601140114.011	0.000000e+000	0.000000e+000	-4.867094e-002	-2.902610e-001	0.000000e+000	0.000000e+000	0.000000e+000	0.000000e+000
5601160116.012	0.000000e+000	0.000000e+000	-5.276790e-002	-2.901335e-001	0.000000e+000	0.000000e+000	0.000000e+000	0.000000e+000
5601180118.012	0.000000e+000	0.000000e+000	-5.691716e-002	-2.896767e-001	0.000000e+000	0.000000e+000	0.000000e+000	0.000000e+000
5601200120.012	0.000000e+000	0.000000e+000	-6.121166e-002	-2.891317e-001	0.000000e+000	0.000000e+000	0.000000e+000	0.000000e+000
5601220122.012	0.000000e+000	0.000000e+000	-6.573182e-002	-2.887757e-001	0.000000e+000	0.000000e+000	0.000000e+000	0.000000e+000
5601240124.012	0.000000e+000	0.000000e+000	-7.035667e-002	-2.880878e-001	0.000000e+000	0.000000e+000	0.000000e+000	0.000000e+000
5601260126.013	0.000000e+000	0.000000e+000	-7.517880e-002	-2.872439e-001	0.000000e+000	0.000000e+000	0.000000e+000	0.000000e+000
5601280128.013	0.000000e+000	0.000000e+000	-8.031865e-002	-2.862845e-001	0.000000e+000	0.000000e+000	0.000000e+000	0.000000e+000
5601300130.013	0.000000e+000	0.000000e+000	-8.558953e-002	-2.851434e-001	0.000000e+000	0.000000e+000	0.000000e+000	0.000000e+000
5601320132.013	0.000000e+000	0.000000e+000	-9.125433e-002	-2.837561e-001	0.000000e+000	0.000000e+000	0.000000e+000	0.000000e+000
5601340134.013	0.000000e+000	0.000000e+000	-9.736690e-002	-2.820602e-001	0.000000e+000	0.000000e+000	0.000000e+000	0.000000e+000
5601360136.014	0.000000e+000	0.000000e+000	-1.039401e-001	-2.798479e-001	0.000000e+000	0.000000e+000	0.000000e+000	0.000000e+000
5601380138.014	0.000000e+000	0.000000e+000	-1.109448e-001	-2.770054e-001	0.000000e+000	0.000000e+000	0.000000e+000	0.000000e+000
5601400140.014	0.000000e+000	0.000000e+000	-1.187967e-001	-2.735502e-001	0.000000e+000	0.000000e+000	0.000000e+000	0.000000e+000
5601420142.014	0.000000e+000	0.000000e+000	-1.270685e-001	-2.690022e-001	0.000000e+000	0.000000e+000	0.000000e+000	0.000000e+000
5601440144.014	0.000000e+000	0.000000e+000	-1.361620e-001	-2.628168e-001	0.000000e+000	0.000000e+000	0.000000e+000	0.000000e+000
5601460146.015	0.000000e+000	0.000000e+000	-1.463031e-001	-2.541523e-001	0.000000e+000	0.000000e+000	0.000000e+000	0.000000e+000
5601480148.015	0.000000e+000	0.000000e+000	-1.568724e-001	-2.417507e-001	0.000000e+000	0.000000e+000	0.000000e+000	0.000000e+000
5601500150.015	0.000000e+000	0.000000e+000	-1.670823e-001	-2.228431e-001	0.000000e+000	0.000000e+000	0.000000e+000	0.000000e+000
5601520152.015	0.000000e+000	0.000000e+000	-1.728236e-001	-1.937918e-001	0.000000e+000	0.000000e+000	0.000000e+000	0.000000e+000
5601540154.015	0.000000e+000	0.000000e+000	-1.647779e-001	-1.565927e-001	0.000000e+000	0.000000e+000	0.000000e+000	0.000000e+000
5601560156.016	0.000000e+000	0.000000e+000	-1.379966e-001	-1.234060e-001	0.000000e+000	0.000000e+000	0.000000e+000	0.000000e+000
5601580158.016	0.000000e+000	0.000000e+000	-1.010455e-001	-1.073434e-001	0.000000e+000	0.000000e+000	0.000000e+000	0.000000e+000
5601600160.016	0.000000e+000	0.000000e+000	-6.741290e-002	-1.080150e-001	0.000000e+000	0.000000e+000	0.000000e+000	0.000000e+000
5601620162.016	0.000000e+000	0.000000e+000	-4.163250e-002	-1.187108e-001	0.000000e+000	0.000000e+000	0.000000e+000	0.000000e+000
5601640164.016	0.000000e+000	0.000000e+000	-2.385878e-002	-1.344697e-001	0.000000e+000	0.000000e+000	0.000000e+000	0.000000e+000
5601660166.017	0.000000e+000	0.000000e+000	-1.323614e-002	-1.518524e-001	0.000000e+000	0.000000e+000	0.000000e+000	0.000000e+000
5601680168.017	0.000000e+000	0.000000e+000	-8.155961e-003	-1.689402e-001	0.000000e+000	0.000000e+000	0.000000e+000	0.000000e+000
5601700170.017	0.000000e+000	0.000000e+000	-7.386325e-003	-1.840041e-001	0.000000e+000	0.000000e+000	0.000000e+000	0.000000e+000
5601720172.017	0.000000e+000	0.000000e+000	-9.245038e-003	-1.975804e-001	0.000000e+000	0.000000e+000	0.000000e+000	0.000000e+000
5601740174.017	0.000000e+000	0.000000e+000	-1.323347e-002	-2.090742e-001	0.000000e+000	0.000000e+000	0.000000e+000	0.000000e+000
5601760176.018	0.000000e+000	0.000000e+000	-1.838672e-002	-2.187554e-001	0.000000e+000	0.000000e+000	0.000000e+000	0.000000e+000
5601780178.018	0.000000e+000	0.000000e+000	-2.434078e-002	-2.267391e-001	0.000000e+000	0.000000e+000	0.000000e+000	0.000000e+000
5601800180.018	0.000000e+000	0.000000e+000	-3.032043e-002	-2.332604e-001	0.000000e+000	0.000000e+000	0.000000e+000	0.000000e+000
5601820182.018	0.000000e+000	0.000000e+000	-3.650881e-002	-2.383749e-001	0.000000e+000	0.000000e+000	0.000000e+000	0.000000e+000
5601840184.018	0.000000e+000	0.000000e+000	-4.265938e-002	-2.425248e-001	0.000000e+000	0.000000e+000	0.000000e+000	0.000000e+000
5601860186.019	0.000000e+000	0.000000e+000	-4.856994e-002	-2.457889e-001	0.000000e+000	0.000000e+000	0.000000e+000	0.000000e+000
5601880188.019	0.000000e+000	0.000000e+000	-5.436852e-002	-2.485105e-001	0.000000e+000	0.000000e+000	0.000000e+000	0.000000e+000
5601900190.019	0.000000e+000	0.000000e+000	-5.991986e-002	-2.507640e-001	0.000000e+000	0.000000e+000	0.000000e+000	0.000000e+000
5601920192.019	0.000000e+000	0.000000e+000	-6.538933e-002	-2.524062e-001	0.000000e+000	0.000000e+000	0.000000e+000	0.000000e+000
5601940194.019	0.000000e+000	0.000000e+000	-7.045539e-002	-2.537513e-001	0.000000e+000	0.000000e+000	0.000000e+000	0.000000e+000
5601960196.020	0.000000e+000	0.000000e+000	-7.540582e-002	-2.546373e-001	0.000000e+000	0.000000e+000	0.000000e+000	0.000000e+000
5601980198.020	0.000000e+000	0.000000e+000	-8.039948e-002	-2.554584e-001	0.000000e+000	0.000000e+000	0.000000e+000	0.000000e+000
5602000200.020	0.000000e+000	0.000000e+000	-8.519438e-002	-2.559890e-001	0.000000e+000	0.000000e+000	0.000000e+000	0.000000e+000
5602020202.020	0.000000e+000	0.000000e+000	-9.003274e-002	-2.561777e-001	0.000000e+000	0.000000e+000	0.000000e+000	0.000000e+000
5602040204.020	0.000000e+000	0.000000e+000	-9.455376e-002	-2.563433e-001	0.000000e+000	0.000000e+000	0.000000e+000	0.000000e+000
5602060206.021	0.000000e+000	0.000000e+000	-9.936396e-002	-2.561285e-001	0.000000e+000	0.000000e+000	0.000000e+000	0.000000e+000
5602080208.021	0.000000e+000	0.000000e+000	-1.038096e-001	-2.559695e-001	0.000000e+000	0.000000e+000	0.000000e+000	0.000000e+000
5602100210.021	0.000000e+000	0.000000e+000	-1.082851e-001	-2.558150e-001	0.000000e+000	0.000000e+000	0.000000e+000	0.000000e+000
5602120212.021	0.000000e+000	0.000000e+000	-1.128413e-001	-2.551967e-001	0.000000e+000	0.000000e+000	0.000000e+000	0.000000e+000
5602140214.021	0.000000e+000	0.000000e+000	-1.173748e-001	-2.546934e-001	0.000000e+000	0.000000e+000	0.000000e+000	0.000000e+000
5602160216.022	0.000000e+000	0.000000e+000	-1.221579e-001	-2.539841e-001	0.000000e+000	0.000000e+000	0.000000e+000	0.000000e+000
5602180218.022	0.000000e+000	0.000000e+000	-1.269231e-001	-2.531237e-001	0.000000e+000	0.000000e+000	0.000000e+000	0.000000e+000
5602200220.022	0.000000e+000	0.000000e+000	-1.316399e-001	-2.521423e-001	0.000000e+000	0.000000e+000	0.000000e+000	0.000000e+000
5602220222.022	0.000000e+000	0.000000e+000	-1.365362e-001	-2.509569e-001	0.000000e+000	0.000000e+000	0.000000e+000	0.000000e+000
5602240224.022	0.000000e+000	0.000000e+000	-1.416406e-001	-2.495471e-001	0.000000e+000	0.000000e+000	0.000000e+000	0.000000e+000
5602260226.023	0.000000e+000	0.000000e+000	-1.469285e-001	-2.480260e-001	0.000000e+000	0.000000e+000	0.000000e+000	0.000000e+000
5602280228.023	0.000000e+000	0.000000e+000	-1.524167e-001	-2.462163e-001	0.000000e+000	0.000000e+000	0.000000e+000	0.000000e+000
5602300230.023	0.000000e+000	0.000000e+000	-1.585919e-001	-2.440905e-001	0.000000e+000	0.000000e+000	0.000000e+000	0.000000e+000
5602320232.023	0.000000e+000	0.000000e+000	-1.648127e-001	-2.415969e-001	0.000000e+000	0.000000e+000	0.000000e+000	0.000000e+000
5602340234.023	0.000000e+000	0.000000e+000	-1.714659e-001	-2.384673e-001	0.000000e+000	0.000000e+000	0.000000e+000	0.000000e+000
5602360236.024	0.000000e+000	0.000000e+000	-1.789406e-001	-2.348121e-001	0.000000e+000	0.000000e+000	0.000000e+000	0.000000e+000
5602380238.024	0.000000e+000	0.000000e+000	-1.868723e-001	-2.299686e-001	0.000000e+000	0.000000e+000	0.000000e+000	0.000000e+000
5602400240.024	0.000000e+000	0.000000e+000	-1.956611e-001	-2.237687e-001	0.000000e+000	0.000000e+000	0.000000e+000	0.000000e+000
5602420242.024	0.000000e+000	0.000000e+000	-2.054608e-001	-2.153890e-001	0.000000e+000	0.000000e+000	0.000000e+000	0.000000e+000
5602440244.024	0.000000e+000	0.000000e+000	-2.162712e-001	-2.032640e-001	0.000000e+000	0.000000e+000	0.000000e+000	0.000000e+000
5602460246.025	0.000000e+000	0.000000e+000	-2.270782e-001	-1.841036e-001	0.000000e+000	0.000000e+000	0.000000e+000	0.000000e+000
5602480248.025	0.000000e+000	0.000000e+000	-2.336278e-001	-1.531986e-001	0.000000e+000	0.000000e+000	0.000000e+000	0.000000e+000
5602500250.025	0.000000e+000	0.000000e+000	-2.224547e-001	-1.090786e-001	0.000000e+000	0.000000e+000	0.000000e+000	0.000000e+000
5602520252.025	0.000000e+000	0.000000e+000	-1.841194e-001	-7.276040e-002	0.000000e+000	0.000000e+000	0.000000e+000	0.000000e+000
5602540254.025	0.000000e+000	0.000000e+000	-1.374673e-001	-6.340285e-002	0.000000e+000	0.000000e+000	0.000000e+000	0.000000e+000
5602560256.026	0.000000e+000	0.000000e+000	-1.006209e-001	-7.438549e-002	0.000000e+000	0.000000e+000	0.000000e+000	0.000000e+000
5602580258.026	0.000000e+000	0.000000e+000	-7.690656e-002	-9.480964e-002	0.000000e+000	0.000000e+000	0.000000e+000	0.000000e+000
5602600260.026	0.000000e+000	0.000000e+000	-6.464371e-002	-1.171532e-001	0.000000e+000	0.000000e+000	0.000000e+000	0.000000e+000
5602620262.026	0.000000e+000	0.000000e+000	-6.074366e-002	-1.378303e-001	0.000000e+000	0.000000e+000	0.000000e+000	0.000000e+000
5602640264.026	0.000000e+000	0.000000e+000	-6.222424e-002	-1.556602e-001	0.000000e+000	0.000000e+000	0.000000e+000	0.000000e+000
5602660266.027	0.000000e+000	0.000000e+000	-6.715602e-002	-1.700802e-001	0.000000e+000	0.000000e+000	0.000000e+000	0.000000e+000
5602680268.027	0.000000e+000	0.000000e+000	-7.365809e-002	-1.812889e-001	0.000000e+000	0.000000e+000	0.000000e+000	0.000000e+000
5602700270.027	0.000000e+000	0.000000e+000	-8.109540e-002	-1.898842e-001	0.000000e+000	0.000000e+000	0.000000e+000	0.000000e+000
5602720272.027	0.000000e+000	0.000000e+000	-8.844404e-002	-1.964451e-001	0.000000e+000	0.000000e+000	0.000000e+000	0.000000e+000
5602740274.027	0.000000e+000	0.000000e+000	-9.577611e-002	-2.012841e-001	0.000000e+000	0.000000e+000	0.000000e+000	0.000000e+000
5602760276.028	0.000000e+000	0.000000e+000	-1.025132e-001	-2.047472e-001	0.000000e+000	0.000000e+000	0.000000e+000	0.000000e+000
5602780278.028	0.000000e+000	0.000000e+000	-1.090015e-001	-2.073195e-001	0.000000e+000	0.000000e+000	0.000000e+000	0.000000e+000
5602800280.028	0.000000e+000	0.000000e+000	-1.149668e-001	-2.090144e-001	0.000000e+000	0.000000e+000	0.000000e+000	0.000000e+000
5602820282.028	0.000000e+000	0.000000e+000	-1.203192e-001	-2.100392e-001	0.000000e+000	0.000000e+000	0.000000e+000	0.000000e+000
5602840284.028	0.000000e+000	0.000000e+000	-1.254508e-001	-2.107105e-001	0.000000e+000	0.000000e+000	0.000000e+000	0.000000e+000
5602860286.029	0.000000e+000	0.000000e+000	-1.302984e-001	-2.110189e-001	0.000000e+000	0.000000e+000	0.000000e+000	0.000000e+000
5602880288.029	0.000000e+000	0.000000e+000	-1.347940e-001	-2.110702e-001	0.000000e+000	0.000000e+000	0.000000e+000	0.000000e+000
5602900290.029	0.000000e+000	0.000000e+000	-1.390021e-001	-2.108912e-001	0.000000e+000	0.000000e+000	0.000000e+000	0.000000e+000
5602920292.029	0.000000e+000	0.000000e+000	-1.429510e-001	-2.103915e-001	0.000000e+000	0.000000e+000	0.000000e+000	0.000000e+000
5602940294.029	0.000000e+000	0.000000e+000	-1.467269e-001	-2.098803e-001	0.000000e+000	0.000000e+000	0.000000e+000	0.000000e+000
5602960296.030	0.000000e+000	0.000000e+000	-1.504116e-001	-2.092505e-001	0.000000e+000	0.000000e+000	0.000000e+000	0.000000e+000
5602980298.030	0.000000e+000	0.000000e+000	-1.538748e-001	-2.084664e-001	0.000000e+000	0.000000e+000	0.000000e+000	0.000000e+000
5603000300.030	0.000000e+000	0.000000e+000	-1.571558e-001	-2.075526e-001	0.000000e+000	0.000000e+000	0.000000e+000	0.000000e+000
5603020302.030	0.000000e+000	0.000000e+000	-1.604827e-001	-2.066109e-001	0.000000e+000	0.000000e+000	0.000000e+000	0.000000e+000
