"# Channel 1"
"# Trace 1"
Frequency, Formatted Data, Formatted Data
+5.40000000000E+009, -2.98247672754E-001, -4.30637913953E-002
+5.40002000200E+009, -2.99642808669E-001, -3.82633374788E-002
+5.40004000400E+009, -3.00946796943E-001, -3.36409050963E-002
+5.40006000600E+009, -3.01854711763E-001, -2.93011175145E-002
+5.40008000800E+009, -3.02855233596E-001, -2.49790318533E-002
+5.40010001000E+009, -3.03474169618E-001, -2.08888915006E-002
+5.40012001200E+009, -3.04023447798E-001, -1.70022566750E-002
+5.40014001400E+009, -3.04442675826E-001, -1.30914697911E-002
+5.40016001600E+009, -3.04796755408E-001, -9.34793711762E-003
+5.40018001800E+009, -3.05126058885E-001, -5.79052388011E-003
+5.40020002000E+009, -3.05316321922E-001, -2.29119604285E-003
+5.40022002200E+009, -3.05445618087E-001, +1.32079857165E-003
+5.40024002400E+009, -3.05668436174E-001, +4.84090591487E-003
+5.40026002600E+009, -3.05645610229E-001, +8.14917705545E-003
+5.40028002800E+009, -3.05695566057E-001, +1.15298668474E-002
+5.40030003000E+009, -3.05553362650E-001, +1.46537442132E-002
+5.40032003200E+009, -3.05529915874E-001, +1.80072505826E-002
+5.40034003400E+009, -3.05341564702E-001, +2.11323216254E-002
+5.40036003600E+009, -3.05236321995E-001, +2.44025448662E-002
+5.40038003800E+009, -3.05082028806E-001, +2.75137455879E-002
+5.40040004000E+009, -3.04954006378E-001, +3.05311299918E-002
+5.40042004200E+009, -3.04515272428E-001, +3.38028013688E-002
+5.40044004400E+009, -3.04226028057E-001, +3.67566680039E-002
+5.40046004600E+009, -3.03904310916E-001, +3.98309760164E-002
+5.40048004800E+009, -3.03485522666E-001, +4.29082198161E-002
+5.40050005001E+009, -3.03194154597E-001, +4.59684860422E-002
+5.40052005201E+009, -3.02712388654E-001, +4.89717558209E-002
+5.40054005401E+009, -3.02253969105E-001, +5.22225649164E-002
+5.40056005601E+009, -3.01752327639E-001, +5.51082351027E-002
+5.40058005801E+009, -3.01343143028E-001, +5.81557103607E-002
+5.40060006001E+009, -3.00724395907E-001, +6.10911809551E-002
+5.40062006201E+009, -3.00178953628E-001, +6.42218752556E-002
+5.40064006401E+009, -2.99539014658E-001, +6.73241329566E-002
+5.40066006601E+009, -2.98804130054E-001, +7.03660583151E-002
+5.40068006801E+009, -2.98260180650E-001, +7.34437071302E-002
+5.40070007001E+009, -2.97503508917E-001, +7.66469927148E-002
+5.40072007201E+009, -2.96644211931E-001, +7.98723674936E-002
+5.40074007401E+009, -2.95748881280E-001, +8.29483111019E-002
+5.40076007601E+009, -2.94969497575E-001, +8.62532324613E-002
+5.40078007801E+009, -2.94025321569E-001, +8.96994270096E-002
+5.40080008001E+009, -2.92976382721E-001, +9.29584672103E-002
+5.40082008201E+009, -2.91849758640E-001, +9.64314543542E-002
+5.40084008401E+009, -2.90826191219E-001, +9.99706211677E-002
+5.40086008601E+009, -2.89607180610E-001, +1.03521606557E-001
+5.40088008801E+009, -2.88119152564E-001, +1.07354258457E-001
+5.40090009001E+009, -2.86647819909E-001, +1.11248396185E-001
+5.40092009201E+009, -2.84928176406E-001, +1.15302947990E-001
+5.40094009401E+009, -2.83121078449E-001, +1.19455852606E-001
+5.40096009601E+009, -2.80936151233E-001, +1.23921398533E-001
+5.40098009801E+009, -2.78547659174E-001, +1.28745271116E-001
+5.40100010001E+009, -2.75612696176E-001, +1.33807265531E-001
+5.40102010201E+009, -2.72177664518E-001, +1.39169793156E-001
+5.40104010401E+009, -2.67993856373E-001, +1.45228288823E-001
+5.40106010601E+009, -2.62617650454E-001, +1.51474501602E-001
+5.40108010801E+009, -2.55743116985E-001, +1.58204304701E-001
+5.40110011001E+009, -2.46639664943E-001, +1.65128605349E-001
+5.40112011201E+009, -2.34354806166E-001, +1.71864965704E-001
+5.40114011401E+009, -2.17532291440E-001, +1.76980058655E-001
+5.40116011601E+009, -1.94669651464E-001, +1.77063583317E-001
+5.40118011801E+009, -1.67104996246E-001, +1.65886413374E-001
+5.40120012001E+009, -1.43587398638E-001, +1.36631078329E-001
+5.40122012201E+009, -1.40905899925E-001, +9.33262505202E-002
+5.40124012401E+009, -1.65519301509E-001, +5.73866026599E-002
+5.40126012601E+009, -1.99016629025E-001, +4.51474637930E-002
+5.40128012801E+009, -2.25236252951E-001, +4.92210237891E-002
+5.40130013001E+009, -2.41842696976E-001, +5.88089752026E-002
+5.40132013201E+009, -2.51867882122E-001, +6.89375827939E-002
+5.40134013401E+009, -2.57524207643E-001, +7.79475468575E-002
+5.40136013601E+009, -2.61177858686E-001, +8.61072784075E-002
+5.40138013801E+009, -2.63147666324E-001, +9.31487658278E-002
+5.40140014001E+009, -2.64358069865E-001, +9.93832131254E-002
+5.40142014201E+009, -2.64907099063E-001, +1.05007563793E-001
+5.40144014401E+009, -2.64930568776E-001, +1.10026304998E-001
+5.40146014601E+009, -2.64731522740E-001, +1.14716562546E-001
+5.40148014801E+009, -2.64281378778E-001, +1.18937097195E-001
+5.40150015002E+009, -2.63765017673E-001, +1.22962253567E-001
+5.40152015202E+009, -2.63003791502E-001, +1.26663260281E-001
+5.40154015402E+009, -2.62135523481E-001, +1.30392110834E-001
+5.40156015602E+009, -2.61279128504E-001, +1.33807711712E-001
+5.40158015802E+009, -2.60159070836E-001, +1.37001142530E-001
+5.40160016002E+009, -2.59161642710E-001, +1.39989295609E-001
+5.40162016202E+009, -2.58158532095E-001, +1.43038509025E-001
+5.40164016402E+009, -2.56998554863E-001, +1.46103609965E-001
+5.40166016602E+009, -2.55857808733E-001, +1.48849752588E-001
+5.40168016802E+009, -2.54608485244E-001, +1.51645612723E-001
+5.40170017002E+009, -2.53454071769E-001, +1.54263560976E-001
+5.40172017202E+009, -2.52087033395E-001, +1.56790476775E-001
+5.40174017402E+009, -2.50804445964E-001, +1.59424053951E-001
+5.40176017602E+009, -2.49427322794E-001, +1.61883422180E-001
+5.40178017802E+009, -2.48121939333E-001, +1.64326906167E-001
+5.40180018002E+009, -2.46875729295E-001, +1.66753851457E-001
+5.40182018202E+009, -2.45436244031E-001, +1.69086279138E-001
+5.40184018402E+009, -2.43971367517E-001, +1.71373590630E-001
+5.40186018602E+009, -2.42494072202E-001, +1.73641476955E-001
+5.40188018802E+009, -2.41141327640E-001, +1.75917345692E-001
+5.40190019002E+009, -2.39699784869E-001, +1.78091320383E-001
+5.40192019202E+009, -2.38181234874E-001, +1.80264455755E-001
+5.40194019402E+009, -2.36841458839E-001, +1.82417065229E-001
+5.40196019602E+009, -2.35300352920E-001, +1.84580430223E-001
+5.40198019802E+009, -2.33697909914E-001, +1.86640997640E-001
+5.40200020002E+009, -2.32239312679E-001, +1.88658001461E-001
+5.40202020202E+009, -2.30512254763E-001, +1.90662456669E-001
+5.40204020402E+009, -2.29173747888E-001, +1.92748191793E-001
+5.40206020602E+009, -2.27476014847E-001, +1.94751568771E-001
+5.40208020802E+009, -2.25977473099E-001, +1.96703669516E-001
+5.40210021002E+009, -2.24307413418E-001, +1.98591229330E-001
+5.40212021202E+009, -2.22692385372E-001, +2.00407346249E-001
+5.40214021402E+009, -2.21059882292E-001, +2.02453390804E-001
+5.40216021602E+009, -2.19401167854E-001, +2.04385063161E-001
+5.40218021802E+009, -2.17789838399E-001, +2.06213370180E-001
+5.40220022002E+009, -2.16153715428E-001, +2.08061134211E-001
+5.40222022202E+009, -2.14390445155E-001, +2.09862678967E-001
+5.40224022402E+009, -2.12696703641E-001, +2.11651282868E-001
+5.40226022602E+009, -2.11070278753E-001, +2.13388878971E-001
+5.40228022802E+009, -2.09293998409E-001, +2.15147145770E-001
+5.40230023002E+009, -2.07429834922E-001, +2.16950553448E-001
+5.40232023202E+009, -2.05702668182E-001, +2.18668811773E-001
+5.40234023402E+009, -2.03981834674E-001, +2.20427184502E-001
+5.40236023602E+009, -2.02300031481E-001, +2.21969376037E-001
+5.40238023802E+009, -2.00508513757E-001, +2.23747769104E-001
+5.40240024002E+009, -1.98641457489E-001, +2.25324570055E-001
+5.40242024202E+009, -1.96896261995E-001, +2.27016296486E-001
+5.40244024402E+009, -1.95052261421E-001, +2.28599994164E-001
+5.40246024602E+009, -1.93280161603E-001, +2.30275200048E-001
+5.40248024802E+009, -1.91466505709E-001, +2.31896261572E-001
+5.40250025003E+009, -1.89472533718E-001, +2.33424644292E-001
+5.40252025203E+009, -1.87556556498E-001, +2.34969308663E-001
+5.40254025403E+009, -1.85760773151E-001, +2.36434643451E-001
+5.40256025603E+009, -1.83879121733E-001, +2.38028345535E-001
+5.40258025803E+009, -1.81988111453E-001, +2.39590630146E-001
+5.40260026003E+009, -1.80102620765E-001, +2.40914155875E-001
+5.40262026203E+009, -1.78116972590E-001, +2.42467755634E-001
+5.40264026403E+009, -1.76162757346E-001, +2.43834256004E-001
+5.40266026603E+009, -1.74281734221E-001, +2.45251502373E-001
+5.40268026803E+009, -1.72277147384E-001, +2.46663429367E-001
+5.40270027003E+009, -1.70312767571E-001, +2.48144642444E-001
+5.40272027203E+009, -1.68468828080E-001, +2.49622335158E-001
+5.40274027403E+009, -1.66428559197E-001, +2.50886121379E-001
+5.40276027603E+009, -1.64420574765E-001, +2.52320789520E-001
+5.40278027803E+009, -1.62340425025E-001, +2.53654868250E-001
+5.40280028003E+009, -1.60254958248E-001, +2.54907509187E-001
+5.40282028203E+009, -1.58253776115E-001, +2.56185706379E-001
+5.40284028403E+009, -1.56325914919E-001, +2.57528491031E-001
+5.40286028603E+009, -1.54262669463E-001, +2.58839775857E-001
+5.40288028803E+009, -1.52233948432E-001, +2.60165962818E-001
+5.40290029003E+009, -1.50049873912E-001, +2.61409140074E-001
+5.40292029203E+009, -1.47952430043E-001, +2.62549264361E-001
+5.40294029403E+009, -1.45822777989E-001, +2.63832400721E-001
+5.40296029603E+009, -1.43810586788E-001, +2.64961214246E-001
+5.40298029803E+009, -1.41603694844E-001, +2.66259326985E-001
+5.40300030003E+009, -1.39569775295E-001, +2.67402224527E-001
+5.40302030203E+009, -1.37373762875E-001, +2.68605936106E-001
+5.40304030403E+009, -1.35231633671E-001, +2.69593911664E-001
+5.40306030603E+009, -1.33094370756E-001, +2.70800544889E-001
+5.40308030803E+009, -1.30889820744E-001, +2.71799466039E-001
+5.40310031003E+009, -1.28611788308E-001, +2.73046055720E-001
+5.40312031203E+009, -1.26528203640E-001, +2.74126543524E-001
+5.40314031403E+009, -1.24366637075E-001, +2.75081986802E-001
+5.40316031603E+009, -1.22119887405E-001, +2.76184488428E-001
+5.40318031803E+009, -1.19833569461E-001, +2.77235116060E-001
+5.40320032003E+009, -1.17629723059E-001, +2.78192259086E-001
+5.40322032203E+009, -1.15354272242E-001, +2.79237653150E-001
+5.40324032403E+009, -1.13040933808E-001, +2.80116546961E-001
+5.40326032603E+009, -1.10614867879E-001, +2.81177647180E-001
+5.40328032803E+009, -1.08499852562E-001, +2.82160677323E-001
+5.40330033003E+009, -1.06126085535E-001, +2.83102832523E-001
+5.40332033203E+009, -1.03929929946E-001, +2.83939171060E-001
+5.40334033403E+009, -1.01541115578E-001, +2.84963116403E-001
+5.40336033603E+009, -9.91428750867E-002, +2.85837769770E-001
+5.40338033803E+009, -9.69299551537E-002, +2.86701541758E-001
+5.40340034003E+009, -9.44231836942E-002, +2.87635227826E-001
+5.40342034203E+009, -9.19969622818E-002, +2.88419245494E-001
+5.40344034403E+009, -8.97214855501E-002, +2.89283061131E-001
+5.40346034603E+009, -8.71538216972E-002, +2.90137841838E-001
+5.40348034803E+009, -8.47471127977E-002, +2.91002828153E-001
+5.40350035004E+009, -8.22443628255E-002, +2.91811522350E-001
+5.40352035204E+009, -7.96933214999E-002, +2.92632687465E-001
+5.40354035404E+009, -7.73418168810E-002, +2.93433836528E-001
+5.40356035604E+009, -7.47614482707E-002, +2.94121715568E-001
+5.40358035804E+009, -7.22818170857E-002, +2.94817968884E-001
+5.40360036004E+009, -6.96011043132E-002, +2.95584091583E-001
+5.40362036204E+009, -6.71098106539E-002, +2.96235776875E-001
+5.40364036404E+009, -6.44224831042E-002, +2.96895166423E-001
+5.40366036604E+009, -6.17831765337E-002, +2.97666045858E-001
+5.40368036804E+009, -5.91166639668E-002, +2.98397754240E-001
+5.40370037004E+009, -5.62983916716E-002, +2.99101776961E-001
+5.40372037204E+009, -5.36514980029E-002, +2.99722255353E-001
+5.40374037404E+009, -5.07919862679E-002, +3.00339595822E-001
+5.40376037604E+009, -4.79884265418E-002, +3.01081697858E-001
+5.40378037804E+009, -4.50991573330E-002, +3.01626691439E-001
+5.40380038004E+009, -4.20761525166E-002, +3.02129346287E-001
+5.40382038204E+009, -3.91516694600E-002, +3.02929019281E-001
+5.40384038404E+009, -3.61299214077E-002, +3.03436261644E-001
+5.40386038604E+009, -3.28696990259E-002, +3.04079127054E-001
+5.40388038804E+009, -2.97132940797E-002, +3.04595966362E-001
+5.40390039004E+009, -2.63354618748E-002, +3.05205576763E-001
+5.40392039204E+009, -2.29628345645E-002, +3.05610755207E-001
+5.40394039404E+009, -1.92602887622E-002, +3.06111574621E-001
+5.40396039604E+009, -1.56182457501E-002, +3.06591171802E-001
+5.40398039804E+009, -1.16833652541E-002, +3.07103163930E-001
+5.40400040004E+009, -7.58475149473E-003, +3.07421544786E-001
+5.40402040204E+009, -3.23389023092E-003, +3.07880590765E-001
+5.40404040404E+009, +1.47508658137E-003, +3.08183574633E-001
+5.40406040604E+009, +6.48789977189E-003, +3.08278347946E-001
+5.40408040804E+009, +1.19161881807E-002, +3.08286248980E-001
+5.40410041004E+009, +1.78358772612E-002, +3.08054048579E-001
+5.40412041204E+009, +2.44717620784E-002, +3.07472620714E-001
+5.40414041404E+009, +3.19982945901E-002, +3.06419507948E-001
+5.40416041604E+009, +4.05781630003E-002, +3.04626445361E-001
+5.40418041804E+009, +5.03613122793E-002, +3.01460132894E-001
+5.40420042004E+009, +6.21375728425E-002, +2.96119876473E-001
+5.40422042204E+009, +7.53501561958E-002, +2.86789926260E-001
+5.40424042404E+009, +8.94497513179E-002, +2.70388391617E-001
+5.40426042604E+009, +9.97880020195E-002, +2.42862269704E-001
+5.40428042804E+009, +9.49219456013E-002, +2.04796865583E-001
+5.40430043004E+009, +6.76378860445E-002, +1.72969321974E-001
+5.40432043204E+009, +3.07921380958E-002, +1.62757859381E-001
+5.40434043404E+009, +4.60409443579E-004, +1.71121726731E-001
+5.40436043604E+009, -1.85934939688E-002, +1.87607925632E-001
+5.40438043804E+009, -2.79034880545E-002, +2.05514745084E-001
+5.40440044004E+009, -3.07171862856E-002, +2.21378939485E-001
+5.40442044204E+009, -2.98031899706E-002, +2.34384070022E-001
+5.40444044404E+009, -2.69245851667E-002, +2.44712926152E-001
+5.40446044604E+009, -2.30900448808E-002, +2.52767837152E-001
+5.40448044804E+009, -1.88915239392E-002, +2.59044887570E-001
+5.40450045005E+009, -1.47135478057E-002, +2.63975110886E-001
+5.40452045205E+009, -1.04184386473E-002, +2.68123818124E-001
+5.40454045405E+009, -6.28238025174E-003, +2.71242461446E-001
+5.40456045605E+009, -2.25066351242E-003, +2.73910829715E-001
+5.40458045805E+009, +1.49534357096E-003, +2.76066801374E-001
+5.40460046005E+009, +5.16633823632E-003, +2.77751686661E-001
+5.40462046205E+009, +8.71822268988E-003, +2.79278449704E-001
+5.40464046405E+009, +1.21593188373E-002, +2.80512360428E-001
+5.40466046605E+009, +1.55431644933E-002, +2.81509518117E-001
+5.40468046805E+009, +1.89280835478E-002, +2.82328321555E-001
+5.40470047005E+009, +2.21946914384E-002, +2.83097739098E-001
+5.40472047205E+009, +2.52170786194E-002, +2.83686243958E-001
+5.40474047405E+009, +2.82788042414E-002, +2.84196174194E-001
+5.40476047605E+009, +3.11993824639E-002, +2.84549334010E-001
+5.40478047805E+009, +3.42276913438E-002, +2.84761184473E-001
+5.40480048005E+009, +3.70940417828E-002, +2.84906105660E-001
+5.40482048205E+009, +4.00910669182E-002, +2.85218657512E-001
+5.40484048405E+009, +4.28601988796E-002, +2.85206560915E-001
+5.40486048605E+009, +4.56052722099E-002, +2.85167926079E-001
+5.40488048805E+009, +4.83715412417E-002, +2.85164506223E-001
+5.40490049005E+009, +5.10954363168E-002, +2.84980071006E-001
+5.40492049205E+009, +5.37578406046E-002, +2.84840750515E-001
+5.40494049405E+009, +5.63588309588E-002, +2.84676651200E-001
+5.40496049605E+009, +5.91655323146E-002, +2.84517279857E-001
+5.40498049805E+009, +6.16648937853E-002, +2.84290483262E-001
+5.40500050005E+009, +6.41964694993E-002, +2.83920155413E-001
+5.40502050205E+009, +6.69963273514E-002, +2.83612060705E-001
+5.40504050405E+009, +6.93680376368E-002, +2.83180504676E-001
+5.40506050605E+009, +7.18850963941E-002, +2.82768779473E-001
+5.40508050805E+009, +7.44454479130E-002, +2.82429122692E-001
+5.40510051005E+009, +7.70166441608E-002, +2.81955129758E-001
+5.40512051205E+009, +7.94808437053E-002, +2.81455205124E-001
+5.40514051405E+009, +8.20268747534E-002, +2.80913464701E-001
+5.40516051605E+009, +8.43665560884E-002, +2.80411527462E-001
+5.40518051805E+009, +8.67995208992E-002, +2.79815125126E-001
+5.40520052005E+009, +8.93217312457E-002, +2.79296155370E-001
+5.40522052205E+009, +9.17664978223E-002, +2.78656258142E-001
+5.40524052405E+009, +9.42871513149E-002, +2.78113499399E-001
+5.40526052605E+009, +9.65841719491E-002, +2.77443863300E-001
+5.40528052805E+009, +9.90244986461E-002, +2.76756034061E-001
+5.40530053005E+009, +1.01364383155E-001, +2.76006820094E-001
+5.40532053205E+009, +1.03781562295E-001, +2.75334252434E-001
+5.40534053405E+009, +1.06273278152E-001, +2.74465272496E-001
+5.40536053605E+009, +1.08573501215E-001, +2.73790209043E-001
+5.40538053805E+009, +1.10910831586E-001, +2.72955870382E-001
+5.40540054005E+009, +1.13299433265E-001, +2.72126805544E-001
+5.40542054205E+009, +1.15602177198E-001, +2.71299732758E-001
+5.40544054405E+009, +1.18020281969E-001, +2.70346093973E-001
+5.40546054605E+009, +1.20401730225E-001, +2.69453249984E-001
+5.40548054805E+009, +1.22735362444E-001, +2.68554042463E-001
+5.40550055006E+009, +1.25037171939E-001, +2.67629753943E-001
+5.40552055206E+009, +1.27329758156E-001, +2.66753634433E-001
+5.40554055406E+009, +1.29709286777E-001, +2.65740028654E-001
+5.40556055606E+009, +1.32067456679E-001, +2.64667652798E-001
+5.40558055806E+009, +1.34340767736E-001, +2.63668590262E-001
+5.40560056006E+009, +1.36766825928E-001, +2.62721343185E-001
+5.40562056206E+009, +1.39073611996E-001, +2.61662563820E-001
+5.40564056406E+009, +1.41406443488E-001, +2.60507191241E-001
+5.40566056606E+009, +1.43615473536E-001, +2.59408934604E-001
+5.40568056806E+009, +1.45960033735E-001, +2.58132335329E-001
+5.40570057006E+009, +1.48404754704E-001, +2.57021765452E-001
+5.40572057206E+009, +1.50705622490E-001, +2.55935779334E-001
+5.40574057406E+009, +1.53161750863E-001, +2.54729855093E-001
+5.40576057606E+009, +1.55404072652E-001, +2.53431533808E-001
+5.40578057806E+009, +1.57742862475E-001, +2.52131897409E-001
+5.40580058006E+009, +1.60096084170E-001, +2.50987532640E-001
+5.40582058206E+009, +1.62540653620E-001, +2.49529250005E-001
+5.40584058406E+009, +1.64880217562E-001, +2.48220452737E-001
+5.40586058606E+009, +1.67383709919E-001, +2.46974042419E-001
+5.40588058806E+009, +1.69867082112E-001, +2.45337924123E-001
+5.40590059006E+009, +1.72240076204E-001, +2.44004078008E-001
+5.40592059206E+009, +1.74728842253E-001, +2.42394819344E-001
+5.40594059406E+009, +1.77268997333E-001, +2.40879157935E-001
+5.40596059606E+009, +1.79758637643E-001, +2.39243765802E-001
+5.40598059806E+009, +1.82371062983E-001, +2.37645342989E-001
+5.40600060006E+009, +1.84936477911E-001, +2.36019823890E-001
+5.40602060206E+009, +1.87726653268E-001, +2.34323113477E-001
+5.40604060406E+009, +1.90448461802E-001, +2.32477486789E-001
+5.40606060606E+009, +1.93181315080E-001, +2.30312384671E-001
+5.40608060806E+009, +1.96011285714E-001, +2.28389289714E-001
+5.40610061006E+009, +1.99024918756E-001, +2.26330263371E-001
+5.40612061206E+009, +2.02046223572E-001, +2.23980168552E-001
+5.40614061406E+009, +2.05243255525E-001, +2.21699093726E-001
+5.40616061606E+009, +2.08606504611E-001, +2.19003794532E-001
+5.40618061806E+009, +2.12050013491E-001, +2.16215992468E-001
+5.40620062006E+009, +2.15847925296E-001, +2.13078307153E-001
+5.40622062206E+009, +2.19754996200E-001, +2.09663844093E-001
+5.40624062406E+009, +2.23881323136E-001, +2.05652203757E-001
+5.40626062606E+009, +2.28423114317E-001, +2.01134697348E-001
+5.40628062806E+009, +2.33049217872E-001, +1.95819610506E-001
+5.40630063006E+009, +2.38295276066E-001, +1.89287783484E-001
