"# Channel 1"
"# Trace 1"
Frequency, Formatted Data, Formatted Data
+5.00000000000E+009, +3.05146010782E-001, -1.65225460789E-001
+5.00002000200E+009, +2.99740903206E-001, -1.69461756905E-001
+5.00004000400E+009, +2.93480104053E-001, -1.73730651301E-001
+5.00006000600E+009, +2.86578581061E-001, -1.77941732381E-001
+5.00008000800E+009, +2.78847605757E-001, -1.82025258515E-001
+5.00010001000E+009, +2.69761595015E-001, -1.86048553081E-001
+5.00012001200E+009, +2.59293460274E-001, -1.89551981474E-001
+5.00014001400E+009, +2.47204407308E-001, -1.92555631113E-001
+5.00016001600E+009, +2.32668288176E-001, -1.94486623490E-001
+5.00018001800E+009, +2.15192435094E-001, -1.94408829987E-001
+5.00020002000E+009, +1.93898236958E-001, -1.91101901173E-001
+5.00022002200E+009, +1.68222918477E-001, -1.81335269407E-001
+5.00024002400E+009, +1.39225268238E-001, -1.60828557529E-001
+5.00026002600E+009, +1.11496059087E-001, -1.21621854519E-001
+5.00028002800E+009, +9.99145908897E-002, -6.32230765162E-002
+5.00030003000E+009, +1.18376272147E-001, +1.25983939722E-003
+5.00032003200E+009, +1.62487558416E-001, +4.72225500122E-002
+5.00034003400E+009, +2.14481346039E-001, +6.73935938906E-002
+5.00036003600E+009, +2.63990938079E-001, +6.65540588201E-002
+5.00038003800E+009, +3.03267488074E-001, +5.18622382764E-002
+5.00040004000E+009, +3.31597327382E-001, +3.04930048356E-002
+5.00042004200E+009, +3.50874058564E-001, +6.59562317610E-003
+5.00044004400E+009, +3.62839946294E-001, -1.67296175421E-002
+5.00046004600E+009, +3.69563819066E-001, -3.79597807970E-002
+5.00048004800E+009, +3.72626127382E-001, -5.67397351214E-002
+5.00050005001E+009, +3.73529088333E-001, -7.34216740169E-002
+5.00052005201E+009, +3.72954157238E-001, -8.79596643938E-002
+5.00054005401E+009, +3.71458025059E-001, -1.00573818666E-001
+5.00056005601E+009, +3.69267342632E-001, -1.11803591166E-001
+5.00058005801E+009, +3.66762187425E-001, -1.21793677404E-001
+5.00060006001E+009, +3.64027624642E-001, -1.30597260153E-001
+5.00062006201E+009, +3.61089592783E-001, -1.38711884581E-001
+5.00064006401E+009, +3.58192494046E-001, -1.46101188402E-001
+5.00066006601E+009, +3.55291507976E-001, -1.52914904411E-001
+5.00068006801E+009, +3.52354213632E-001, -1.59257831819E-001
+5.00070007001E+009, +3.49424046313E-001, -1.65184728686E-001
+5.00072007201E+009, +3.46547122501E-001, -1.70693419159E-001
+5.00074007401E+009, +3.43627501800E-001, -1.75854613215E-001
+5.00076007601E+009, +3.40795798150E-001, -1.80826378163E-001
+5.00078007801E+009, +3.37867545504E-001, -1.85656721903E-001
+5.00080008001E+009, +3.35063327299E-001, -1.90093629623E-001
+5.00082008201E+009, +3.32157274383E-001, -1.94556866753E-001
+5.00084008401E+009, +3.29339729202E-001, -1.98800114618E-001
+5.00086008601E+009, +3.26468844597E-001, -2.02762943165E-001
+5.00088008801E+009, +3.23611429702E-001, -2.06641760458E-001
+5.00090009001E+009, +3.20770308224E-001, -2.10482996212E-001
+5.00092009201E+009, +3.17979068044E-001, -2.14303022291E-001
+5.00094009401E+009, +3.15169390897E-001, -2.17906435728E-001
+5.00096009601E+009, +3.12349352282E-001, -2.21488664059E-001
+5.00098009801E+009, +3.09560740004E-001, -2.24954594706E-001
+5.00100010001E+009, +3.06638275614E-001, -2.28207932138E-001
+5.00102010201E+009, +3.03666900702E-001, -2.31646958484E-001
+5.00104010401E+009, +3.00885457191E-001, -2.34931981497E-001
+5.00106010601E+009, +2.98070889491E-001, -2.38146712883E-001
+5.00108010801E+009, +2.94992445735E-001, -2.41366052451E-001
+5.00110011001E+009, +2.92104916789E-001, -2.44462865036E-001
+5.00112011201E+009, +2.89004482116E-001, -2.47603821354E-001
+5.00114011401E+009, +2.86170003645E-001, -2.50590442435E-001
+5.00116011601E+009, +2.83028890233E-001, -2.53646825636E-001
+5.00118011801E+009, +2.79905611884E-001, -2.56652457405E-001
+5.00120012001E+009, +2.76865995940E-001, -2.59685580167E-001
+5.00122012201E+009, +2.73532980467E-001, -2.62592367047E-001
+5.00124012401E+009, +2.70243827957E-001, -2.65611691996E-001
+5.00126012601E+009, +2.66995380045E-001, -2.68596172012E-001
+5.00128012801E+009, +2.63536317058E-001, -2.71502819210E-001
+5.00130013001E+009, +2.60075956616E-001, -2.74434748901E-001
+5.00132013201E+009, +2.56484622182E-001, -2.77512153248E-001
+5.00134013401E+009, +2.52874456117E-001, -2.80429917303E-001
+5.00136013601E+009, +2.48986050811E-001, -2.83429550694E-001
+5.00138013801E+009, +2.44925242896E-001, -2.86407692594E-001
+5.00140014001E+009, +2.40812934600E-001, -2.89469758227E-001
+5.00142014201E+009, +2.36308881130E-001, -2.92619121263E-001
+5.00144014401E+009, +2.31604454514E-001, -2.95834544226E-001
+5.00146014601E+009, +2.26641737026E-001, -2.99126522889E-001
+5.00148014801E+009, +2.21281934067E-001, -3.02262992005E-001
+5.00150015002E+009, +2.15321433476E-001, -3.05839779202E-001
+5.00152015202E+009, +2.08730355282E-001, -3.09479537701E-001
+5.00154015402E+009, +2.01350225760E-001, -3.12973832179E-001
+5.00156015602E+009, +1.92730049835E-001, -3.16942443525E-001
+5.00158015802E+009, +1.82483041007E-001, -3.20792765886E-001
+5.00160016002E+009, +1.69689990772E-001, -3.24675763267E-001
+5.00162016202E+009, +1.53350048001E-001, -3.27909993863E-001
+5.00164016402E+009, +1.31916762481E-001, -3.29311236698E-001
+5.00166016602E+009, +1.01770629374E-001, -3.26035758246E-001
+5.00168016802E+009, +5.96546691576E-002, -3.08813353593E-001
+5.00170017002E+009, +1.02912319522E-002, -2.52873567514E-001
+5.00172017202E+009, +1.59376387605E-002, -1.36844850950E-001
+5.00174017402E+009, +1.33581847099E-001, -7.81536279889E-002
+5.00176017602E+009, +2.16782231554E-001, -1.23855167440E-001
+5.00178017802E+009, +2.41202463142E-001, -1.74397700827E-001
+5.00180018002E+009, +2.44019920802E-001, -2.07883152599E-001
+5.00182018202E+009, +2.40685307651E-001, -2.30608549800E-001
+5.00184018402E+009, +2.35403489572E-001, -2.46563734558E-001
+5.00186018602E+009, +2.29697276909E-001, -2.58289163367E-001
+5.00188018802E+009, +2.23964296786E-001, -2.67580266119E-001
+5.00190019002E+009, +2.18239653401E-001, -2.74794002495E-001
+5.00192019202E+009, +2.12807705861E-001, -2.80921789496E-001
+5.00194019402E+009, +2.07587201664E-001, -2.86003831010E-001
+5.00196019602E+009, +2.02523200043E-001, -2.90481969549E-001
+5.00198019802E+009, +1.97559235920E-001, -2.94195075485E-001
+5.00200020002E+009, +1.92564892381E-001, -2.97707719697E-001
+5.00202020202E+009, +1.87852881718E-001, -3.00632802655E-001
+5.00204020402E+009, +1.83197919660E-001, -3.03452173127E-001
+5.00206020602E+009, +1.78531782392E-001, -3.05957085736E-001
+5.00208020802E+009, +1.73948942961E-001, -3.08114586508E-001
+5.00210021002E+009, +1.69419161062E-001, -3.10066152213E-001
+5.00212021202E+009, +1.64714503074E-001, -3.11923591474E-001
+5.00214021402E+009, +1.60008946903E-001, -3.13568134614E-001
+5.00216021602E+009, +1.55407792798E-001, -3.15080774786E-001
+5.00218021802E+009, +1.50684916189E-001, -3.16470975443E-001
+5.00220022002E+009, +1.46004620843E-001, -3.17571999443E-001
+5.00222022202E+009, +1.41077713307E-001, -3.18622067188E-001
+5.00224022402E+009, +1.36251040826E-001, -3.19550990213E-001
+5.00226022602E+009, +1.31235653654E-001, -3.20311998648E-001
+5.00228022802E+009, +1.26268764435E-001, -3.20617235028E-001
+5.00230023002E+009, +1.21153456272E-001, -3.21012307186E-001
+5.00232023202E+009, +1.15891315801E-001, -3.21042245578E-001
+5.00234023402E+009, +1.10439123177E-001, -3.21022223276E-001
+5.00236023602E+009, +1.04992498720E-001, -3.20700169056E-001
+5.00238023802E+009, +9.91075646493E-002, -3.20082793477E-001
+5.00240024002E+009, +9.32573403549E-002, -3.19064306535E-001
+5.00242024202E+009, +8.71240591227E-002, -3.17730474104E-001
+5.00244024402E+009, +8.06814476709E-002, -3.15940748258E-001
+5.00246024602E+009, +7.41037733237E-002, -3.13715647244E-001
+5.00248024802E+009, +6.72065779295E-002, -3.10887264688E-001
+5.00250025003E+009, +5.99670855587E-002, -3.07294608947E-001
+5.00252025203E+009, +5.24492605523E-002, -3.02763385936E-001
+5.00254025403E+009, +4.45190417550E-002, -2.97064044736E-001
+5.00256025603E+009, +3.65137064092E-002, -2.90010792394E-001
+5.00258025803E+009, +2.82669011482E-002, -2.80877602525E-001
+5.00260026003E+009, +1.99487377172E-002, -2.69214349556E-001
+5.00262026203E+009, +1.22510382547E-002, -2.54423055054E-001
+5.00264026403E+009, +6.09523958806E-003, -2.34889835263E-001
+5.00266026603E+009, +3.56426279431E-003, -2.09275120872E-001
+5.00268026803E+009, +8.95089429427E-003, -1.76304009328E-001
+5.00270027003E+009, +2.92107189958E-002, -1.38358266854E-001
+5.00272027203E+009, +7.04733143714E-002, -1.04779093192E-001
+5.00274027403E+009, +1.26466652341E-001, -9.07200377260E-002
+5.00276027603E+009, +1.80476334332E-001, -1.01114804941E-001
+5.00278027803E+009, +2.22246579843E-001, -1.28960287724E-001
+5.00280028003E+009, +2.47885414230E-001, -1.64536129440E-001
+5.00282028203E+009, +2.60039286088E-001, -2.01656963181E-001
+5.00284028403E+009, +2.61391747381E-001, -2.35462630112E-001
+5.00286028603E+009, +2.55644754321E-001, -2.64845744120E-001
+5.00288028803E+009, +2.45408423179E-001, -2.89320793333E-001
+5.00290029003E+009, +2.32890270321E-001, -3.08790847654E-001
+5.00292029203E+009, +2.19376283228E-001, -3.24412514638E-001
+5.00294029403E+009, +2.05626951224E-001, -3.36424525285E-001
+5.00296029603E+009, +1.92500727354E-001, -3.45774682241E-001
+5.00298029803E+009, +1.79980599327E-001, -3.53088523150E-001
+5.00300030003E+009, +1.68235320909E-001, -3.58779934583E-001
+5.00302030203E+009, +1.57189680030E-001, -3.63222208968E-001
+5.00304030403E+009, +1.46737230235E-001, -3.66717381803E-001
+5.00306030603E+009, +1.37132858133E-001, -3.69440593471E-001
+5.00308030803E+009, +1.28017596652E-001, -3.71574200728E-001
+5.00310031003E+009, +1.19247936103E-001, -3.73180222289E-001
+5.00312031203E+009, +1.11060312129E-001, -3.74447151903E-001
+5.00314031403E+009, +1.03286835782E-001, -3.75127635688E-001
+5.00316031603E+009, +9.57537868652E-002, -3.75793123822E-001
+5.00318031803E+009, +8.83115928227E-002, -3.76117863932E-001
+5.00320032003E+009, +8.12588877933E-002, -3.76267449007E-001
+5.00322032203E+009, +7.42305360315E-002, -3.76104539130E-001
+5.00324032403E+009, +6.74580960682E-002, -3.75627409488E-001
+5.00326032603E+009, +6.07234655178E-002, -3.75209281162E-001
+5.00328032803E+009, +5.40956569018E-002, -3.74284397776E-001
+5.00330033003E+009, +4.73973574902E-002, -3.73364668121E-001
+5.00332033203E+009, +4.08193022628E-002, -3.72019790085E-001
+5.00334033403E+009, +3.41815236706E-002, -3.70323459747E-001
+5.00336033603E+009, +2.76927519075E-002, -3.68453848098E-001
+5.00338033803E+009, +2.08441476220E-002, -3.66157640410E-001
+5.00340034003E+009, +1.41904700879E-002, -3.63495462673E-001
+5.00342034203E+009, +7.13712501133E-003, -3.60247658652E-001
+5.00344034403E+009, +2.41705876261E-004, -3.56323043408E-001
+5.00346034603E+009, -7.00240533735E-003, -3.51396423118E-001
+5.00348034803E+009, -1.45047683981E-002, -3.45380087583E-001
+5.00350035004E+009, -2.21032591311E-002, -3.37902667809E-001
+5.00352035204E+009, -2.94651811674E-002, -3.28539381323E-001
+5.00354035404E+009, -3.66938775816E-002, -3.16546678770E-001
+5.00356035604E+009, -4.27263075897E-002, -3.00331736779E-001
+5.00358035804E+009, -4.53917536014E-002, -2.77688833334E-001
+5.00360036004E+009, -3.87642324812E-002, -2.45701223207E-001
+5.00362036204E+009, -9.38687624948E-003, -2.07546354591E-001
+5.00364036404E+009, +4.59492833356E-002, -1.87259215342E-001
+5.00366036604E+009, +1.00834475906E-001, -1.99651626322E-001
+5.00368036804E+009, +1.36680392796E-001, -2.31851535513E-001
+5.00370037004E+009, +1.52207270573E-001, -2.68484110516E-001
+5.00372037204E+009, +1.53826581845E-001, -3.02563048805E-001
+5.00374037404E+009, +1.46522880920E-001, -3.30015804910E-001
+5.00376037604E+009, +1.34129540084E-001, -3.52045983317E-001
+5.00378037804E+009, +1.19591395144E-001, -3.68277480162E-001
+5.00380038004E+009, +1.04132000077E-001, -3.80210385480E-001
+5.00382038204E+009, +8.94656247047E-002, -3.88504816480E-001
+5.00384038404E+009, +7.60018579598E-002, -3.94044419384E-001
+5.00386038604E+009, +6.31407409678E-002, -3.97898989084E-001
+5.00388038804E+009, +5.17299381621E-002, -4.00213039411E-001
+5.00390039004E+009, +4.13178722163E-002, -4.01676723992E-001
+5.00392039204E+009, +3.18580605658E-002, -4.02508409556E-001
+5.00394039404E+009, +2.33059989737E-002, -4.02974021790E-001
+5.00396039604E+009, +1.54200042585E-002, -4.02995269286E-001
+5.00398039804E+009, +7.96713554027E-003, -4.02540913490E-001
+5.00400040004E+009, +1.09586341101E-003, -4.02149160080E-001
+5.00402040204E+009, -5.49732736970E-003, -4.01590338203E-001
+5.00404040404E+009, -1.16836192656E-002, -4.00934924234E-001
+5.00406040604E+009, -1.74748285553E-002, -4.00077485831E-001
+5.00408040804E+009, -2.30514693582E-002, -3.99312205887E-001
+5.00410041004E+009, -2.83965587141E-002, -3.98391794892E-001
+5.00412041204E+009, -3.35800353686E-002, -3.97439545382E-001
+5.00414041404E+009, -3.85286754242E-002, -3.96466104020E-001
+5.00416041604E+009, -4.33642846106E-002, -3.95533186421E-001
+5.00418041804E+009, -4.79123953746E-002, -3.94374654105E-001
+5.00420042004E+009, -5.23919522311E-002, -3.93423666167E-001
+5.00422042204E+009, -5.68776382898E-002, -3.92406829547E-001
+5.00424042404E+009, -6.12015879510E-002, -3.91302289039E-001
+5.00426042604E+009, -6.54103728099E-002, -3.90156962582E-001
+5.00428042804E+009, -6.95826210232E-002, -3.88913719818E-001
+5.00430043004E+009, -7.35986331891E-002, -3.87701169101E-001
+5.00432043204E+009, -7.75871392839E-002, -3.86612140292E-001
+5.00434043404E+009, -8.15101262963E-002, -3.85375123307E-001
+5.00436043604E+009, -8.54370650691E-002, -3.84193032168E-001
+5.00438043804E+009, -8.92879311429E-002, -3.82895042010E-001
+5.00440044004E+009, -9.29004308044E-002, -3.81597722810E-001
+5.00442044204E+009, -9.65516447873E-002, -3.80343751802E-001
+5.00444044404E+009, -1.00200046467E-001, -3.79089904276E-001
+5.00446044604E+009, -1.03918408018E-001, -3.77774842785E-001
+5.00448044804E+009, -1.07455950767E-001, -3.76430425316E-001
+5.00450045005E+009, -1.11065766879E-001, -3.74949545055E-001
+5.00452045205E+009, -1.14479399690E-001, -3.73705833438E-001
+5.00454045405E+009, -1.17792733196E-001, -3.72259260821E-001
+5.00456045605E+009, -1.21203506294E-001, -3.70912368485E-001
+5.00458045805E+009, -1.24627661051E-001, -3.69397026498E-001
+5.00460046005E+009, -1.27961619247E-001, -3.67920589136E-001
+5.00462046205E+009, -1.31299268189E-001, -3.66588661345E-001
+5.00464046405E+009, -1.34616356005E-001, -3.64957767459E-001
+5.00466046605E+009, -1.37718178350E-001, -3.63462393736E-001
+5.00468046805E+009, -1.41067351265E-001, -3.61800989800E-001
+5.00470047005E+009, -1.44167678295E-001, -3.60301649706E-001
+5.00472047205E+009, -1.47387526687E-001, -3.58724506796E-001
+5.00474047405E+009, -1.50570549465E-001, -3.57167384576E-001
+5.00476047605E+009, -1.53643809094E-001, -3.55584493648E-001
+5.00478047805E+009, -1.56824582849E-001, -3.53942765904E-001
+5.00480048005E+009, -1.59814159306E-001, -3.52216400364E-001
+5.00482048205E+009, -1.62878066130E-001, -3.50407481824E-001
+5.00484048405E+009, -1.65904023410E-001, -3.48743121685E-001
+5.00486048605E+009, -1.68920971791E-001, -3.46974218044E-001
+5.00488048805E+009, -1.71858111269E-001, -3.45241950911E-001
+5.00490049005E+009, -1.74831527531E-001, -3.43478121588E-001
+5.00492049205E+009, -1.77760866317E-001, -3.41790248354E-001
+5.00494049405E+009, -1.80686021354E-001, -3.39856286942E-001
+5.00496049605E+009, -1.83518350205E-001, -3.38027168646E-001
+5.00498049805E+009, -1.86352172701E-001, -3.36072592543E-001
+5.00500050005E+009, -1.89298003044E-001, -3.34220603851E-001
+5.00502050205E+009, -1.92115656683E-001, -3.32270190875E-001
+5.00504050405E+009, -1.94966598292E-001, -3.30288253861E-001
+5.00506050605E+009, -1.97673682904E-001, -3.28347637130E-001
+5.00508050805E+009, -2.00520632896E-001, -3.26266423875E-001
+5.00510051005E+009, -2.03256729020E-001, -3.24301503671E-001
+5.00512051205E+009, -2.05910323436E-001, -3.22199647527E-001
+5.00514051405E+009, -2.08744231720E-001, -3.20078823141E-001
+5.00516051605E+009, -2.11403348892E-001, -3.18108371716E-001
+5.00518051805E+009, -2.14017532574E-001, -3.15930486508E-001
+5.00520052005E+009, -2.16587980323E-001, -3.13720479854E-001
+5.00522052205E+009, -2.19337724987E-001, -3.11530715907E-001
+5.00524052405E+009, -2.21845693620E-001, -3.09230212731E-001
+5.00526052605E+009, -2.24549371807E-001, -3.07070674943E-001
+5.00528052805E+009, -2.27126882232E-001, -3.04658127272E-001
+5.00530053005E+009, -2.29513630376E-001, -3.02373946071E-001
+5.00532053205E+009, -2.32095042949E-001, -3.00086964923E-001
+5.00534053405E+009, -2.34526317834E-001, -2.97673013299E-001
+5.00536053605E+009, -2.37110271369E-001, -2.95158751055E-001
+5.00538053805E+009, -2.39495294414E-001, -2.92761706721E-001
+5.00540054005E+009, -2.42006323193E-001, -2.90249397411E-001
+5.00542054205E+009, -2.44397292150E-001, -2.87783266658E-001
+5.00544054405E+009, -2.46791071152E-001, -2.85106454719E-001
+5.00546054605E+009, -2.49095286412E-001, -2.82468470538E-001
+5.00548054805E+009, -2.51560852962E-001, -2.79858802143E-001
+5.00550055006E+009, -2.53888849945E-001, -2.77145780730E-001
+5.00552055206E+009, -2.56200360815E-001, -2.74515929117E-001
+5.00554055406E+009, -2.58373349432E-001, -2.71643305230E-001
+5.00556055606E+009, -2.60696743781E-001, -2.68853054259E-001
+5.00558055806E+009, -2.62956423348E-001, -2.65873846740E-001
+5.00560056006E+009, -2.65117165491E-001, -2.62929429185E-001
+5.00562056206E+009, -2.67280630743E-001, -2.60007058038E-001
+5.00564056406E+009, -2.69450100261E-001, -2.56848407511E-001
+5.00566056606E+009, -2.71604773722E-001, -2.53783071266E-001
+5.00568056806E+009, -2.73688045642E-001, -2.50529898401E-001
+5.00570057006E+009, -2.75651099507E-001, -2.47268823109E-001
+5.00572057206E+009, -2.77673011271E-001, -2.43852546815E-001
+5.00574057406E+009, -2.79618438085E-001, -2.40455832838E-001
+5.00576057606E+009, -2.81543232853E-001, -2.36913527060E-001
+5.00578057806E+009, -2.83362207579E-001, -2.33303842822E-001
+5.00580058006E+009, -2.85298333105E-001, -2.29503846944E-001
+5.00582058206E+009, -2.86996789519E-001, -2.25542902922E-001
+5.00584058406E+009, -2.88774657607E-001, -2.21537680117E-001
+5.00586058606E+009, -2.90384519749E-001, -2.17354694890E-001
+5.00588058806E+009, -2.91806129375E-001, -2.13052519279E-001
+5.00590059006E+009, -2.93298599739E-001, -2.08435195597E-001
+5.00592059206E+009, -2.94829677299E-001, -2.03795779099E-001
+5.00594059406E+009, -2.95900867439E-001, -1.98834119817E-001
+5.00596059606E+009, -2.96995239978E-001, -1.93534869566E-001
+5.00598059806E+009, -2.97937409082E-001, -1.87983217796E-001
+5.00600060006E+009, -2.98503003779E-001, -1.82181687295E-001
+5.00602060206E+009, -2.98862405809E-001, -1.75863254233E-001
+5.00604060406E+009, -2.98935319663E-001, -1.69163441880E-001
+5.00606060606E+009, -2.98456954135E-001, -1.61819059289E-001
+5.00608060806E+009, -2.97457859052E-001, -1.53858103668E-001
+5.00610061006E+009, -2.95596237669E-001, -1.45107794566E-001
+5.00612061206E+009, -2.92652722289E-001, -1.35728002506E-001
+5.00614061406E+009, -2.88072871596E-001, -1.25134144665E-001
+5.00616061606E+009, -2.81111512749E-001, -1.13212962368E-001
+5.00618061806E+009, -2.70424715349E-001, -1.00032834525E-001
+5.00620062006E+009, -2.53441489450E-001, -8.59485663911E-002
+5.00622062206E+009, -2.26081169848E-001, -7.35820983997E-002
+5.00624062406E+009, -1.84235430091E-001, -6.96901448352E-002
+5.00626062606E+009, -1.31954142422E-001, -8.92403267397E-002
+5.00628062806E+009, -9.10008835438E-002, -1.37512310147E-001
+5.00630063006E+009, -7.92639391238E-002, -1.95177705572E-001
