!Keysight Technologies,E5063A,MY54502693,A.05.04
!Date: Sat Feb 27 16:10:44 2021
!Data & Calibration Information:
!Freq	S11:NONE(--)	S21:NONE(--)	S12:NONE(--)	S22:NONE(--)
# Hz S RI R 50
4600000000.000	0.000000e+000	0.000000e+000	-4.973294e-001	8.935128e-002	0.000000e+000	0.000000e+000	0.000000e+000	0.000000e+000
4600020002.000	0.000000e+000	0.000000e+000	-5.000659e-001	1.029596e-001	0.000000e+000	0.000000e+000	0.000000e+000	0.000000e+000
4600040004.000	0.000000e+000	0.000000e+000	-5.013191e-001	1.146962e-001	0.000000e+000	0.000000e+000	0.000000e+000	0.000000e+000
4600060006.001	0.000000e+000	0.000000e+000	-5.016849e-001	1.250889e-001	0.000000e+000	0.000000e+000	0.000000e+000	0.000000e+000
4600080008.001	0.000000e+000	0.000000e+000	-5.014748e-001	1.344835e-001	0.000000e+000	0.000000e+000	0.000000e+000	0.000000e+000
4600100010.001	0.000000e+000	0.000000e+000	-5.009928e-001	1.430193e-001	0.000000e+000	0.000000e+000	0.000000e+000	0.000000e+000
4600120012.001	0.000000e+000	0.000000e+000	-5.001456e-001	1.511843e-001	0.000000e+000	0.000000e+000	0.000000e+000	0.000000e+000
4600140014.001	0.000000e+000	0.000000e+000	-4.989814e-001	1.584250e-001	0.000000e+000	0.000000e+000	0.000000e+000	0.000000e+000
4600160016.002	0.000000e+000	0.000000e+000	-4.976702e-001	1.653394e-001	0.000000e+000	0.000000e+000	0.000000e+000	0.000000e+000
4600180018.002	0.000000e+000	0.000000e+000	-4.962584e-001	1.719076e-001	0.000000e+000	0.000000e+000	0.000000e+000	0.000000e+000
4600200020.002	0.000000e+000	0.000000e+000	-4.947532e-001	1.780846e-001	0.000000e+000	0.000000e+000	0.000000e+000	0.000000e+000
4600220022.002	0.000000e+000	0.000000e+000	-4.931675e-001	1.841084e-001	0.000000e+000	0.000000e+000	0.000000e+000	0.000000e+000
4600240024.002	0.000000e+000	0.000000e+000	-4.914905e-001	1.897921e-001	0.000000e+000	0.000000e+000	0.000000e+000	0.000000e+000
4600260026.003	0.000000e+000	0.000000e+000	-4.897712e-001	1.955537e-001	0.000000e+000	0.000000e+000	0.000000e+000	0.000000e+000
4600280028.003	0.000000e+000	0.000000e+000	-4.879798e-001	2.008029e-001	0.000000e+000	0.000000e+000	0.000000e+000	0.000000e+000
4600300030.003	0.000000e+000	0.000000e+000	-4.861472e-001	2.060468e-001	0.000000e+000	0.000000e+000	0.000000e+000	0.000000e+000
4600320032.003	0.000000e+000	0.000000e+000	-4.842747e-001	2.111897e-001	0.000000e+000	0.000000e+000	0.000000e+000	0.000000e+000
4600340034.003	0.000000e+000	0.000000e+000	-4.823663e-001	2.160586e-001	0.000000e+000	0.000000e+000	0.000000e+000	0.000000e+000
4600360036.004	0.000000e+000	0.000000e+000	-4.802792e-001	2.209200e-001	0.000000e+000	0.000000e+000	0.000000e+000	0.000000e+000
4600380038.004	0.000000e+000	0.000000e+000	-4.783441e-001	2.256998e-001	0.000000e+000	0.000000e+000	0.000000e+000	0.000000e+000
4600400040.004	0.000000e+000	0.000000e+000	-4.763656e-001	2.304081e-001	0.000000e+000	0.000000e+000	0.000000e+000	0.000000e+000
4600420042.004	0.000000e+000	0.000000e+000	-4.742721e-001	2.350079e-001	0.000000e+000	0.000000e+000	0.000000e+000	0.000000e+000
4600440044.004	0.000000e+000	0.000000e+000	-4.721559e-001	2.395148e-001	0.000000e+000	0.000000e+000	0.000000e+000	0.000000e+000
4600460046.005	0.000000e+000	0.000000e+000	-4.699675e-001	2.439130e-001	0.000000e+000	0.000000e+000	0.000000e+000	0.000000e+000
4600480048.005	0.000000e+000	0.000000e+000	-4.678653e-001	2.483122e-001	0.000000e+000	0.000000e+000	0.000000e+000	0.000000e+000
4600500050.005	0.000000e+000	0.000000e+000	-4.654972e-001	2.525052e-001	0.000000e+000	0.000000e+000	0.000000e+000	0.000000e+000
4600520052.005	0.000000e+000	0.000000e+000	-4.634298e-001	2.568166e-001	0.000000e+000	0.000000e+000	0.000000e+000	0.000000e+000
4600540054.005	0.000000e+000	0.000000e+000	-4.612042e-001	2.611264e-001	0.000000e+000	0.000000e+000	0.000000e+000	0.000000e+000
4600560056.006	0.000000e+000	0.000000e+000	-4.588878e-001	2.652731e-001	0.000000e+000	0.000000e+000	0.000000e+000	0.000000e+000
4600580058.006	0.000000e+000	0.000000e+000	-4.566696e-001	2.692996e-001	0.000000e+000	0.000000e+000	0.000000e+000	0.000000e+000
4600600060.006	0.000000e+000	0.000000e+000	-4.543178e-001	2.733415e-001	0.000000e+000	0.000000e+000	0.000000e+000	0.000000e+000
4600620062.006	0.000000e+000	0.000000e+000	-4.518357e-001	2.773287e-001	0.000000e+000	0.000000e+000	0.000000e+000	0.000000e+000
4600640064.006	0.000000e+000	0.000000e+000	-4.494876e-001	2.813945e-001	0.000000e+000	0.000000e+000	0.000000e+000	0.000000e+000
4600660066.007	0.000000e+000	0.000000e+000	-4.470489e-001	2.853790e-001	0.000000e+000	0.000000e+000	0.000000e+000	0.000000e+000
4600680068.007	0.000000e+000	0.000000e+000	-4.445419e-001	2.893186e-001	0.000000e+000	0.000000e+000	0.000000e+000	0.000000e+000
4600700070.007	0.000000e+000	0.000000e+000	-4.421484e-001	2.930606e-001	0.000000e+000	0.000000e+000	0.000000e+000	0.000000e+000
4600720072.007	0.000000e+000	0.000000e+000	-4.396156e-001	2.969025e-001	0.000000e+000	0.000000e+000	0.000000e+000	0.000000e+000
4600740074.007	0.000000e+000	0.000000e+000	-4.370579e-001	3.005853e-001	0.000000e+000	0.000000e+000	0.000000e+000	0.000000e+000
4600760076.008	0.000000e+000	0.000000e+000	-4.344993e-001	3.043384e-001	0.000000e+000	0.000000e+000	0.000000e+000	0.000000e+000
4600780078.008	0.000000e+000	0.000000e+000	-4.319272e-001	3.081691e-001	0.000000e+000	0.000000e+000	0.000000e+000	0.000000e+000
4600800080.008	0.000000e+000	0.000000e+000	-4.292928e-001	3.119585e-001	0.000000e+000	0.000000e+000	0.000000e+000	0.000000e+000
4600820082.008	0.000000e+000	0.000000e+000	-4.265401e-001	3.155981e-001	0.000000e+000	0.000000e+000	0.000000e+000	0.000000e+000
4600840084.008	0.000000e+000	0.000000e+000	-4.239119e-001	3.192101e-001	0.000000e+000	0.000000e+000	0.000000e+000	0.000000e+000
4600860086.009	0.000000e+000	0.000000e+000	-4.211873e-001	3.227771e-001	0.000000e+000	0.000000e+000	0.000000e+000	0.000000e+000
4600880088.009	0.000000e+000	0.000000e+000	-4.183902e-001	3.263455e-001	0.000000e+000	0.000000e+000	0.000000e+000	0.000000e+000
4600900090.009	0.000000e+000	0.000000e+000	-4.157125e-001	3.298627e-001	0.000000e+000	0.000000e+000	0.000000e+000	0.000000e+000
4600920092.009	0.000000e+000	0.000000e+000	-4.128652e-001	3.333918e-001	0.000000e+000	0.000000e+000	0.000000e+000	0.000000e+000
4600940094.009	0.000000e+000	0.000000e+000	-4.101322e-001	3.368704e-001	0.000000e+000	0.000000e+000	0.000000e+000	0.000000e+000
4600960096.010	0.000000e+000	0.000000e+000	-4.071947e-001	3.403824e-001	0.000000e+000	0.000000e+000	0.000000e+000	0.000000e+000
4600980098.010	0.000000e+000	0.000000e+000	-4.043332e-001	3.437993e-001	0.000000e+000	0.000000e+000	0.000000e+000	0.000000e+000
4601000100.010	0.000000e+000	0.000000e+000	-4.015123e-001	3.471375e-001	0.000000e+000	0.000000e+000	0.000000e+000	0.000000e+000
4601020102.010	0.000000e+000	0.000000e+000	-3.984676e-001	3.506855e-001	0.000000e+000	0.000000e+000	0.000000e+000	0.000000e+000
4601040104.010	0.000000e+000	0.000000e+000	-3.955308e-001	3.539294e-001	0.000000e+000	0.000000e+000	0.000000e+000	0.000000e+000
4601060106.011	0.000000e+000	0.000000e+000	-3.926144e-001	3.572488e-001	0.000000e+000	0.000000e+000	0.000000e+000	0.000000e+000
4601080108.011	0.000000e+000	0.000000e+000	-3.894907e-001	3.605568e-001	0.000000e+000	0.000000e+000	0.000000e+000	0.000000e+000
4601100110.011	0.000000e+000	0.000000e+000	-3.864993e-001	3.638840e-001	0.000000e+000	0.000000e+000	0.000000e+000	0.000000e+000
4601120112.011	0.000000e+000	0.000000e+000	-3.833919e-001	3.670153e-001	0.000000e+000	0.000000e+000	0.000000e+000	0.000000e+000
4601140114.011	0.000000e+000	0.000000e+000	-3.803289e-001	3.703030e-001	0.000000e+000	0.000000e+000	0.000000e+000	0.000000e+000
4601160116.012	0.000000e+000	0.000000e+000	-3.771023e-001	3.735951e-001	0.000000e+000	0.000000e+000	0.000000e+000	0.000000e+000
4601180118.012	0.000000e+000	0.000000e+000	-3.739983e-001	3.767987e-001	0.000000e+000	0.000000e+000	0.000000e+000	0.000000e+000
4601200120.012	0.000000e+000	0.000000e+000	-3.707939e-001	3.798588e-001	0.000000e+000	0.000000e+000	0.000000e+000	0.000000e+000
4601220122.012	0.000000e+000	0.000000e+000	-3.675581e-001	3.830441e-001	0.000000e+000	0.000000e+000	0.000000e+000	0.000000e+000
4601240124.012	0.000000e+000	0.000000e+000	-3.641701e-001	3.861281e-001	0.000000e+000	0.000000e+000	0.000000e+000	0.000000e+000
4601260126.013	0.000000e+000	0.000000e+000	-3.609200e-001	3.892192e-001	0.000000e+000	0.000000e+000	0.000000e+000	0.000000e+000
4601280128.013	0.000000e+000	0.000000e+000	-3.575327e-001	3.923200e-001	0.000000e+000	0.000000e+000	0.000000e+000	0.000000e+000
4601300130.013	0.000000e+000	0.000000e+000	-3.541444e-001	3.953926e-001	0.000000e+000	0.000000e+000	0.000000e+000	0.000000e+000
4601320132.013	0.000000e+000	0.000000e+000	-3.507141e-001	3.985048e-001	0.000000e+000	0.000000e+000	0.000000e+000	0.000000e+000
4601340134.013	0.000000e+000	0.000000e+000	-3.473198e-001	4.014702e-001	0.000000e+000	0.000000e+000	0.000000e+000	0.000000e+000
4601360136.014	0.000000e+000	0.000000e+000	-3.437753e-001	4.044136e-001	0.000000e+000	0.000000e+000	0.000000e+000	0.000000e+000
4601380138.014	0.000000e+000	0.000000e+000	-3.403328e-001	4.073427e-001	0.000000e+000	0.000000e+000	0.000000e+000	0.000000e+000
4601400140.014	0.000000e+000	0.000000e+000	-3.365862e-001	4.104066e-001	0.000000e+000	0.000000e+000	0.000000e+000	0.000000e+000
4601420142.014	0.000000e+000	0.000000e+000	-3.331123e-001	4.132112e-001	0.000000e+000	0.000000e+000	0.000000e+000	0.000000e+000
4601440144.014	0.000000e+000	0.000000e+000	-3.294284e-001	4.161574e-001	0.000000e+000	0.000000e+000	0.000000e+000	0.000000e+000
4601460146.015	0.000000e+000	0.000000e+000	-3.257012e-001	4.190957e-001	0.000000e+000	0.000000e+000	0.000000e+000	0.000000e+000
4601480148.015	0.000000e+000	0.000000e+000	-3.219780e-001	4.219049e-001	0.000000e+000	0.000000e+000	0.000000e+000	0.000000e+000
4601500150.015	0.000000e+000	0.000000e+000	-3.181458e-001	4.246190e-001	0.000000e+000	0.000000e+000	0.000000e+000	0.000000e+000
4601520152.015	0.000000e+000	0.000000e+000	-3.142751e-001	4.274177e-001	0.000000e+000	0.000000e+000	0.000000e+000	0.000000e+000
4601540154.015	0.000000e+000	0.000000e+000	-3.104026e-001	4.303848e-001	0.000000e+000	0.000000e+000	0.000000e+000	0.000000e+000
4601560156.016	0.000000e+000	0.000000e+000	-3.064372e-001	4.331895e-001	0.000000e+000	0.000000e+000	0.000000e+000	0.000000e+000
4601580158.016	0.000000e+000	0.000000e+000	-3.024507e-001	4.358989e-001	0.000000e+000	0.000000e+000	0.000000e+000	0.000000e+000
4601600160.016	0.000000e+000	0.000000e+000	-2.983308e-001	4.387035e-001	0.000000e+000	0.000000e+000	0.000000e+000	0.000000e+000
4601620162.016	0.000000e+000	0.000000e+000	-2.940767e-001	4.414954e-001	0.000000e+000	0.000000e+000	0.000000e+000	0.000000e+000
4601640164.016	0.000000e+000	0.000000e+000	-2.899369e-001	4.440990e-001	0.000000e+000	0.000000e+000	0.000000e+000	0.000000e+000
4601660166.017	0.000000e+000	0.000000e+000	-2.856581e-001	4.469127e-001	0.000000e+000	0.000000e+000	0.000000e+000	0.000000e+000
4601680168.017	0.000000e+000	0.000000e+000	-2.812341e-001	4.495341e-001	0.000000e+000	0.000000e+000	0.000000e+000	0.000000e+000
4601700170.017	0.000000e+000	0.000000e+000	-2.767797e-001	4.523093e-001	0.000000e+000	0.000000e+000	0.000000e+000	0.000000e+000
4601720172.017	0.000000e+000	0.000000e+000	-2.721390e-001	4.548969e-001	0.000000e+000	0.000000e+000	0.000000e+000	0.000000e+000
4601740174.017	0.000000e+000	0.000000e+000	-2.676299e-001	4.575554e-001	0.000000e+000	0.000000e+000	0.000000e+000	0.000000e+000
4601760176.018	0.000000e+000	0.000000e+000	-2.625815e-001	4.600912e-001	0.000000e+000	0.000000e+000	0.000000e+000	0.000000e+000
4601780178.018	0.000000e+000	0.000000e+000	-2.576660e-001	4.628317e-001	0.000000e+000	0.000000e+000	0.000000e+000	0.000000e+000
4601800180.018	0.000000e+000	0.000000e+000	-2.525924e-001	4.653581e-001	0.000000e+000	0.000000e+000	0.000000e+000	0.000000e+000
4601820182.018	0.000000e+000	0.000000e+000	-2.472487e-001	4.679881e-001	0.000000e+000	0.000000e+000	0.000000e+000	0.000000e+000
4601840184.018	0.000000e+000	0.000000e+000	-2.417648e-001	4.707000e-001	0.000000e+000	0.000000e+000	0.000000e+000	0.000000e+000
4601860186.019	0.000000e+000	0.000000e+000	-2.358669e-001	4.732645e-001	0.000000e+000	0.000000e+000	0.000000e+000	0.000000e+000
4601880188.019	0.000000e+000	0.000000e+000	-2.300076e-001	4.756844e-001	0.000000e+000	0.000000e+000	0.000000e+000	0.000000e+000
4601900190.019	0.000000e+000	0.000000e+000	-2.236462e-001	4.782643e-001	0.000000e+000	0.000000e+000	0.000000e+000	0.000000e+000
4601920192.019	0.000000e+000	0.000000e+000	-2.170000e-001	4.806772e-001	0.000000e+000	0.000000e+000	0.000000e+000	0.000000e+000
4601940194.019	0.000000e+000	0.000000e+000	-2.097215e-001	4.831197e-001	0.000000e+000	0.000000e+000	0.000000e+000	0.000000e+000
4601960196.020	0.000000e+000	0.000000e+000	-2.020260e-001	4.855941e-001	0.000000e+000	0.000000e+000	0.000000e+000	0.000000e+000
4601980198.020	0.000000e+000	0.000000e+000	-1.937582e-001	4.877418e-001	0.000000e+000	0.000000e+000	0.000000e+000	0.000000e+000
4602000200.020	0.000000e+000	0.000000e+000	-1.844914e-001	4.897590e-001	0.000000e+000	0.000000e+000	0.000000e+000	0.000000e+000
4602020202.020	0.000000e+000	0.000000e+000	-1.743703e-001	4.914589e-001	0.000000e+000	0.000000e+000	0.000000e+000	0.000000e+000
4602040204.020	0.000000e+000	0.000000e+000	-1.630449e-001	4.927901e-001	0.000000e+000	0.000000e+000	0.000000e+000	0.000000e+000
4602060206.021	0.000000e+000	0.000000e+000	-1.496629e-001	4.932748e-001	0.000000e+000	0.000000e+000	0.000000e+000	0.000000e+000
4602080208.021	0.000000e+000	0.000000e+000	-1.342498e-001	4.924952e-001	0.000000e+000	0.000000e+000	0.000000e+000	0.000000e+000
4602100210.021	0.000000e+000	0.000000e+000	-1.157966e-001	4.895292e-001	0.000000e+000	0.000000e+000	0.000000e+000	0.000000e+000
4602120212.021	0.000000e+000	0.000000e+000	-9.352861e-002	4.822549e-001	0.000000e+000	0.000000e+000	0.000000e+000	0.000000e+000
4602140214.021	0.000000e+000	0.000000e+000	-6.594471e-002	4.665074e-001	0.000000e+000	0.000000e+000	0.000000e+000	0.000000e+000
4602160216.022	0.000000e+000	0.000000e+000	-3.570441e-002	4.333532e-001	0.000000e+000	0.000000e+000	0.000000e+000	0.000000e+000
4602180218.022	0.000000e+000	0.000000e+000	-1.662227e-002	3.715483e-001	0.000000e+000	0.000000e+000	0.000000e+000	0.000000e+000
4602200220.022	0.000000e+000	0.000000e+000	-4.072827e-002	2.930211e-001	0.000000e+000	0.000000e+000	0.000000e+000	0.000000e+000
4602220222.022	0.000000e+000	0.000000e+000	-1.096489e-001	2.452433e-001	0.000000e+000	0.000000e+000	0.000000e+000	0.000000e+000
4602240224.022	0.000000e+000	0.000000e+000	-1.823812e-001	2.472799e-001	0.000000e+000	0.000000e+000	0.000000e+000	0.000000e+000
4602260226.023	0.000000e+000	0.000000e+000	-2.304150e-001	2.782420e-001	0.000000e+000	0.000000e+000	0.000000e+000	0.000000e+000
4602280228.023	0.000000e+000	0.000000e+000	-2.545118e-001	3.157082e-001	0.000000e+000	0.000000e+000	0.000000e+000	0.000000e+000
4602300230.023	0.000000e+000	0.000000e+000	-2.626692e-001	3.494722e-001	0.000000e+000	0.000000e+000	0.000000e+000	0.000000e+000
4602320232.023	0.000000e+000	0.000000e+000	-2.621123e-001	3.774080e-001	0.000000e+000	0.000000e+000	0.000000e+000	0.000000e+000
4602340234.023	0.000000e+000	0.000000e+000	-2.569604e-001	3.993507e-001	0.000000e+000	0.000000e+000	0.000000e+000	0.000000e+000
4602360236.024	0.000000e+000	0.000000e+000	-2.499885e-001	4.167648e-001	0.000000e+000	0.000000e+000	0.000000e+000	0.000000e+000
4602380238.024	0.000000e+000	0.000000e+000	-2.422862e-001	4.302998e-001	0.000000e+000	0.000000e+000	0.000000e+000	0.000000e+000
4602400240.024	0.000000e+000	0.000000e+000	-2.345062e-001	4.411918e-001	0.000000e+000	0.000000e+000	0.000000e+000	0.000000e+000
4602420242.024	0.000000e+000	0.000000e+000	-2.268259e-001	4.502378e-001	0.000000e+000	0.000000e+000	0.000000e+000	0.000000e+000
4602440244.024	0.000000e+000	0.000000e+000	-2.194258e-001	4.576651e-001	0.000000e+000	0.000000e+000	0.000000e+000	0.000000e+000
4602460246.025	0.000000e+000	0.000000e+000	-2.122848e-001	4.639592e-001	0.000000e+000	0.000000e+000	0.000000e+000	0.000000e+000
4602480248.025	0.000000e+000	0.000000e+000	-2.054852e-001	4.694429e-001	0.000000e+000	0.000000e+000	0.000000e+000	0.000000e+000
4602500250.025	0.000000e+000	0.000000e+000	-1.989035e-001	4.743054e-001	0.000000e+000	0.000000e+000	0.000000e+000	0.000000e+000
4602520252.025	0.000000e+000	0.000000e+000	-1.926953e-001	4.784112e-001	0.000000e+000	0.000000e+000	0.000000e+000	0.000000e+000
4602540254.025	0.000000e+000	0.000000e+000	-1.865758e-001	4.821114e-001	0.000000e+000	0.000000e+000	0.000000e+000	0.000000e+000
4602560256.026	0.000000e+000	0.000000e+000	-1.806263e-001	4.855242e-001	0.000000e+000	0.000000e+000	0.000000e+000	0.000000e+000
4602580258.026	0.000000e+000	0.000000e+000	-1.749382e-001	4.885935e-001	0.000000e+000	0.000000e+000	0.000000e+000	0.000000e+000
4602600260.026	0.000000e+000	0.000000e+000	-1.692588e-001	4.913518e-001	0.000000e+000	0.000000e+000	0.000000e+000	0.000000e+000
4602620262.026	0.000000e+000	0.000000e+000	-1.638178e-001	4.939064e-001	0.000000e+000	0.000000e+000	0.000000e+000	0.000000e+000
4602640264.026	0.000000e+000	0.000000e+000	-1.583908e-001	4.963200e-001	0.000000e+000	0.000000e+000	0.000000e+000	0.000000e+000
4602660266.027	0.000000e+000	0.000000e+000	-1.530661e-001	4.985564e-001	0.000000e+000	0.000000e+000	0.000000e+000	0.000000e+000
4602680268.027	0.000000e+000	0.000000e+000	-1.479085e-001	5.005134e-001	0.000000e+000	0.000000e+000	0.000000e+000	0.000000e+000
4602700270.027	0.000000e+000	0.000000e+000	-1.428178e-001	5.023360e-001	0.000000e+000	0.000000e+000	0.000000e+000	0.000000e+000
4602720272.027	0.000000e+000	0.000000e+000	-1.376526e-001	5.041702e-001	0.000000e+000	0.000000e+000	0.000000e+000	0.000000e+000
4602740274.027	0.000000e+000	0.000000e+000	-1.326137e-001	5.058488e-001	0.000000e+000	0.000000e+000	0.000000e+000	0.000000e+000
4602760276.028	0.000000e+000	0.000000e+000	-1.277388e-001	5.074797e-001	0.000000e+000	0.000000e+000	0.000000e+000	0.000000e+000
4602780278.028	0.000000e+000	0.000000e+000	-1.227643e-001	5.089230e-001	0.000000e+000	0.000000e+000	0.000000e+000	0.000000e+000
4602800280.028	0.000000e+000	0.000000e+000	-1.178830e-001	5.103688e-001	0.000000e+000	0.000000e+000	0.000000e+000	0.000000e+000
4602820282.028	0.000000e+000	0.000000e+000	-1.130707e-001	5.116378e-001	0.000000e+000	0.000000e+000	0.000000e+000	0.000000e+000
4602840284.028	0.000000e+000	0.000000e+000	-1.083812e-001	5.128305e-001	0.000000e+000	0.000000e+000	0.000000e+000	0.000000e+000
4602860286.029	0.000000e+000	0.000000e+000	-1.036316e-001	5.139761e-001	0.000000e+000	0.000000e+000	0.000000e+000	0.000000e+000
4602880288.029	0.000000e+000	0.000000e+000	-9.901962e-002	5.151342e-001	0.000000e+000	0.000000e+000	0.000000e+000	0.000000e+000
4602900290.029	0.000000e+000	0.000000e+000	-9.420248e-002	5.160769e-001	0.000000e+000	0.000000e+000	0.000000e+000	0.000000e+000
4602920292.029	0.000000e+000	0.000000e+000	-8.947204e-002	5.170978e-001	0.000000e+000	0.000000e+000	0.000000e+000	0.000000e+000
4602940294.029	0.000000e+000	0.000000e+000	-8.491529e-002	5.180899e-001	0.000000e+000	0.000000e+000	0.000000e+000	0.000000e+000
4602960296.030	0.000000e+000	0.000000e+000	-8.029778e-002	5.188178e-001	0.000000e+000	0.000000e+000	0.000000e+000	0.000000e+000
4602980298.030	0.000000e+000	0.000000e+000	-7.561302e-002	5.196056e-001	0.000000e+000	0.000000e+000	0.000000e+000	0.000000e+000
4603000300.030	0.000000e+000	0.000000e+000	-7.108234e-002	5.203905e-001	0.000000e+000	0.000000e+000	0.000000e+000	0.000000e+000
4603020302.030	0.000000e+000	0.000000e+000	-6.644353e-002	5.212415e-001	0.000000e+000	0.000000e+000	0.000000e+000	0.000000e+000
4603040304.030	0.000000e+000	0.000000e+000	-6.187030e-002	5.218157e-001	0.000000e+000	0.000000e+000	0.000000e+000	0.000000e+000
