!Keysight Technologies,E5063A,MY54502693,A.05.04
!Date: Sat Feb 27 15:51:03 2021
!Data & Calibration Information:
!Freq	S11:NONE(--)	S21:NONE(--)	S12:NONE(--)	S22:NONE(--)
# Hz S RI R 50
4000000000.000	0.000000e+000	0.000000e+000	-2.747700e-001	-6.365577e-001	0.000000e+000	0.000000e+000	0.000000e+000	0.000000e+000
4000400040.004	0.000000e+000	0.000000e+000	-3.665132e-001	-5.898630e-001	0.000000e+000	0.000000e+000	0.000000e+000	0.000000e+000
4000800080.008	0.000000e+000	0.000000e+000	-4.506565e-001	-5.295347e-001	0.000000e+000	0.000000e+000	0.000000e+000	0.000000e+000
4001200120.012	0.000000e+000	0.000000e+000	-5.245941e-001	-4.569884e-001	0.000000e+000	0.000000e+000	0.000000e+000	0.000000e+000
4001600160.016	0.000000e+000	0.000000e+000	-5.873024e-001	-3.748333e-001	0.000000e+000	0.000000e+000	0.000000e+000	0.000000e+000
4002000200.020	0.000000e+000	0.000000e+000	-6.373219e-001	-2.838553e-001	0.000000e+000	0.000000e+000	0.000000e+000	0.000000e+000
4002400240.024	0.000000e+000	0.000000e+000	-6.726031e-001	-1.859590e-001	0.000000e+000	0.000000e+000	0.000000e+000	0.000000e+000
4002800280.028	0.000000e+000	0.000000e+000	-6.938935e-001	-8.406785e-002	0.000000e+000	0.000000e+000	0.000000e+000	0.000000e+000
4003200320.032	0.000000e+000	0.000000e+000	-6.994713e-001	2.010893e-002	0.000000e+000	0.000000e+000	0.000000e+000	0.000000e+000
4003600360.036	0.000000e+000	0.000000e+000	-6.892381e-001	1.240939e-001	0.000000e+000	0.000000e+000	0.000000e+000	0.000000e+000
4004000400.040	0.000000e+000	0.000000e+000	-6.637459e-001	2.254627e-001	0.000000e+000	0.000000e+000	0.000000e+000	0.000000e+000
4004400440.044	0.000000e+000	0.000000e+000	-6.229071e-001	3.220488e-001	0.000000e+000	0.000000e+000	0.000000e+000	0.000000e+000
4004800480.048	0.000000e+000	0.000000e+000	-5.680347e-001	4.115613e-001	0.000000e+000	0.000000e+000	0.000000e+000	0.000000e+000
4005200520.052	0.000000e+000	0.000000e+000	-5.000278e-001	4.921848e-001	0.000000e+000	0.000000e+000	0.000000e+000	0.000000e+000
4005600560.056	0.000000e+000	0.000000e+000	-4.206707e-001	5.616729e-001	0.000000e+000	0.000000e+000	0.000000e+000	0.000000e+000
4006000600.060	0.000000e+000	0.000000e+000	-3.313586e-001	6.189037e-001	0.000000e+000	0.000000e+000	0.000000e+000	0.000000e+000
4006400640.064	0.000000e+000	0.000000e+000	-2.339557e-001	6.615643e-001	0.000000e+000	0.000000e+000	0.000000e+000	0.000000e+000
4006800680.068	0.000000e+000	0.000000e+000	-1.303789e-001	6.887516e-001	0.000000e+000	0.000000e+000	0.000000e+000	0.000000e+000
4007200720.072	0.000000e+000	0.000000e+000	-2.357892e-002	6.990548e-001	0.000000e+000	0.000000e+000	0.000000e+000	0.000000e+000
4007600760.076	0.000000e+000	0.000000e+000	8.553495e-002	6.909957e-001	0.000000e+000	0.000000e+000	0.000000e+000	0.000000e+000
4008000800.080	0.000000e+000	0.000000e+000	1.937994e-001	6.606917e-001	0.000000e+000	0.000000e+000	0.000000e+000	0.000000e+000
4008400840.084	0.000000e+000	0.000000e+000	2.900874e-001	5.831890e-001	0.000000e+000	0.000000e+000	0.000000e+000	0.000000e+000
4008800880.088	0.000000e+000	0.000000e+000	2.597258e-001	6.236225e-001	0.000000e+000	0.000000e+000	0.000000e+000	0.000000e+000
4009200920.092	0.000000e+000	0.000000e+000	4.355027e-001	5.726207e-001	0.000000e+000	0.000000e+000	0.000000e+000	0.000000e+000
4009600960.096	0.000000e+000	0.000000e+000	5.282838e-001	4.852600e-001	0.000000e+000	0.000000e+000	0.000000e+000	0.000000e+000
4010001000.100	0.000000e+000	0.000000e+000	5.982585e-001	3.911705e-001	0.000000e+000	0.000000e+000	0.000000e+000	0.000000e+000
4010401040.104	0.000000e+000	0.000000e+000	6.515301e-001	2.881450e-001	0.000000e+000	0.000000e+000	0.000000e+000	0.000000e+000
4010801080.108	0.000000e+000	0.000000e+000	6.862856e-001	1.757253e-001	0.000000e+000	0.000000e+000	0.000000e+000	0.000000e+000
4011201120.112	0.000000e+000	0.000000e+000	6.964618e-001	5.194595e-002	0.000000e+000	0.000000e+000	0.000000e+000	0.000000e+000
4011601160.116	0.000000e+000	0.000000e+000	6.334288e-001	-9.634924e-002	0.000000e+000	0.000000e+000	0.000000e+000	0.000000e+000
4012001200.120	0.000000e+000	0.000000e+000	7.192722e-001	-1.726411e-002	0.000000e+000	0.000000e+000	0.000000e+000	0.000000e+000
4012401240.124	0.000000e+000	0.000000e+000	6.852624e-001	-2.348037e-001	0.000000e+000	0.000000e+000	0.000000e+000	0.000000e+000
4012801280.128	0.000000e+000	0.000000e+000	3.672399e-001	-1.609633e-001	0.000000e+000	0.000000e+000	0.000000e+000	0.000000e+000
4013201320.132	0.000000e+000	0.000000e+000	6.273136e-001	-3.685120e-001	0.000000e+000	0.000000e+000	0.000000e+000	0.000000e+000
4013601360.136	0.000000e+000	0.000000e+000	5.425962e-001	-4.886109e-001	0.000000e+000	0.000000e+000	0.000000e+000	0.000000e+000
4014001400.140	0.000000e+000	0.000000e+000	4.417952e-001	-5.810333e-001	0.000000e+000	0.000000e+000	0.000000e+000	0.000000e+000
4014401440.144	0.000000e+000	0.000000e+000	3.044688e-001	-6.563173e-001	0.000000e+000	0.000000e+000	0.000000e+000	0.000000e+000
4014801480.148	0.000000e+000	0.000000e+000	1.976587e-001	-3.506670e-001	0.000000e+000	0.000000e+000	0.000000e+000	0.000000e+000
4015201520.152	0.000000e+000	0.000000e+000	2.163193e-001	-6.833658e-001	0.000000e+000	0.000000e+000	0.000000e+000	0.000000e+000
4015601560.156	0.000000e+000	0.000000e+000	7.100669e-002	-7.255262e-001	0.000000e+000	0.000000e+000	0.000000e+000	0.000000e+000
4016001600.160	0.000000e+000	0.000000e+000	-7.187732e-002	-7.300829e-001	0.000000e+000	0.000000e+000	0.000000e+000	0.000000e+000
4016401640.164	0.000000e+000	0.000000e+000	-2.473514e-001	-6.905303e-001	0.000000e+000	0.000000e+000	0.000000e+000	0.000000e+000
4016801680.168	0.000000e+000	0.000000e+000	-1.957594e-002	-5.070698e-001	0.000000e+000	0.000000e+000	0.000000e+000	0.000000e+000
4017201720.172	0.000000e+000	0.000000e+000	-2.969541e-001	-6.443406e-001	0.000000e+000	0.000000e+000	0.000000e+000	0.000000e+000
4017601760.176	0.000000e+000	0.000000e+000	-4.338374e-001	-5.811381e-001	0.000000e+000	0.000000e+000	0.000000e+000	0.000000e+000
4018001800.180	0.000000e+000	0.000000e+000	-5.470059e-001	-4.891098e-001	0.000000e+000	0.000000e+000	0.000000e+000	0.000000e+000
4018401840.184	0.000000e+000	0.000000e+000	-6.604042e-001	-3.352879e-001	0.000000e+000	0.000000e+000	0.000000e+000	0.000000e+000
4018801880.188	0.000000e+000	0.000000e+000	-2.703746e-001	-3.192743e-001	0.000000e+000	0.000000e+000	0.000000e+000	0.000000e+000
4019201920.192	0.000000e+000	0.000000e+000	-6.406373e-001	-2.811670e-001	0.000000e+000	0.000000e+000	0.000000e+000	0.000000e+000
4019601960.196	0.000000e+000	0.000000e+000	-7.105499e-001	-1.295101e-001	0.000000e+000	0.000000e+000	0.000000e+000	0.000000e+000
4020002000.200	0.000000e+000	0.000000e+000	-7.318646e-001	6.325644e-002	0.000000e+000	0.000000e+000	0.000000e+000	0.000000e+000
4020402040.204	0.000000e+000	0.000000e+000	-3.758603e-001	-9.409052e-002	0.000000e+000	0.000000e+000	0.000000e+000	0.000000e+000
4020802080.208	0.000000e+000	0.000000e+000	-6.797646e-001	1.061286e-001	0.000000e+000	0.000000e+000	0.000000e+000	0.000000e+000
4021202120.212	0.000000e+000	0.000000e+000	-6.600293e-001	2.690514e-001	0.000000e+000	0.000000e+000	0.000000e+000	0.000000e+000
4021602160.216	0.000000e+000	0.000000e+000	-5.721182e-001	4.478588e-001	0.000000e+000	0.000000e+000	0.000000e+000	0.000000e+000
4022002200.220	0.000000e+000	0.000000e+000	-5.349054e-001	2.273903e-001	0.000000e+000	0.000000e+000	0.000000e+000	0.000000e+000
4022402240.224	0.000000e+000	0.000000e+000	-5.057857e-001	4.689401e-001	0.000000e+000	0.000000e+000	0.000000e+000	0.000000e+000
4022802280.228	0.000000e+000	0.000000e+000	-4.123063e-001	5.704760e-001	0.000000e+000	0.000000e+000	0.000000e+000	0.000000e+000
4023202320.232	0.000000e+000	0.000000e+000	-3.057804e-001	6.407801e-001	0.000000e+000	0.000000e+000	0.000000e+000	0.000000e+000
4023602360.236	0.000000e+000	0.000000e+000	-1.882504e-001	6.888144e-001	0.000000e+000	0.000000e+000	0.000000e+000	0.000000e+000
4024002400.240	0.000000e+000	0.000000e+000	-5.345597e-002	7.144543e-001	0.000000e+000	0.000000e+000	0.000000e+000	0.000000e+000
4024402440.244	0.000000e+000	0.000000e+000	1.202090e-001	7.023013e-001	0.000000e+000	0.000000e+000	0.000000e+000	0.000000e+000
4024802480.248	0.000000e+000	0.000000e+000	5.082064e-002	3.049704e-001	0.000000e+000	0.000000e+000	0.000000e+000	0.000000e+000
4025202520.252	0.000000e+000	0.000000e+000	-2.716056e-002	3.446377e-001	0.000000e+000	0.000000e+000	0.000000e+000	0.000000e+000
4025602560.256	0.000000e+000	0.000000e+000	2.121997e-001	6.455311e-001	0.000000e+000	0.000000e+000	0.000000e+000	0.000000e+000
4026002600.260	0.000000e+000	0.000000e+000	3.827952e-001	5.759430e-001	0.000000e+000	0.000000e+000	0.000000e+000	0.000000e+000
4026402640.264	0.000000e+000	0.000000e+000	1.774381e-001	5.518995e-001	0.000000e+000	0.000000e+000	0.000000e+000	0.000000e+000
4026802680.268	0.000000e+000	0.000000e+000	4.948160e-001	4.994486e-001	0.000000e+000	0.000000e+000	0.000000e+000	0.000000e+000
4027202720.272	0.000000e+000	0.000000e+000	5.866771e-001	3.924389e-001	0.000000e+000	0.000000e+000	0.000000e+000	0.000000e+000
4027602760.276	0.000000e+000	0.000000e+000	6.477207e-001	2.755098e-001	0.000000e+000	0.000000e+000	0.000000e+000	0.000000e+000
4028002800.280	0.000000e+000	0.000000e+000	6.766569e-001	1.278215e-001	0.000000e+000	0.000000e+000	0.000000e+000	0.000000e+000
4028402840.284	0.000000e+000	0.000000e+000	5.015154e-001	2.666102e-001	0.000000e+000	0.000000e+000	0.000000e+000	0.000000e+000
4028802880.288	0.000000e+000	0.000000e+000	7.126370e-001	7.038096e-003	0.000000e+000	0.000000e+000	0.000000e+000	0.000000e+000
4029202920.292	0.000000e+000	0.000000e+000	5.634221e-001	-1.935309e-001	0.000000e+000	0.000000e+000	0.000000e+000	0.000000e+000
4029602960.296	0.000000e+000	0.000000e+000	7.102605e-001	-1.724271e-001	0.000000e+000	0.000000e+000	0.000000e+000	0.000000e+000
4030003000.300	0.000000e+000	0.000000e+000	6.589175e-001	-3.107642e-001	0.000000e+000	0.000000e+000	0.000000e+000	0.000000e+000
4030403040.304	0.000000e+000	0.000000e+000	5.925001e-001	-4.199161e-001	0.000000e+000	0.000000e+000	0.000000e+000	0.000000e+000
4030803080.308	0.000000e+000	0.000000e+000	5.058508e-001	-5.156829e-001	0.000000e+000	0.000000e+000	0.000000e+000	0.000000e+000
4031203120.312	0.000000e+000	0.000000e+000	3.698713e-001	-5.973011e-001	0.000000e+000	0.000000e+000	0.000000e+000	0.000000e+000
4031603160.316	0.000000e+000	0.000000e+000	4.675633e-001	-5.552936e-001	0.000000e+000	0.000000e+000	0.000000e+000	0.000000e+000
4032003200.320	0.000000e+000	0.000000e+000	2.802105e-001	-6.818276e-001	0.000000e+000	0.000000e+000	0.000000e+000	0.000000e+000
4032403240.324	0.000000e+000	0.000000e+000	1.442320e-001	-7.202924e-001	0.000000e+000	0.000000e+000	0.000000e+000	0.000000e+000
4032803280.328	0.000000e+000	0.000000e+000	-9.171583e-003	-7.264945e-001	0.000000e+000	0.000000e+000	0.000000e+000	0.000000e+000
4033203320.332	0.000000e+000	0.000000e+000	1.822755e-001	-5.655435e-001	0.000000e+000	0.000000e+000	0.000000e+000	0.000000e+000
4033603360.336	0.000000e+000	0.000000e+000	-1.305885e-001	-7.257685e-001	0.000000e+000	0.000000e+000	0.000000e+000	0.000000e+000
4034003400.340	0.000000e+000	0.000000e+000	-2.705784e-001	-6.883290e-001	0.000000e+000	0.000000e+000	0.000000e+000	0.000000e+000
4034403440.344	0.000000e+000	0.000000e+000	-3.939987e-001	-6.268402e-001	0.000000e+000	0.000000e+000	0.000000e+000	0.000000e+000
4034803480.348	0.000000e+000	0.000000e+000	-5.285926e-001	-5.084612e-001	0.000000e+000	0.000000e+000	0.000000e+000	0.000000e+000
4035203520.352	0.000000e+000	0.000000e+000	-3.719465e-001	-5.662842e-001	0.000000e+000	0.000000e+000	0.000000e+000	0.000000e+000
4035603560.356	0.000000e+000	0.000000e+000	-5.814982e-001	-4.485880e-001	0.000000e+000	0.000000e+000	0.000000e+000	0.000000e+000
4036003600.360	0.000000e+000	0.000000e+000	-6.605261e-001	-3.338101e-001	0.000000e+000	0.000000e+000	0.000000e+000	0.000000e+000
4036403640.364	0.000000e+000	0.000000e+000	-7.119926e-001	-2.137900e-001	0.000000e+000	0.000000e+000	0.000000e+000	0.000000e+000
4036803680.368	0.000000e+000	0.000000e+000	-7.413193e-001	-7.877568e-002	0.000000e+000	0.000000e+000	0.000000e+000	0.000000e+000
4037203720.372	0.000000e+000	0.000000e+000	-7.276389e-001	1.305570e-001	0.000000e+000	0.000000e+000	0.000000e+000	0.000000e+000
4037603760.376	0.000000e+000	0.000000e+000	-6.873849e-001	-4.080541e-002	0.000000e+000	0.000000e+000	0.000000e+000	0.000000e+000
4038003800.380	0.000000e+000	0.000000e+000	-7.135797e-001	1.630264e-001	0.000000e+000	0.000000e+000	0.000000e+000	0.000000e+000
4038403840.384	0.000000e+000	0.000000e+000	-6.781541e-001	2.908675e-001	0.000000e+000	0.000000e+000	0.000000e+000	0.000000e+000
4038803880.388	0.000000e+000	0.000000e+000	-6.240472e-001	3.999926e-001	0.000000e+000	0.000000e+000	0.000000e+000	0.000000e+000
4039203920.392	0.000000e+000	0.000000e+000	-5.539783e-001	4.958197e-001	0.000000e+000	0.000000e+000	0.000000e+000	0.000000e+000
4039603960.396	0.000000e+000	0.000000e+000	-4.703277e-001	5.772918e-001	0.000000e+000	0.000000e+000	0.000000e+000	0.000000e+000
4040004000.400	0.000000e+000	0.000000e+000	-3.753453e-001	6.448405e-001	0.000000e+000	0.000000e+000	0.000000e+000	0.000000e+000
4040404040.404	0.000000e+000	0.000000e+000	-2.710400e-001	6.964872e-001	0.000000e+000	0.000000e+000	0.000000e+000	0.000000e+000
4040804080.408	0.000000e+000	0.000000e+000	-1.594536e-001	7.307686e-001	0.000000e+000	0.000000e+000	0.000000e+000	0.000000e+000
4041204120.412	0.000000e+000	0.000000e+000	-4.400876e-002	7.476487e-001	0.000000e+000	0.000000e+000	0.000000e+000	0.000000e+000
4041604160.416	0.000000e+000	0.000000e+000	7.318958e-002	7.457172e-001	0.000000e+000	0.000000e+000	0.000000e+000	0.000000e+000
4042004200.420	0.000000e+000	0.000000e+000	1.895746e-001	7.248614e-001	0.000000e+000	0.000000e+000	0.000000e+000	0.000000e+000
4042404240.424	0.000000e+000	0.000000e+000	3.035588e-001	6.847038e-001	0.000000e+000	0.000000e+000	0.000000e+000	0.000000e+000
4042804280.428	0.000000e+000	0.000000e+000	4.123097e-001	6.225782e-001	0.000000e+000	0.000000e+000	0.000000e+000	0.000000e+000
4043204320.432	0.000000e+000	0.000000e+000	5.159956e-001	5.279454e-001	0.000000e+000	0.000000e+000	0.000000e+000	0.000000e+000
4043604360.436	0.000000e+000	0.000000e+000	4.605281e-001	2.418474e-001	0.000000e+000	0.000000e+000	0.000000e+000	0.000000e+000
4044004400.440	0.000000e+000	0.000000e+000	6.131617e-001	4.353674e-001	0.000000e+000	0.000000e+000	0.000000e+000	0.000000e+000
4044404440.444	0.000000e+000	0.000000e+000	6.730025e-001	2.180108e-001	0.000000e+000	0.000000e+000	0.000000e+000	0.000000e+000
4044804480.448	0.000000e+000	0.000000e+000	7.043017e-001	2.637921e-001	0.000000e+000	0.000000e+000	0.000000e+000	0.000000e+000
4045204520.452	0.000000e+000	0.000000e+000	7.502814e-001	1.117493e-001	0.000000e+000	0.000000e+000	0.000000e+000	0.000000e+000
4045604560.456	0.000000e+000	0.000000e+000	7.573746e-001	-2.551505e-002	0.000000e+000	0.000000e+000	0.000000e+000	0.000000e+000
4046004600.460	0.000000e+000	0.000000e+000	7.335326e-001	-1.712957e-001	0.000000e+000	0.000000e+000	0.000000e+000	0.000000e+000
4046404640.464	0.000000e+000	0.000000e+000	4.108037e-001	-2.526282e-001	0.000000e+000	0.000000e+000	0.000000e+000	0.000000e+000
4046804680.468	0.000000e+000	0.000000e+000	6.903055e-001	-3.032544e-001	0.000000e+000	0.000000e+000	0.000000e+000	0.000000e+000
4047204720.472	0.000000e+000	0.000000e+000	6.193941e-001	-4.383545e-001	0.000000e+000	0.000000e+000	0.000000e+000	0.000000e+000
4047604760.476	0.000000e+000	0.000000e+000	5.290602e-001	-5.434939e-001	0.000000e+000	0.000000e+000	0.000000e+000	0.000000e+000
4048004800.480	0.000000e+000	0.000000e+000	4.090260e-001	-6.336118e-001	0.000000e+000	0.000000e+000	0.000000e+000	0.000000e+000
4048404840.484	0.000000e+000	0.000000e+000	1.076662e-001	-6.185764e-001	0.000000e+000	0.000000e+000	0.000000e+000	0.000000e+000
4048804880.488	0.000000e+000	0.000000e+000	3.123156e-001	-6.752374e-001	0.000000e+000	0.000000e+000	0.000000e+000	0.000000e+000
4049204920.492	0.000000e+000	0.000000e+000	1.493508e-001	-7.407196e-001	0.000000e+000	0.000000e+000	0.000000e+000	0.000000e+000
4049604960.496	0.000000e+000	0.000000e+000	-8.008110e-003	-7.538439e-001	0.000000e+000	0.000000e+000	0.000000e+000	0.000000e+000
4050005000.500	0.000000e+000	0.000000e+000	-2.371468e-001	-6.726782e-001	0.000000e+000	0.000000e+000	0.000000e+000	0.000000e+000
4050405040.504	0.000000e+000	0.000000e+000	-5.258378e-002	-7.222714e-001	0.000000e+000	0.000000e+000	0.000000e+000	0.000000e+000
4050805080.508	0.000000e+000	0.000000e+000	-2.697853e-001	-7.015047e-001	0.000000e+000	0.000000e+000	0.000000e+000	0.000000e+000
4051205120.512	0.000000e+000	0.000000e+000	-4.108419e-001	-6.293648e-001	0.000000e+000	0.000000e+000	0.000000e+000	0.000000e+000
4051605160.516	0.000000e+000	0.000000e+000	-5.397181e-001	-5.041744e-001	0.000000e+000	0.000000e+000	0.000000e+000	0.000000e+000
4052005200.520	0.000000e+000	0.000000e+000	-1.984902e-001	-2.344935e-001	0.000000e+000	0.000000e+000	0.000000e+000	0.000000e+000
4052405240.524	0.000000e+000	0.000000e+000	-5.783512e-001	-4.660711e-001	0.000000e+000	0.000000e+000	0.000000e+000	0.000000e+000
4052805280.528	0.000000e+000	0.000000e+000	-6.796246e-001	-3.183295e-001	0.000000e+000	0.000000e+000	0.000000e+000	0.000000e+000
4053205320.532	0.000000e+000	0.000000e+000	-7.287610e-001	-1.571558e-001	0.000000e+000	0.000000e+000	0.000000e+000	0.000000e+000
4053605360.536	0.000000e+000	0.000000e+000	-6.356416e-001	1.258584e-001	0.000000e+000	0.000000e+000	0.000000e+000	0.000000e+000
4054005400.540	0.000000e+000	0.000000e+000	-7.078852e-001	-1.274112e-001	0.000000e+000	0.000000e+000	0.000000e+000	0.000000e+000
4054405440.544	0.000000e+000	0.000000e+000	-7.421011e-001	8.185625e-002	0.000000e+000	0.000000e+000	0.000000e+000	0.000000e+000
4054805480.548	0.000000e+000	0.000000e+000	-7.106577e-001	2.331690e-001	0.000000e+000	0.000000e+000	0.000000e+000	0.000000e+000
4055205520.552	0.000000e+000	0.000000e+000	-6.446228e-001	3.701018e-001	0.000000e+000	0.000000e+000	0.000000e+000	0.000000e+000
4055605560.556	0.000000e+000	0.000000e+000	-5.044501e-001	5.070132e-001	0.000000e+000	0.000000e+000	0.000000e+000	0.000000e+000
4056005600.560	0.000000e+000	0.000000e+000	-5.343124e-001	2.156365e-001	0.000000e+000	0.000000e+000	0.000000e+000	0.000000e+000
4056405640.564	0.000000e+000	0.000000e+000	-4.903771e-001	5.530373e-001	0.000000e+000	0.000000e+000	0.000000e+000	0.000000e+000
4056805680.568	0.000000e+000	0.000000e+000	-3.493064e-001	6.540446e-001	0.000000e+000	0.000000e+000	0.000000e+000	0.000000e+000
4057205720.572	0.000000e+000	0.000000e+000	-1.871443e-001	7.078478e-001	0.000000e+000	0.000000e+000	0.000000e+000	0.000000e+000
4057605760.576	0.000000e+000	0.000000e+000	4.416658e-002	6.839127e-001	0.000000e+000	0.000000e+000	0.000000e+000	0.000000e+000
4058005800.580	0.000000e+000	0.000000e+000	-1.371165e-001	1.788988e-001	0.000000e+000	0.000000e+000	0.000000e+000	0.000000e+000
4058405840.584	0.000000e+000	0.000000e+000	-1.455402e-001	6.963999e-001	0.000000e+000	0.000000e+000	0.000000e+000	0.000000e+000
4058805880.588	0.000000e+000	0.000000e+000	7.717321e-002	7.341233e-001	0.000000e+000	0.000000e+000	0.000000e+000	0.000000e+000
4059205920.592	0.000000e+000	0.000000e+000	2.581974e-001	6.903883e-001	0.000000e+000	0.000000e+000	0.000000e+000	0.000000e+000
4059605960.596	0.000000e+000	0.000000e+000	2.607750e-001	2.476584e-001	0.000000e+000	0.000000e+000	0.000000e+000	0.000000e+000
4060006000.600	0.000000e+000	0.000000e+000	3.683020e-001	6.374520e-001	0.000000e+000	0.000000e+000	0.000000e+000	0.000000e+000
4060406040.604	0.000000e+000	0.000000e+000	5.045482e-001	5.437894e-001	0.000000e+000	0.000000e+000	0.000000e+000	0.000000e+000
4060806080.608	0.000000e+000	0.000000e+000	5.997689e-001	4.354523e-001	0.000000e+000	0.000000e+000	0.000000e+000	0.000000e+000
