!Keysight Technologies,E5063A,MY54502693,A.05.04
!Date: Sat Feb 27 16:37:27 2021
!Data & Calibration Information:
!Freq	S11:NONE(--)	S21:NONE(--)	S12:NONE(--)	S22:NONE(--)
# Hz S RI R 50
5800000000.000	0.000000e+000	0.000000e+000	1.346412e-001	1.137714e-001	0.000000e+000	0.000000e+000	0.000000e+000	0.000000e+000
5800020002.000	0.000000e+000	0.000000e+000	1.521885e-001	1.342976e-001	0.000000e+000	0.000000e+000	0.000000e+000	0.000000e+000
5800040004.000	0.000000e+000	0.000000e+000	1.718273e-001	1.462345e-001	0.000000e+000	0.000000e+000	0.000000e+000	0.000000e+000
5800060006.001	0.000000e+000	0.000000e+000	1.915776e-001	1.515988e-001	0.000000e+000	0.000000e+000	0.000000e+000	0.000000e+000
5800080008.001	0.000000e+000	0.000000e+000	2.094857e-001	1.520626e-001	0.000000e+000	0.000000e+000	0.000000e+000	0.000000e+000
5800100010.001	0.000000e+000	0.000000e+000	2.252381e-001	1.491511e-001	0.000000e+000	0.000000e+000	0.000000e+000	0.000000e+000
5800120012.001	0.000000e+000	0.000000e+000	2.386717e-001	1.438683e-001	0.000000e+000	0.000000e+000	0.000000e+000	0.000000e+000
5800140014.001	0.000000e+000	0.000000e+000	2.499000e-001	1.374435e-001	0.000000e+000	0.000000e+000	0.000000e+000	0.000000e+000
5800160016.002	0.000000e+000	0.000000e+000	2.591561e-001	1.299185e-001	0.000000e+000	0.000000e+000	0.000000e+000	0.000000e+000
5800180018.002	0.000000e+000	0.000000e+000	2.665659e-001	1.226048e-001	0.000000e+000	0.000000e+000	0.000000e+000	0.000000e+000
5800200020.002	0.000000e+000	0.000000e+000	2.726456e-001	1.150701e-001	0.000000e+000	0.000000e+000	0.000000e+000	0.000000e+000
5800220022.002	0.000000e+000	0.000000e+000	2.772772e-001	1.079469e-001	0.000000e+000	0.000000e+000	0.000000e+000	0.000000e+000
5800240024.002	0.000000e+000	0.000000e+000	2.813187e-001	1.010749e-001	0.000000e+000	0.000000e+000	0.000000e+000	0.000000e+000
5800260026.003	0.000000e+000	0.000000e+000	2.844942e-001	9.461732e-002	0.000000e+000	0.000000e+000	0.000000e+000	0.000000e+000
5800280028.003	0.000000e+000	0.000000e+000	2.871352e-001	8.861784e-002	0.000000e+000	0.000000e+000	0.000000e+000	0.000000e+000
5800300030.003	0.000000e+000	0.000000e+000	2.892804e-001	8.293155e-002	0.000000e+000	0.000000e+000	0.000000e+000	0.000000e+000
5800320032.003	0.000000e+000	0.000000e+000	2.909546e-001	7.760411e-002	0.000000e+000	0.000000e+000	0.000000e+000	0.000000e+000
5800340034.003	0.000000e+000	0.000000e+000	2.924408e-001	7.253181e-002	0.000000e+000	0.000000e+000	0.000000e+000	0.000000e+000
5800360036.004	0.000000e+000	0.000000e+000	2.936881e-001	6.772231e-002	0.000000e+000	0.000000e+000	0.000000e+000	0.000000e+000
5800380038.004	0.000000e+000	0.000000e+000	2.947190e-001	6.309793e-002	0.000000e+000	0.000000e+000	0.000000e+000	0.000000e+000
5800400040.004	0.000000e+000	0.000000e+000	2.955484e-001	5.876143e-002	0.000000e+000	0.000000e+000	0.000000e+000	0.000000e+000
5800420042.004	0.000000e+000	0.000000e+000	2.963711e-001	5.471262e-002	0.000000e+000	0.000000e+000	0.000000e+000	0.000000e+000
5800440044.004	0.000000e+000	0.000000e+000	2.971176e-001	5.068860e-002	0.000000e+000	0.000000e+000	0.000000e+000	0.000000e+000
5800460046.005	0.000000e+000	0.000000e+000	2.975233e-001	4.672867e-002	0.000000e+000	0.000000e+000	0.000000e+000	0.000000e+000
5800480048.005	0.000000e+000	0.000000e+000	2.980781e-001	4.288204e-002	0.000000e+000	0.000000e+000	0.000000e+000	0.000000e+000
5800500050.005	0.000000e+000	0.000000e+000	2.985462e-001	3.927296e-002	0.000000e+000	0.000000e+000	0.000000e+000	0.000000e+000
5800520052.005	0.000000e+000	0.000000e+000	2.987869e-001	3.577119e-002	0.000000e+000	0.000000e+000	0.000000e+000	0.000000e+000
5800540054.005	0.000000e+000	0.000000e+000	2.990765e-001	3.217742e-002	0.000000e+000	0.000000e+000	0.000000e+000	0.000000e+000
5800560056.006	0.000000e+000	0.000000e+000	2.992877e-001	2.886750e-002	0.000000e+000	0.000000e+000	0.000000e+000	0.000000e+000
5800580058.006	0.000000e+000	0.000000e+000	2.994294e-001	2.557318e-002	0.000000e+000	0.000000e+000	0.000000e+000	0.000000e+000
5800600060.006	0.000000e+000	0.000000e+000	2.996340e-001	2.230776e-002	0.000000e+000	0.000000e+000	0.000000e+000	0.000000e+000
5800620062.006	0.000000e+000	0.000000e+000	2.996793e-001	1.909606e-002	0.000000e+000	0.000000e+000	0.000000e+000	0.000000e+000
5800640064.006	0.000000e+000	0.000000e+000	2.996999e-001	1.601449e-002	0.000000e+000	0.000000e+000	0.000000e+000	0.000000e+000
5800660066.007	0.000000e+000	0.000000e+000	2.998334e-001	1.287259e-002	0.000000e+000	0.000000e+000	0.000000e+000	0.000000e+000
5800680068.007	0.000000e+000	0.000000e+000	2.997785e-001	9.856353e-003	0.000000e+000	0.000000e+000	0.000000e+000	0.000000e+000
5800700070.007	0.000000e+000	0.000000e+000	2.998111e-001	6.716587e-003	0.000000e+000	0.000000e+000	0.000000e+000	0.000000e+000
5800720072.007	0.000000e+000	0.000000e+000	2.996925e-001	3.784223e-003	0.000000e+000	0.000000e+000	0.000000e+000	0.000000e+000
5800740074.007	0.000000e+000	0.000000e+000	2.995918e-001	6.999516e-004	0.000000e+000	0.000000e+000	0.000000e+000	0.000000e+000
5800760076.008	0.000000e+000	0.000000e+000	2.994511e-001	-2.158981e-003	0.000000e+000	0.000000e+000	0.000000e+000	0.000000e+000
5800780078.008	0.000000e+000	0.000000e+000	2.993554e-001	-4.958857e-003	0.000000e+000	0.000000e+000	0.000000e+000	0.000000e+000
5800800080.008	0.000000e+000	0.000000e+000	2.991547e-001	-7.796738e-003	0.000000e+000	0.000000e+000	0.000000e+000	0.000000e+000
5800820082.008	0.000000e+000	0.000000e+000	2.990596e-001	-1.069332e-002	0.000000e+000	0.000000e+000	0.000000e+000	0.000000e+000
5800840084.008	0.000000e+000	0.000000e+000	2.988457e-001	-1.348419e-002	0.000000e+000	0.000000e+000	0.000000e+000	0.000000e+000
5800860086.009	0.000000e+000	0.000000e+000	2.986004e-001	-1.625000e-002	0.000000e+000	0.000000e+000	0.000000e+000	0.000000e+000
5800880088.009	0.000000e+000	0.000000e+000	2.981815e-001	-1.900789e-002	0.000000e+000	0.000000e+000	0.000000e+000	0.000000e+000
5800900090.009	0.000000e+000	0.000000e+000	2.980268e-001	-2.184939e-002	0.000000e+000	0.000000e+000	0.000000e+000	0.000000e+000
5800920092.009	0.000000e+000	0.000000e+000	2.976402e-001	-2.449603e-002	0.000000e+000	0.000000e+000	0.000000e+000	0.000000e+000
5800940094.009	0.000000e+000	0.000000e+000	2.972824e-001	-2.718872e-002	0.000000e+000	0.000000e+000	0.000000e+000	0.000000e+000
5800960096.010	0.000000e+000	0.000000e+000	2.969680e-001	-2.998838e-002	0.000000e+000	0.000000e+000	0.000000e+000	0.000000e+000
5800980098.010	0.000000e+000	0.000000e+000	2.966132e-001	-3.260491e-002	0.000000e+000	0.000000e+000	0.000000e+000	0.000000e+000
5801000100.010	0.000000e+000	0.000000e+000	2.961508e-001	-3.525768e-002	0.000000e+000	0.000000e+000	0.000000e+000	0.000000e+000
5801020102.010	0.000000e+000	0.000000e+000	2.957097e-001	-3.782785e-002	0.000000e+000	0.000000e+000	0.000000e+000	0.000000e+000
5801040104.010	0.000000e+000	0.000000e+000	2.951967e-001	-4.058612e-002	0.000000e+000	0.000000e+000	0.000000e+000	0.000000e+000
5801060106.011	0.000000e+000	0.000000e+000	2.947890e-001	-4.317570e-002	0.000000e+000	0.000000e+000	0.000000e+000	0.000000e+000
5801080108.011	0.000000e+000	0.000000e+000	2.942818e-001	-4.573447e-002	0.000000e+000	0.000000e+000	0.000000e+000	0.000000e+000
5801100110.011	0.000000e+000	0.000000e+000	2.938120e-001	-4.827557e-002	0.000000e+000	0.000000e+000	0.000000e+000	0.000000e+000
5801120112.011	0.000000e+000	0.000000e+000	2.933005e-001	-5.095492e-002	0.000000e+000	0.000000e+000	0.000000e+000	0.000000e+000
5801140114.011	0.000000e+000	0.000000e+000	2.926964e-001	-5.339023e-002	0.000000e+000	0.000000e+000	0.000000e+000	0.000000e+000
5801160116.012	0.000000e+000	0.000000e+000	2.921352e-001	-5.604970e-002	0.000000e+000	0.000000e+000	0.000000e+000	0.000000e+000
5801180118.012	0.000000e+000	0.000000e+000	2.915617e-001	-5.863870e-002	0.000000e+000	0.000000e+000	0.000000e+000	0.000000e+000
5801200120.012	0.000000e+000	0.000000e+000	2.909069e-001	-6.117099e-002	0.000000e+000	0.000000e+000	0.000000e+000	0.000000e+000
5801220122.012	0.000000e+000	0.000000e+000	2.903916e-001	-6.371821e-002	0.000000e+000	0.000000e+000	0.000000e+000	0.000000e+000
5801240124.012	0.000000e+000	0.000000e+000	2.896644e-001	-6.620213e-002	0.000000e+000	0.000000e+000	0.000000e+000	0.000000e+000
5801260126.013	0.000000e+000	0.000000e+000	2.890050e-001	-6.868992e-002	0.000000e+000	0.000000e+000	0.000000e+000	0.000000e+000
5801280128.013	0.000000e+000	0.000000e+000	2.883274e-001	-7.107958e-002	0.000000e+000	0.000000e+000	0.000000e+000	0.000000e+000
5801300130.013	0.000000e+000	0.000000e+000	2.875360e-001	-7.368711e-002	0.000000e+000	0.000000e+000	0.000000e+000	0.000000e+000
5801320132.013	0.000000e+000	0.000000e+000	2.868117e-001	-7.614697e-002	0.000000e+000	0.000000e+000	0.000000e+000	0.000000e+000
5801340134.013	0.000000e+000	0.000000e+000	2.861377e-001	-7.859559e-002	0.000000e+000	0.000000e+000	0.000000e+000	0.000000e+000
5801360136.014	0.000000e+000	0.000000e+000	2.853002e-001	-8.102743e-002	0.000000e+000	0.000000e+000	0.000000e+000	0.000000e+000
5801380138.014	0.000000e+000	0.000000e+000	2.845577e-001	-8.356659e-002	0.000000e+000	0.000000e+000	0.000000e+000	0.000000e+000
5801400140.014	0.000000e+000	0.000000e+000	2.837241e-001	-8.602093e-002	0.000000e+000	0.000000e+000	0.000000e+000	0.000000e+000
5801420142.014	0.000000e+000	0.000000e+000	2.829500e-001	-8.828025e-002	0.000000e+000	0.000000e+000	0.000000e+000	0.000000e+000
5801440144.014	0.000000e+000	0.000000e+000	2.820248e-001	-9.079088e-002	0.000000e+000	0.000000e+000	0.000000e+000	0.000000e+000
5801460146.015	0.000000e+000	0.000000e+000	2.810905e-001	-9.324661e-002	0.000000e+000	0.000000e+000	0.000000e+000	0.000000e+000
5801480148.015	0.000000e+000	0.000000e+000	2.802118e-001	-9.572623e-002	0.000000e+000	0.000000e+000	0.000000e+000	0.000000e+000
5801500150.015	0.000000e+000	0.000000e+000	2.793007e-001	-9.807158e-002	0.000000e+000	0.000000e+000	0.000000e+000	0.000000e+000
5801520152.015	0.000000e+000	0.000000e+000	2.783577e-001	-1.004726e-001	0.000000e+000	0.000000e+000	0.000000e+000	0.000000e+000
5801540154.015	0.000000e+000	0.000000e+000	2.773726e-001	-1.028870e-001	0.000000e+000	0.000000e+000	0.000000e+000	0.000000e+000
5801560156.016	0.000000e+000	0.000000e+000	2.763143e-001	-1.051370e-001	0.000000e+000	0.000000e+000	0.000000e+000	0.000000e+000
5801580158.016	0.000000e+000	0.000000e+000	2.753769e-001	-1.076371e-001	0.000000e+000	0.000000e+000	0.000000e+000	0.000000e+000
5801600160.016	0.000000e+000	0.000000e+000	2.744498e-001	-1.100836e-001	0.000000e+000	0.000000e+000	0.000000e+000	0.000000e+000
5801620162.016	0.000000e+000	0.000000e+000	2.732342e-001	-1.124601e-001	0.000000e+000	0.000000e+000	0.000000e+000	0.000000e+000
5801640164.016	0.000000e+000	0.000000e+000	2.722619e-001	-1.146821e-001	0.000000e+000	0.000000e+000	0.000000e+000	0.000000e+000
5801660166.017	0.000000e+000	0.000000e+000	2.710869e-001	-1.171120e-001	0.000000e+000	0.000000e+000	0.000000e+000	0.000000e+000
5801680168.017	0.000000e+000	0.000000e+000	2.699622e-001	-1.194729e-001	0.000000e+000	0.000000e+000	0.000000e+000	0.000000e+000
5801700170.017	0.000000e+000	0.000000e+000	2.688663e-001	-1.220091e-001	0.000000e+000	0.000000e+000	0.000000e+000	0.000000e+000
5801720172.017	0.000000e+000	0.000000e+000	2.675483e-001	-1.241839e-001	0.000000e+000	0.000000e+000	0.000000e+000	0.000000e+000
5801740174.017	0.000000e+000	0.000000e+000	2.663380e-001	-1.266554e-001	0.000000e+000	0.000000e+000	0.000000e+000	0.000000e+000
5801760176.018	0.000000e+000	0.000000e+000	2.651178e-001	-1.290318e-001	0.000000e+000	0.000000e+000	0.000000e+000	0.000000e+000
5801780178.018	0.000000e+000	0.000000e+000	2.639361e-001	-1.312591e-001	0.000000e+000	0.000000e+000	0.000000e+000	0.000000e+000
5801800180.018	0.000000e+000	0.000000e+000	2.626396e-001	-1.334933e-001	0.000000e+000	0.000000e+000	0.000000e+000	0.000000e+000
5801820182.018	0.000000e+000	0.000000e+000	2.613247e-001	-1.359049e-001	0.000000e+000	0.000000e+000	0.000000e+000	0.000000e+000
5801840184.018	0.000000e+000	0.000000e+000	2.600103e-001	-1.382948e-001	0.000000e+000	0.000000e+000	0.000000e+000	0.000000e+000
5801860186.019	0.000000e+000	0.000000e+000	2.585841e-001	-1.404730e-001	0.000000e+000	0.000000e+000	0.000000e+000	0.000000e+000
5801880188.019	0.000000e+000	0.000000e+000	2.571967e-001	-1.428814e-001	0.000000e+000	0.000000e+000	0.000000e+000	0.000000e+000
5801900190.019	0.000000e+000	0.000000e+000	2.557559e-001	-1.451811e-001	0.000000e+000	0.000000e+000	0.000000e+000	0.000000e+000
5801920192.019	0.000000e+000	0.000000e+000	2.542128e-001	-1.474826e-001	0.000000e+000	0.000000e+000	0.000000e+000	0.000000e+000
5801940194.019	0.000000e+000	0.000000e+000	2.526257e-001	-1.498610e-001	0.000000e+000	0.000000e+000	0.000000e+000	0.000000e+000
5801960196.020	0.000000e+000	0.000000e+000	2.510863e-001	-1.522096e-001	0.000000e+000	0.000000e+000	0.000000e+000	0.000000e+000
5801980198.020	0.000000e+000	0.000000e+000	2.495296e-001	-1.545110e-001	0.000000e+000	0.000000e+000	0.000000e+000	0.000000e+000
5802000200.020	0.000000e+000	0.000000e+000	2.479370e-001	-1.568209e-001	0.000000e+000	0.000000e+000	0.000000e+000	0.000000e+000
5802020202.020	0.000000e+000	0.000000e+000	2.462371e-001	-1.592150e-001	0.000000e+000	0.000000e+000	0.000000e+000	0.000000e+000
5802040204.020	0.000000e+000	0.000000e+000	2.443317e-001	-1.615365e-001	0.000000e+000	0.000000e+000	0.000000e+000	0.000000e+000
5802060206.021	0.000000e+000	0.000000e+000	2.427078e-001	-1.639203e-001	0.000000e+000	0.000000e+000	0.000000e+000	0.000000e+000
5802080208.021	0.000000e+000	0.000000e+000	2.407290e-001	-1.662748e-001	0.000000e+000	0.000000e+000	0.000000e+000	0.000000e+000
5802100210.021	0.000000e+000	0.000000e+000	2.387977e-001	-1.685895e-001	0.000000e+000	0.000000e+000	0.000000e+000	0.000000e+000
5802120212.021	0.000000e+000	0.000000e+000	2.368631e-001	-1.710438e-001	0.000000e+000	0.000000e+000	0.000000e+000	0.000000e+000
5802140214.021	0.000000e+000	0.000000e+000	2.347508e-001	-1.733824e-001	0.000000e+000	0.000000e+000	0.000000e+000	0.000000e+000
5802160216.022	0.000000e+000	0.000000e+000	2.326047e-001	-1.757335e-001	0.000000e+000	0.000000e+000	0.000000e+000	0.000000e+000
5802180218.022	0.000000e+000	0.000000e+000	2.303437e-001	-1.781514e-001	0.000000e+000	0.000000e+000	0.000000e+000	0.000000e+000
5802200220.022	0.000000e+000	0.000000e+000	2.280122e-001	-1.805553e-001	0.000000e+000	0.000000e+000	0.000000e+000	0.000000e+000
5802220222.022	0.000000e+000	0.000000e+000	2.255502e-001	-1.831893e-001	0.000000e+000	0.000000e+000	0.000000e+000	0.000000e+000
5802240224.022	0.000000e+000	0.000000e+000	2.229094e-001	-1.855871e-001	0.000000e+000	0.000000e+000	0.000000e+000	0.000000e+000
5802260226.023	0.000000e+000	0.000000e+000	2.200232e-001	-1.881936e-001	0.000000e+000	0.000000e+000	0.000000e+000	0.000000e+000
5802280228.023	0.000000e+000	0.000000e+000	2.170800e-001	-1.906682e-001	0.000000e+000	0.000000e+000	0.000000e+000	0.000000e+000
5802300230.023	0.000000e+000	0.000000e+000	2.138554e-001	-1.933211e-001	0.000000e+000	0.000000e+000	0.000000e+000	0.000000e+000
5802320232.023	0.000000e+000	0.000000e+000	2.104041e-001	-1.957724e-001	0.000000e+000	0.000000e+000	0.000000e+000	0.000000e+000
5802340234.023	0.000000e+000	0.000000e+000	2.065940e-001	-1.983646e-001	0.000000e+000	0.000000e+000	0.000000e+000	0.000000e+000
5802360236.024	0.000000e+000	0.000000e+000	2.024219e-001	-2.009530e-001	0.000000e+000	0.000000e+000	0.000000e+000	0.000000e+000
5802380238.024	0.000000e+000	0.000000e+000	1.977320e-001	-2.035004e-001	0.000000e+000	0.000000e+000	0.000000e+000	0.000000e+000
5802400240.024	0.000000e+000	0.000000e+000	1.925521e-001	-2.059615e-001	0.000000e+000	0.000000e+000	0.000000e+000	0.000000e+000
5802420242.024	0.000000e+000	0.000000e+000	1.864454e-001	-2.082269e-001	0.000000e+000	0.000000e+000	0.000000e+000	0.000000e+000
5802440244.024	0.000000e+000	0.000000e+000	1.793087e-001	-2.102404e-001	0.000000e+000	0.000000e+000	0.000000e+000	0.000000e+000
5802460246.025	0.000000e+000	0.000000e+000	1.708996e-001	-2.116481e-001	0.000000e+000	0.000000e+000	0.000000e+000	0.000000e+000
5802480248.025	0.000000e+000	0.000000e+000	1.607154e-001	-2.118540e-001	0.000000e+000	0.000000e+000	0.000000e+000	0.000000e+000
5802500250.025	0.000000e+000	0.000000e+000	1.477874e-001	-2.096353e-001	0.000000e+000	0.000000e+000	0.000000e+000	0.000000e+000
5802520252.025	0.000000e+000	0.000000e+000	1.318194e-001	-2.021035e-001	0.000000e+000	0.000000e+000	0.000000e+000	0.000000e+000
5802540254.025	0.000000e+000	0.000000e+000	1.153714e-001	-1.844628e-001	0.000000e+000	0.000000e+000	0.000000e+000	0.000000e+000
5802560256.026	0.000000e+000	0.000000e+000	1.067446e-001	-1.548254e-001	0.000000e+000	0.000000e+000	0.000000e+000	0.000000e+000
5802580258.026	0.000000e+000	0.000000e+000	1.148210e-001	-1.227159e-001	0.000000e+000	0.000000e+000	0.000000e+000	0.000000e+000
5802600260.026	0.000000e+000	0.000000e+000	1.359264e-001	-1.006700e-001	0.000000e+000	0.000000e+000	0.000000e+000	0.000000e+000
5802620262.026	0.000000e+000	0.000000e+000	1.603855e-001	-9.185826e-002	0.000000e+000	0.000000e+000	0.000000e+000	0.000000e+000
5802640264.026	0.000000e+000	0.000000e+000	1.822677e-001	-9.329727e-002	0.000000e+000	0.000000e+000	0.000000e+000	0.000000e+000
5802660266.027	0.000000e+000	0.000000e+000	1.994733e-001	-1.010126e-001	0.000000e+000	0.000000e+000	0.000000e+000	0.000000e+000
5802680268.027	0.000000e+000	0.000000e+000	2.115144e-001	-1.117999e-001	0.000000e+000	0.000000e+000	0.000000e+000	0.000000e+000
5802700270.027	0.000000e+000	0.000000e+000	2.191662e-001	-1.235262e-001	0.000000e+000	0.000000e+000	0.000000e+000	0.000000e+000
5802720272.027	0.000000e+000	0.000000e+000	2.233414e-001	-1.349850e-001	0.000000e+000	0.000000e+000	0.000000e+000	0.000000e+000
5802740274.027	0.000000e+000	0.000000e+000	2.250794e-001	-1.456308e-001	0.000000e+000	0.000000e+000	0.000000e+000	0.000000e+000
5802760276.028	0.000000e+000	0.000000e+000	2.252737e-001	-1.552558e-001	0.000000e+000	0.000000e+000	0.000000e+000	0.000000e+000
5802780278.028	0.000000e+000	0.000000e+000	2.243620e-001	-1.634157e-001	0.000000e+000	0.000000e+000	0.000000e+000	0.000000e+000
5802800280.028	0.000000e+000	0.000000e+000	2.225837e-001	-1.705836e-001	0.000000e+000	0.000000e+000	0.000000e+000	0.000000e+000
5802820282.028	0.000000e+000	0.000000e+000	2.203925e-001	-1.766955e-001	0.000000e+000	0.000000e+000	0.000000e+000	0.000000e+000
5802840284.028	0.000000e+000	0.000000e+000	2.180565e-001	-1.822690e-001	0.000000e+000	0.000000e+000	0.000000e+000	0.000000e+000
5802860286.029	0.000000e+000	0.000000e+000	2.156529e-001	-1.874073e-001	0.000000e+000	0.000000e+000	0.000000e+000	0.000000e+000
5802880288.029	0.000000e+000	0.000000e+000	2.132292e-001	-1.917377e-001	0.000000e+000	0.000000e+000	0.000000e+000	0.000000e+000
5802900290.029	0.000000e+000	0.000000e+000	2.107615e-001	-1.957016e-001	0.000000e+000	0.000000e+000	0.000000e+000	0.000000e+000
5802920292.029	0.000000e+000	0.000000e+000	2.081763e-001	-1.995277e-001	0.000000e+000	0.000000e+000	0.000000e+000	0.000000e+000
5802940294.029	0.000000e+000	0.000000e+000	2.057516e-001	-2.028593e-001	0.000000e+000	0.000000e+000	0.000000e+000	0.000000e+000
5802960296.030	0.000000e+000	0.000000e+000	2.032895e-001	-2.060325e-001	0.000000e+000	0.000000e+000	0.000000e+000	0.000000e+000
5802980298.030	0.000000e+000	0.000000e+000	2.008465e-001	-2.089668e-001	0.000000e+000	0.000000e+000	0.000000e+000	0.000000e+000
5803000300.030	0.000000e+000	0.000000e+000	1.984581e-001	-2.115992e-001	0.000000e+000	0.000000e+000	0.000000e+000	0.000000e+000
5803020302.030	0.000000e+000	0.000000e+000	1.960521e-001	-2.142838e-001	0.000000e+000	0.000000e+000	0.000000e+000	0.000000e+000
5803040304.030	0.000000e+000	0.000000e+000	1.936690e-001	-2.167996e-001	0.000000e+000	0.000000e+000	0.000000e+000	0.000000e+000
