"# Channel 1"
"# Trace 1"
Frequency, Formatted Data, Formatted Data
+4.60000000000E+009, -4.97329398767E-001, +8.93512833235E-002
+4.60002000200E+009, -5.00065863073E-001, +1.02959635072E-001
+4.60004000400E+009, -5.01319133173E-001, +1.14696191345E-001
+4.60006000600E+009, -5.01684941966E-001, +1.25088935714E-001
+4.60008000800E+009, -5.01474845131E-001, +1.34483461417E-001
+4.60010001000E+009, -5.00992807872E-001, +1.43019258821E-001
+4.60012001200E+009, -5.00145605187E-001, +1.51184265896E-001
+4.60014001400E+009, -4.98981444956E-001, +1.58425041506E-001
+4.60016001600E+009, -4.97670197474E-001, +1.65339408259E-001
+4.60018001800E+009, -4.96258397419E-001, +1.71907562373E-001
+4.60020002000E+009, -4.94753166566E-001, +1.78084585858E-001
+4.60022002200E+009, -4.93167482579E-001, +1.84108442998E-001
+4.60024002400E+009, -4.91490459708E-001, +1.89792138817E-001
+4.60026002600E+009, -4.89771241928E-001, +1.95553680930E-001
+4.60028002800E+009, -4.87979791180E-001, +2.00802923153E-001
+4.60030003000E+009, -4.86147235306E-001, +2.06046841993E-001
+4.60032003200E+009, -4.84274701001E-001, +2.11189659250E-001
+4.60034003400E+009, -4.82366314207E-001, +2.16058608984E-001
+4.60036003600E+009, -4.80279238531E-001, +2.20919994493E-001
+4.60038003800E+009, -4.78344098587E-001, +2.25699839618E-001
+4.60040004000E+009, -4.76365558125E-001, +2.30408050879E-001
+4.60042004200E+009, -4.74272087024E-001, +2.35007904570E-001
+4.60044004400E+009, -4.72155875002E-001, +2.39514769369E-001
+4.60046004600E+009, -4.69967489764E-001, +2.43912951940E-001
+4.60048004800E+009, -4.67865335203E-001, +2.48312188127E-001
+4.60050005001E+009, -4.65497216018E-001, +2.52505217410E-001
+4.60052005201E+009, -4.63429811447E-001, +2.56816618204E-001
+4.60054005401E+009, -4.61204183159E-001, +2.61126400722E-001
+4.60056005601E+009, -4.58887786126E-001, +2.65273137064E-001
+4.60058005801E+009, -4.56669624825E-001, +2.69299558273E-001
+4.60060006001E+009, -4.54317772403E-001, +2.73341481835E-001
+4.60062006201E+009, -4.51835741613E-001, +2.77328708278E-001
+4.60064006401E+009, -4.49487558688E-001, +2.81394546672E-001
+4.60066006601E+009, -4.47048911063E-001, +2.85379005513E-001
+4.60068006801E+009, -4.44541935463E-001, +2.89318580106E-001
+4.60070007001E+009, -4.42148381148E-001, +2.93060578978E-001
+4.60072007201E+009, -4.39615568134E-001, +2.96902469836E-001
+4.60074007401E+009, -4.37057921972E-001, +3.00585255818E-001
+4.60076007601E+009, -4.34499334097E-001, +3.04338380035E-001
+4.60078007801E+009, -4.31927198973E-001, +3.08169075226E-001
+4.60080008001E+009, -4.29292781545E-001, +3.11958456261E-001
+4.60082008201E+009, -4.26540051123E-001, +3.15598087465E-001
+4.60084008401E+009, -4.23911909151E-001, +3.19210130568E-001
+4.60086008601E+009, -4.21187339969E-001, +3.22777079051E-001
+4.60088008801E+009, -4.18390211891E-001, +3.26345450632E-001
+4.60090009001E+009, -4.15712459718E-001, +3.29862681949E-001
+4.60092009201E+009, -4.12865200152E-001, +3.33391808321E-001
+4.60094009401E+009, -4.10132150142E-001, +3.36870420454E-001
+4.60096009601E+009, -4.07194691281E-001, +3.40382443388E-001
+4.60098009801E+009, -4.04333156600E-001, +3.43799254352E-001
+4.60100010001E+009, -4.01512303659E-001, +3.47137493419E-001
+4.60102010201E+009, -3.98467550149E-001, +3.50685451936E-001
+4.60104010401E+009, -3.95530812320E-001, +3.53929385627E-001
+4.60106010601E+009, -3.92614373014E-001, +3.57248841361E-001
+4.60108010801E+009, -3.89490671148E-001, +3.60556830851E-001
+4.60110011001E+009, -3.86499274409E-001, +3.63883986322E-001
+4.60112011201E+009, -3.83391886957E-001, +3.67015251982E-001
+4.60114011401E+009, -3.80328892335E-001, +3.70303031908E-001
+4.60116011601E+009, -3.77102261123E-001, +3.73595145444E-001
+4.60118011801E+009, -3.73998281522E-001, +3.76798734128E-001
+4.60120012001E+009, -3.70793859164E-001, +3.79858761001E-001
+4.60122012201E+009, -3.67558082622E-001, +3.83044131564E-001
+4.60124012401E+009, -3.64170144663E-001, +3.86128100938E-001
+4.60126012601E+009, -3.60919962626E-001, +3.89219225049E-001
+4.60128012801E+009, -3.57532692873E-001, +3.92319960458E-001
+4.60130013001E+009, -3.54144424689E-001, +3.95392629084E-001
+4.60132013201E+009, -3.50714139021E-001, +3.98504810512E-001
+4.60134013401E+009, -3.47319784754E-001, +4.01470220819E-001
+4.60136013601E+009, -3.43775342976E-001, +4.04413640968E-001
+4.60138013801E+009, -3.40332767868E-001, +4.07342687339E-001
+4.60140014001E+009, -3.36586248906E-001, +4.10406639873E-001
+4.60142014201E+009, -3.33112330567E-001, +4.13211165547E-001
+4.60144014401E+009, -3.29428371468E-001, +4.16157367188E-001
+4.60146014601E+009, -3.25701172575E-001, +4.19095668334E-001
+4.60148014801E+009, -3.21977992129E-001, +4.21904855932E-001
+4.60150015002E+009, -3.18145794042E-001, +4.24619014347E-001
+4.60152015202E+009, -3.14275113502E-001, +4.27417717283E-001
+4.60154015402E+009, -3.10402645937E-001, +4.30384827851E-001
+4.60156015602E+009, -3.06437210400E-001, +4.33189465059E-001
+4.60158015802E+009, -3.02450691465E-001, +4.35898938468E-001
+4.60160016002E+009, -2.98330827171E-001, +4.38703514934E-001
+4.60162016202E+009, -2.94076671615E-001, +4.41495448203E-001
+4.60164016402E+009, -2.89936878537E-001, +4.44098953409E-001
+4.60166016602E+009, -2.85658066055E-001, +4.46912670893E-001
+4.60168016802E+009, -2.81234099560E-001, +4.49534053974E-001
+4.60170017002E+009, -2.76779738251E-001, +4.52309313988E-001
+4.60172017202E+009, -2.72138962699E-001, +4.54896940378E-001
+4.60174017402E+009, -2.67629883806E-001, +4.57555384627E-001
+4.60176017602E+009, -2.62581549061E-001, +4.60091237738E-001
+4.60178017802E+009, -2.57665986224E-001, +4.62831726559E-001
+4.60180018002E+009, -2.52592449624E-001, +4.65358097078E-001
+4.60182018202E+009, -2.47248729958E-001, +4.67988145644E-001
+4.60184018402E+009, -2.41764765347E-001, +4.70699950951E-001
+4.60186018602E+009, -2.35866866055E-001, +4.73264467468E-001
+4.60188018802E+009, -2.30007562832E-001, +4.75684369980E-001
+4.60190019002E+009, -2.23646202965E-001, +4.78264338725E-001
+4.60192019202E+009, -2.17000000702E-001, +4.80677216836E-001
+4.60194019402E+009, -2.09721519721E-001, +4.83119730597E-001
+4.60196019602E+009, -2.02025957513E-001, +4.85594102720E-001
+4.60198019802E+009, -1.93758156640E-001, +4.87741840260E-001
+4.60200020002E+009, -1.84491416687E-001, +4.89759000491E-001
+4.60202020202E+009, -1.74370288827E-001, +4.91458875591E-001
+4.60204020402E+009, -1.63044939039E-001, +4.92790136140E-001
+4.60206020602E+009, -1.49662934442E-001, +4.93274751952E-001
+4.60208020802E+009, -1.34249776100E-001, +4.92495152352E-001
+4.60210021002E+009, -1.15796560076E-001, +4.89529248027E-001
+4.60212021202E+009, -9.35286099629E-002, +4.82254935926E-001
+4.60214021402E+009, -6.59447115303E-002, +4.66507352185E-001
+4.60216021602E+009, -3.57044116748E-002, +4.33353208625E-001
+4.60218021802E+009, -1.66222668868E-002, +3.71548295137E-001
+4.60220022002E+009, -4.07282726760E-002, +2.93021127238E-001
+4.60222022202E+009, -1.09648883129E-001, +2.45243323081E-001
+4.60224022402E+009, -1.82381241433E-001, +2.47279854379E-001
+4.60226022602E+009, -2.30414959248E-001, +2.78242002976E-001
+4.60228022802E+009, -2.54511805507E-001, +3.15708221302E-001
+4.60230023002E+009, -2.62669242322E-001, +3.49472222008E-001
+4.60232023202E+009, -2.62112342643E-001, +3.77408031650E-001
+4.60234023402E+009, -2.56960405802E-001, +3.99350655382E-001
+4.60236023602E+009, -2.49988451986E-001, +4.16764840050E-001
+4.60238023802E+009, -2.42286162270E-001, +4.30299813355E-001
+4.60240024002E+009, -2.34506243144E-001, +4.41191809603E-001
+4.60242024202E+009, -2.26825884295E-001, +4.50237777049E-001
+4.60244024402E+009, -2.19425764151E-001, +4.57665103927E-001
+4.60246024602E+009, -2.12284807255E-001, +4.63959247398E-001
+4.60248024802E+009, -2.05485154948E-001, +4.69442876638E-001
+4.60250025003E+009, -1.98903458523E-001, +4.74305410123E-001
+4.60252025203E+009, -1.92695270058E-001, +4.78411226195E-001
+4.60254025403E+009, -1.86575831604E-001, +4.82111419060E-001
+4.60256025603E+009, -1.80626318940E-001, +4.85524199184E-001
+4.60258025803E+009, -1.74938223351E-001, +4.88593542774E-001
+4.60260026003E+009, -1.69258751163E-001, +4.91351813037E-001
+4.60262026203E+009, -1.63817798973E-001, +4.93906412684E-001
+4.60264026403E+009, -1.58390848589E-001, +4.96320026812E-001
+4.60266026603E+009, -1.53066113319E-001, +4.98556383024E-001
+4.60268026803E+009, -1.47908539463E-001, +5.00513425828E-001
+4.60270027003E+009, -1.42817811384E-001, +5.02335988071E-001
+4.60272027203E+009, -1.37652568795E-001, +5.04170215663E-001
+4.60274027403E+009, -1.32613727024E-001, +5.05848804783E-001
+4.60276027603E+009, -1.27738758113E-001, +5.07479728407E-001
+4.60278027803E+009, -1.22764281894E-001, +5.08923007693E-001
+4.60280028003E+009, -1.17883012301E-001, +5.10368795427E-001
+4.60282028203E+009, -1.13070662920E-001, +5.11637819866E-001
+4.60284028403E+009, -1.08381172121E-001, +5.12830510168E-001
+4.60286028603E+009, -1.03631569032E-001, +5.13976130612E-001
+4.60288028803E+009, -9.90196214598E-002, +5.15134172192E-001
+4.60290029003E+009, -9.42024805213E-002, +5.16076863068E-001
+4.60292029203E+009, -8.94720364079E-002, +5.17097837110E-001
+4.60294029403E+009, -8.49152908738E-002, +5.18089892312E-001
+4.60296029603E+009, -8.02977800210E-002, +5.18817787121E-001
+4.60298029803E+009, -7.56130160905E-002, +5.19605581293E-001
+4.60300030003E+009, -7.10823351360E-002, +5.20390511088E-001
+4.60302030203E+009, -6.64435278580E-002, +5.21241537570E-001
+4.60304030403E+009, -6.18702999250E-002, +5.21815716551E-001
+4.60306030603E+009, -5.73555047201E-002, +5.22347940815E-001
+4.60308030803E+009, -5.28766238752E-002, +5.22867431987E-001
+4.60310031003E+009, -4.83602225413E-002, +5.23354021909E-001
+4.60312031203E+009, -4.37741333254E-002, +5.23899578453E-001
+4.60314031403E+009, -3.92301298084E-002, +5.24258783794E-001
+4.60316031603E+009, -3.47464527868E-002, +5.24674511807E-001
+4.60318031803E+009, -3.02866004372E-002, +5.25021896062E-001
+4.60320032003E+009, -2.58181114027E-002, +5.25237961203E-001
+4.60322032203E+009, -2.12478389748E-002, +5.25487674872E-001
+4.60324032403E+009, -1.67993291344E-002, +5.25619083924E-001
+4.60326032603E+009, -1.22937953917E-002, +5.25824058070E-001
+4.60328032803E+009, -7.84412931110E-003, +5.26044132774E-001
+4.60330033003E+009, -3.27295652908E-003, +5.26002231031E-001
+4.60332033203E+009, +1.04806367638E-003, +5.26049790288E-001
+4.60334033403E+009, +5.53444904244E-003, +5.26026793410E-001
+4.60336033603E+009, +9.97229935311E-003, +5.26038027775E-001
+4.60338033803E+009, +1.44088874165E-002, +5.25910242016E-001
+4.60340034003E+009, +1.88184869667E-002, +5.25829431922E-001
+4.60342034203E+009, +2.33002410606E-002, +5.25704043734E-001
+4.60344034403E+009, +2.76939918086E-002, +5.25416255842E-001
+4.60346034603E+009, +3.20759302844E-002, +5.25186812051E-001
+4.60348034803E+009, +3.64920664940E-002, +5.24784295001E-001
+4.60350035004E+009, +4.08769150263E-002, +5.24654118284E-001
+4.60352035204E+009, +4.53707227949E-002, +5.24278711048E-001
+4.60354035404E+009, +4.98668714483E-002, +5.23972746299E-001
+4.60356035604E+009, +5.42852860727E-002, +5.23410747756E-001
+4.60358035804E+009, +5.86016083412E-002, +5.22943882122E-001
+4.60360036004E+009, +6.29003731447E-002, +5.22388014637E-001
+4.60362036204E+009, +6.73424229585E-002, +5.21795299573E-001
+4.60364036404E+009, +7.17384022027E-002, +5.21153842436E-001
+4.60366036604E+009, +7.62384216148E-002, +5.20432028955E-001
+4.60368036804E+009, +8.06646093807E-002, +5.19961645728E-001
+4.60370037004E+009, +8.51855840815E-002, +5.19119849241E-001
+4.60372037204E+009, +8.94475413434E-002, +5.18446604600E-001
+4.60374037404E+009, +9.38223723393E-002, +5.17587618223E-001
+4.60376037604E+009, +9.82703907300E-002, +5.16784301892E-001
+4.60378037804E+009, +1.02637135225E-001, +5.15844815791E-001
+4.60380038004E+009, +1.07194840766E-001, +5.15001305408E-001
+4.60382038204E+009, +1.11632085925E-001, +5.14045540103E-001
+4.60384038404E+009, +1.16044555904E-001, +5.13106868422E-001
+4.60386038604E+009, +1.20321456253E-001, +5.11935216433E-001
+4.60388038804E+009, +1.24754699977E-001, +5.10926933194E-001
+4.60390039004E+009, +1.29212130171E-001, +5.09793393011E-001
+4.60392039204E+009, +1.33624811707E-001, +5.08554600057E-001
+4.60394039404E+009, +1.38053117460E-001, +5.07350562181E-001
+4.60396039604E+009, +1.42397080010E-001, +5.06145398864E-001
+4.60398039804E+009, +1.46871788135E-001, +5.04735188026E-001
+4.60400040004E+009, +1.51299983275E-001, +5.03451902343E-001
+4.60402040204E+009, +1.55683470008E-001, +5.01883346388E-001
+4.60404040404E+009, +1.60281124393E-001, +5.00438675611E-001
+4.60406040604E+009, +1.64743926634E-001, +4.98956754165E-001
+4.60408040804E+009, +1.69159949343E-001, +4.97342497999E-001
+4.60410041004E+009, +1.73658728088E-001, +4.95811955370E-001
+4.60412041204E+009, +1.78173824627E-001, +4.93988141837E-001
+4.60414041404E+009, +1.82782780530E-001, +4.92339839626E-001
+4.60416041604E+009, +1.87251800265E-001, +4.90468137820E-001
+4.60418041804E+009, +1.91726740490E-001, +4.88602559680E-001
+4.60420042004E+009, +1.96367881155E-001, +4.86734976971E-001
+4.60422042204E+009, +2.01059251379E-001, +4.84710457190E-001
+4.60424042404E+009, +2.05616297898E-001, +4.82668226642E-001
+4.60426042604E+009, +2.10227199584E-001, +4.80462530216E-001
+4.60428042804E+009, +2.14992196591E-001, +4.78165785773E-001
+4.60430043004E+009, +2.19731648929E-001, +4.75802442182E-001
+4.60432043204E+009, +2.24401124321E-001, +4.73435328337E-001
+4.60434043404E+009, +2.29245260440E-001, +4.70808343187E-001
+4.60436043604E+009, +2.34116249989E-001, +4.68173786154E-001
+4.60438043804E+009, +2.38996935195E-001, +4.65257456404E-001
+4.60440044004E+009, +2.43971483124E-001, +4.62384288048E-001
+4.60442044204E+009, +2.48989678624E-001, +4.59519437856E-001
+4.60444044404E+009, +2.54157587429E-001, +4.56062378937E-001
+4.60446044604E+009, +2.59286005339E-001, +4.52627643124E-001
+4.60448044804E+009, +2.64454598184E-001, +4.49017021566E-001
+4.60450045005E+009, +2.69901435151E-001, +4.45097874355E-001
+4.60452045205E+009, +2.75474424400E-001, +4.40821058099E-001
+4.60454045405E+009, +2.81048770015E-001, +4.36167678282E-001
+4.60456045605E+009, +2.86842891758E-001, +4.31260203237E-001
+4.60458045805E+009, +2.92845568345E-001, +4.25854545635E-001
+4.60460046005E+009, +2.99071731635E-001, +4.19710123931E-001
+4.60462046205E+009, +3.05351454698E-001, +4.12942747100E-001
+4.60464046405E+009, +3.11780177365E-001, +4.05277799759E-001
+4.60466046605E+009, +3.18403876600E-001, +3.96473910911E-001
+4.60468046805E+009, +3.25215948593E-001, +3.86197452465E-001
+4.60470047005E+009, +3.32076906549E-001, +3.73891386998E-001
+4.60472047205E+009, +3.38686187255E-001, +3.59104376455E-001
+4.60474047405E+009, +3.44645592370E-001, +3.40494576245E-001
+4.60476047605E+009, +3.48411353504E-001, +3.16842567922E-001
+4.60478047805E+009, +3.47662396910E-001, +2.86148388901E-001
+4.60480048005E+009, +3.36138673597E-001, +2.46418479860E-001
+4.60482048205E+009, +3.00355695116E-001, +1.99170624343E-001
+4.60484048405E+009, +2.27461877162E-001, +1.66755521002E-001
+4.60486048605E+009, +1.40572592145E-001, +1.82824501704E-001
+4.60488048805E+009, +8.44284281413E-002, +2.38365835021E-001
+4.60490049005E+009, +6.70949728799E-002, +3.00797826502E-001
+4.60492049205E+009, +7.57858417865E-002, +3.53338003179E-001
+4.60494049405E+009, +9.77819485819E-002, +3.91647125999E-001
+4.60496049605E+009, +1.23967057435E-001, +4.16375173574E-001
+4.60498049805E+009, +1.49728809594E-001, +4.31278553240E-001
+4.60500050005E+009, +1.73022236891E-001, +4.39332114360E-001
+4.60502050205E+009, +1.92796139273E-001, +4.42977152456E-001
+4.60504050405E+009, +2.10293943412E-001, +4.44027239319E-001
+4.60506050605E+009, +2.25182293728E-001, +4.43346688605E-001
+4.60508050805E+009, +2.38231015150E-001, +4.41700822041E-001
+4.60510051005E+009, +2.49848398461E-001, +4.39424986416E-001
+4.60512051205E+009, +2.60111965893E-001, +4.36668079636E-001
+4.60514051405E+009, +2.69372875429E-001, +4.33580002489E-001
+4.60516051605E+009, +2.77864397972E-001, +4.30397346945E-001
+4.60518051805E+009, +2.85519000465E-001, +4.27054442101E-001
+4.60520052005E+009, +2.92702580764E-001, +4.23711834538E-001
+4.60522052205E+009, +2.99455580783E-001, +4.20213135329E-001
+4.60524052405E+009, +3.05804290359E-001, +4.16823757477E-001
+4.60526052605E+009, +3.11691557615E-001, +4.13285401401E-001
+4.60528052805E+009, +3.17269044569E-001, +4.09771334622E-001
+4.60530053005E+009, +3.22577173119E-001, +4.06371349306E-001
+4.60532053205E+009, +3.27723494454E-001, +4.02805804548E-001
+4.60534053405E+009, +3.32662930283E-001, +3.99231618543E-001
+4.60536053605E+009, +3.37551559674E-001, +3.95780112120E-001
+4.60538053805E+009, +3.42043911839E-001, +3.92151401548E-001
+4.60540054005E+009, +3.46584322760E-001, +3.88665103167E-001
+4.60542054205E+009, +3.50797914126E-001, +3.85159395694E-001
+4.60544054405E+009, +3.54936613430E-001, +3.81535650579E-001
+4.60546054605E+009, +3.58860327682E-001, +3.77990740889E-001
+4.60548054805E+009, +3.62976824019E-001, +3.74325538056E-001
+4.60550055006E+009, +3.66851070544E-001, +3.70864285005E-001
+4.60552055206E+009, +3.70663741792E-001, +3.67200391106E-001
+4.60554055406E+009, +3.74276230502E-001, +3.63707132130E-001
+4.60556055606E+009, +3.77875259767E-001, +3.59996693766E-001
+4.60558055806E+009, +3.81350139027E-001, +3.56227299231E-001
+4.60560056006E+009, +3.84965637544E-001, +3.52781239043E-001
+4.60562056206E+009, +3.88266360761E-001, +3.49099676734E-001
+4.60564056406E+009, +3.91656376473E-001, +3.45474257330E-001
+4.60566056606E+009, +3.94895303723E-001, +3.41691986691E-001
+4.60568056806E+009, +3.98002602232E-001, +3.37862509153E-001
+4.60570057006E+009, +4.01235574542E-001, +3.34138557999E-001
+4.60572057206E+009, +4.04210642061E-001, +3.30596183685E-001
+4.60574057406E+009, +4.07321568148E-001, +3.26775632378E-001
+4.60576057606E+009, +4.10353863763E-001, +3.22864645169E-001
+4.60578057806E+009, +4.13291227601E-001, +3.19002380195E-001
+4.60580058006E+009, +4.16281258544E-001, +3.15315954857E-001
+4.60582058206E+009, +4.19126871552E-001, +3.11344383102E-001
+4.60584058406E+009, +4.21927934038E-001, +3.07542086346E-001
+4.60586058606E+009, +4.24522935777E-001, +3.03576881174E-001
+4.60588058806E+009, +4.27336698087E-001, +2.99646515337E-001
+4.60590059006E+009, +4.30195544296E-001, +2.95734511678E-001
+4.60592059206E+009, +4.32798971144E-001, +2.91654282520E-001
+4.60594059406E+009, +4.35396795239E-001, +2.87689377884E-001
+4.60596059606E+009, +4.37919120913E-001, +2.83668801552E-001
+4.60598059806E+009, +4.40327765164E-001, +2.79615056081E-001
+4.60600060006E+009, +4.42831354988E-001, +2.75470700947E-001
+4.60602060206E+009, +4.45330788923E-001, +2.71299916300E-001
+4.60604060406E+009, +4.47575289813E-001, +2.67216490667E-001
+4.60606060606E+009, +4.49969068691E-001, +2.63074530061E-001
+4.60608060806E+009, +4.52239752517E-001, +2.58675510134E-001
+4.60610061006E+009, +4.54422959947E-001, +2.54394004593E-001
+4.60612061206E+009, +4.56678507244E-001, +2.50069772284E-001
+4.60614061406E+009, +4.58852315647E-001, +2.45680680956E-001
+4.60616061606E+009, +4.60979839258E-001, +2.41326200157E-001
+4.60618061806E+009, +4.63077883957E-001, +2.36921975204E-001
+4.60620062006E+009, +4.65045033462E-001, +2.32342074271E-001
+4.60622062206E+009, +4.67117594264E-001, +2.27851858635E-001
+4.60624062406E+009, +4.68994739933E-001, +2.23240017555E-001
+4.60626062606E+009, +4.70931836783E-001, +2.18673084386E-001
+4.60628062806E+009, +4.72726229101E-001, +2.13963518795E-001
+4.60630063006E+009, +4.74519296150E-001, +2.09195536026E-001
