"# Channel 1"
"# Trace 1"
Frequency, Formatted Data, Formatted Data
+5.60000000000E+009, +2.48462656053E-002, -2.67039074660E-001
+5.60002000200E+009, +1.55050658751E-002, -2.62752039372E-001
+5.60004000400E+009, +5.14598367951E-003, -2.55197533385E-001
+5.60006000600E+009, -6.15131541443E-003, -2.41569628402E-001
+5.60008000800E+009, -1.45666389377E-002, -2.17507972493E-001
+5.60010001000E+009, -9.55375878362E-003, -1.83658210341E-001
+5.60012001200E+009, +1.33843111946E-002, -1.55454238991E-001
+5.60014001400E+009, +4.19964549875E-002, -1.44268660446E-001
+5.60016001600E+009, +6.76411075470E-002, -1.45936265165E-001
+5.60018001800E+009, +8.67775393702E-002, -1.55067501544E-001
+5.60020002000E+009, +1.00005295554E-001, -1.67942778812E-001
+5.60022002200E+009, +1.07786877158E-001, -1.81774596085E-001
+5.60024002400E+009, +1.11462780843E-001, -1.95386159150E-001
+5.60026002600E+009, +1.11948634642E-001, -2.07812439253E-001
+5.60028002800E+009, +1.10152725747E-001, -2.19069856877E-001
+5.60030003000E+009, +1.07175232184E-001, -2.28575538056E-001
+5.60032003200E+009, +1.03251136761E-001, -2.36917257413E-001
+5.60034003400E+009, +9.86224698177E-002, -2.43815655399E-001
+5.60036003600E+009, +9.40226826234E-002, -2.49777744852E-001
+5.60038003800E+009, +8.92613019082E-002, -2.54697083476E-001
+5.60040004000E+009, +8.45030358770E-002, -2.58939858094E-001
+5.60042004200E+009, +7.99572175158E-002, -2.62410738210E-001
+5.60044004400E+009, +7.55555459997E-002, -2.65532340709E-001
+5.60046004600E+009, +7.12374539018E-002, -2.68174202711E-001
+5.60048004800E+009, +6.71082698725E-002, -2.70520500996E-001
+5.60050005001E+009, +6.30174250021E-002, -2.72594131511E-001
+5.60052005201E+009, +5.90197516786E-002, -2.74332862524E-001
+5.60054005401E+009, +5.52557475172E-002, -2.76080319040E-001
+5.60056005601E+009, +5.14921704085E-002, -2.77517212178E-001
+5.60058005801E+009, +4.78704180744E-002, -2.78966053012E-001
+5.60060006001E+009, +4.43335607512E-002, -2.80094293277E-001
+5.60062006201E+009, +4.05890113901E-002, -2.81303543501E-001
+5.60064006401E+009, +3.73186450258E-002, -2.82203601589E-001
+5.60066006601E+009, +3.37623669399E-002, -2.83099704548E-001
+5.60068006801E+009, +3.04434762937E-002, -2.83883755379E-001
+5.60070007001E+009, +2.71437697573E-002, -2.84771131859E-001
+5.60072007201E+009, +2.37581169686E-002, -2.85452379384E-001
+5.60074007401E+009, +2.04596184482E-002, -2.86093996665E-001
+5.60076007601E+009, +1.71214965386E-002, -2.86668707950E-001
+5.60078007801E+009, +1.38257053018E-002, -2.87294397437E-001
+5.60080008001E+009, +1.05831209979E-002, -2.87897813287E-001
+5.60082008201E+009, +7.23069299556E-003, -2.88172053591E-001
+5.60084008401E+009, +4.00660584317E-003, -2.88701805751E-001
+5.60086008601E+009, +6.46372261276E-004, -2.89105796322E-001
+5.60088008801E+009, -2.52707567650E-003, -2.89552603941E-001
+5.60090009001E+009, -5.85700177191E-003, -2.89706955702E-001
+5.60092009201E+009, -9.24006910703E-003, -2.90059313675E-001
+5.60094009401E+009, -1.27057336299E-002, -2.90291619034E-001
+5.60096009601E+009, -1.61009678726E-002, -2.90414569133E-001
+5.60098009801E+009, -1.93683979612E-002, -2.90705223829E-001
+5.60100010001E+009, -2.28265701296E-002, -2.90734237372E-001
+5.60102010201E+009, -2.64400816691E-002, -2.90947759134E-001
+5.60104010401E+009, -2.99042910902E-002, -2.90855111832E-001
+5.60106010601E+009, -3.34284252008E-002, -2.90889960755E-001
+5.60108010801E+009, -3.71915531210E-002, -2.90770930902E-001
+5.60110011001E+009, -4.08690369108E-002, -2.90629080857E-001
+5.60112011201E+009, -4.48599078648E-002, -2.90547538177E-001
+5.60114011401E+009, -4.86709394043E-002, -2.90260966870E-001
+5.60116011601E+009, -5.27679011507E-002, -2.90133524382E-001
+5.60118011801E+009, -5.69171627807E-002, -2.89676704889E-001
+5.60120012001E+009, -6.12116558891E-002, -2.89131740521E-001
+5.60122012201E+009, -6.57318225280E-002, -2.88775732336E-001
+5.60124012401E+009, -7.03566723502E-002, -2.88087841349E-001
+5.60126012601E+009, -7.51787964484E-002, -2.87243889738E-001
+5.60128012801E+009, -8.03186479620E-002, -2.86284530174E-001
+5.60130013001E+009, -8.55895348704E-002, -2.85143358908E-001
+5.60132013201E+009, -9.12543253428E-002, -2.83756073201E-001
+5.60134013401E+009, -9.73669008799E-002, -2.82060227131E-001
+5.60136013601E+009, -1.03940077448E-001, -2.79847915176E-001
+5.60138013801E+009, -1.10944754935E-001, -2.77005416557E-001
+5.60140014001E+009, -1.18796680816E-001, -2.73550174965E-001
+5.60142014201E+009, -1.27068501742E-001, -2.69002189443E-001
+5.60144014401E+009, -1.36162041443E-001, -2.62816848954E-001
+5.60146014601E+009, -1.46303111527E-001, -2.54152321441E-001
+5.60148014801E+009, -1.56872380406E-001, -2.41750736413E-001
+5.60150015002E+009, -1.67082349605E-001, -2.22843050349E-001
+5.60152015202E+009, -1.72823639174E-001, -1.93791818482E-001
+5.60154015402E+009, -1.64777852747E-001, -1.56592741506E-001
+5.60156015602E+009, -1.37996619854E-001, -1.23405973070E-001
+5.60158015802E+009, -1.01045512315E-001, -1.07343367166E-001
+5.60160016002E+009, -6.74128996633E-002, -1.08015042876E-001
+5.60162016202E+009, -4.16325019177E-002, -1.18710833819E-001
+5.60164016402E+009, -2.38587804136E-002, -1.34469713526E-001
+5.60166016602E+009, -1.32361444642E-002, -1.51852406812E-001
+5.60168016802E+009, -8.15596060371E-003, -1.68940194645E-001
+5.60170017002E+009, -7.38632487039E-003, -1.84004121676E-001
+5.60172017202E+009, -9.24503751326E-003, -1.97580414841E-001
+5.60174017402E+009, -1.32334704543E-002, -2.09074152382E-001
+5.60176017602E+009, -1.83867185053E-002, -2.18755442302E-001
+5.60178017802E+009, -2.43407804648E-002, -2.26739138043E-001
+5.60180018002E+009, -3.03204253300E-002, -2.33260433811E-001
+5.60182018202E+009, -3.65088147806E-002, -2.38374927598E-001
+5.60184018402E+009, -4.26593773286E-002, -2.42524841130E-001
+5.60186018602E+009, -4.85699401961E-002, -2.45788926439E-001
+5.60188018802E+009, -5.43685206116E-002, -2.48510477345E-001
+5.60190019002E+009, -5.99198641124E-002, -2.50764020921E-001
+5.60192019202E+009, -6.53893314856E-002, -2.52406221670E-001
+5.60194019402E+009, -7.04553902368E-002, -2.53751261217E-001
+5.60196019602E+009, -7.54058186415E-002, -2.54637329059E-001
+5.60198019802E+009, -8.03994759942E-002, -2.55458383739E-001
+5.60200020002E+009, -8.51943838717E-002, -2.55988994166E-001
+5.60202020202E+009, -9.00327422383E-002, -2.56177747678E-001
+5.60204020402E+009, -9.45537632830E-002, -2.56343272210E-001
+5.60206020602E+009, -9.93639573308E-002, -2.56128517798E-001
+5.60208020802E+009, -1.03809618802E-001, -2.55969520660E-001
+5.60210021002E+009, -1.08285134123E-001, -2.55814988389E-001
+5.60212021202E+009, -1.12841341934E-001, -2.55196670429E-001
+5.60214021402E+009, -1.17374835933E-001, -2.54693371225E-001
+5.60216021602E+009, -1.22157856232E-001, -2.53984074268E-001
+5.60218021802E+009, -1.26923072968E-001, -2.53123668428E-001
+5.60220022002E+009, -1.31639884503E-001, -2.52142266486E-001
+5.60222022202E+009, -1.36536176086E-001, -2.50956926541E-001
+5.60224022402E+009, -1.41640553221E-001, -2.49547112111E-001
+5.60226022602E+009, -1.46928547652E-001, -2.48025962317E-001
+5.60228022802E+009, -1.52416670984E-001, -2.46216321807E-001
+5.60230023002E+009, -1.58591922027E-001, -2.44090511758E-001
+5.60232023202E+009, -1.64812734710E-001, -2.41596922284E-001
+5.60234023402E+009, -1.71465877558E-001, -2.38467301305E-001
+5.60236023602E+009, -1.78940610376E-001, -2.34812053401E-001
+5.60238023802E+009, -1.86872255399E-001, -2.29968571557E-001
+5.60240024002E+009, -1.95661122549E-001, -2.23768705020E-001
+5.60242024202E+009, -2.05460768896E-001, -2.15388975140E-001
+5.60244024402E+009, -2.16271217084E-001, -2.03263992912E-001
+5.60246024602E+009, -2.27078176448E-001, -1.84103625347E-001
+5.60248024802E+009, -2.33627764537E-001, -1.53198638473E-001
+5.60250025003E+009, -2.22454706493E-001, -1.09078558060E-001
+5.60252025203E+009, -1.84119363718E-001, -7.27603963253E-002
+5.60254025403E+009, -1.37467345247E-001, -6.34028517510E-002
+5.60256025603E+009, -1.00620939487E-001, -7.43854891253E-002
+5.60258025803E+009, -7.69065589973E-002, -9.48096438906E-002
+5.60260026003E+009, -6.46437071849E-002, -1.17153175551E-001
+5.60262026203E+009, -6.07436592127E-002, -1.37830349316E-001
+5.60264026403E+009, -6.22242373939E-002, -1.55660194081E-001
+5.60266026603E+009, -6.71560160188E-002, -1.70080205706E-001
+5.60268026803E+009, -7.36580865367E-002, -1.81288902550E-001
+5.60270027003E+009, -8.10954034606E-002, -1.89884211514E-001
+5.60272027203E+009, -8.84440393369E-002, -1.96445093167E-001
+5.60274027403E+009, -9.57761130441E-002, -2.01284105301E-001
+5.60276027603E+009, -1.02513191986E-001, -2.04747207841E-001
+5.60278027803E+009, -1.09001468830E-001, -2.07319526099E-001
+5.60280028003E+009, -1.14966814412E-001, -2.09014418973E-001
+5.60282028203E+009, -1.20319199371E-001, -2.10039232955E-001
+5.60284028403E+009, -1.25450778792E-001, -2.10710483840E-001
+5.60286028603E+009, -1.30298421869E-001, -2.11018892573E-001
+5.60288028803E+009, -1.34793973510E-001, -2.11070235489E-001
+5.60290029003E+009, -1.39002142666E-001, -2.10891154355E-001
+5.60292029203E+009, -1.42951022573E-001, -2.10391521687E-001
+5.60294029403E+009, -1.46726944783E-001, -2.09880270405E-001
+5.60296029603E+009, -1.50411626556E-001, -2.09250545860E-001
+5.60298029803E+009, -1.53874840876E-001, -2.08466378947E-001
+5.60300030003E+009, -1.57155792051E-001, -2.07552563390E-001
+5.60302030203E+009, -1.60482680638E-001, -2.06610917526E-001
+5.60304030403E+009, -1.63549187396E-001, -2.05467825977E-001
+5.60306030603E+009, -1.66475081663E-001, -2.04387918117E-001
+5.60308030803E+009, -1.69606335229E-001, -2.03199313342E-001
+5.60310031003E+009, -1.72509035909E-001, -2.01953695757E-001
+5.60312031203E+009, -1.75144997884E-001, -2.00539595473E-001
+5.60314031403E+009, -1.77896372530E-001, -1.99236185762E-001
+5.60316031603E+009, -1.80598575329E-001, -1.97983616352E-001
+5.60318031803E+009, -1.83160022311E-001, -1.96542626693E-001
+5.60320032003E+009, -1.85565777848E-001, -1.95079032446E-001
+5.60322032203E+009, -1.88201605999E-001, -1.93591955337E-001
+5.60324032403E+009, -1.90609745938E-001, -1.92013308436E-001
+5.60326032603E+009, -1.93039745524E-001, -1.90526902598E-001
+5.60328032803E+009, -1.95437218573E-001, -1.88908122924E-001
+5.60330033003E+009, -1.97848670636E-001, -1.87234357198E-001
+5.60332033203E+009, -2.00188192463E-001, -1.85701443846E-001
+5.60334033403E+009, -2.02317978341E-001, -1.83989884866E-001
+5.60336033603E+009, -2.04577781788E-001, -1.82210809120E-001
+5.60338033803E+009, -2.06772751065E-001, -1.80528111704E-001
+5.60340034003E+009, -2.08994276268E-001, -1.78842990308E-001
+5.60342034203E+009, -2.11171954204E-001, -1.77019205701E-001
+5.60344034403E+009, -2.13373749605E-001, -1.75236696804E-001
+5.60346034603E+009, -2.15391482392E-001, -1.73308041687E-001
+5.60348034803E+009, -2.17587848894E-001, -1.71362914142E-001
+5.60350035004E+009, -2.19646158975E-001, -1.69475317040E-001
+5.60352035204E+009, -2.21687252691E-001, -1.67598739397E-001
+5.60354035404E+009, -2.23795864324E-001, -1.65703389691E-001
+5.60356035604E+009, -2.25881028961E-001, -1.63655028328E-001
+5.60358035804E+009, -2.27900434424E-001, -1.61667289193E-001
+5.60360036004E+009, -2.29831480498E-001, -1.59563870384E-001
+5.60362036204E+009, -2.31871622993E-001, -1.57340772856E-001
+5.60364036404E+009, -2.33989391921E-001, -1.55257070419E-001
+5.60366036604E+009, -2.35880199654E-001, -1.53055186257E-001
+5.60368036804E+009, -2.37945805660E-001, -1.50958960531E-001
+5.60370037004E+009, -2.39893997516E-001, -1.48591817313E-001
+5.60372037204E+009, -2.41902622610E-001, -1.46221305839E-001
+5.60374037404E+009, -2.43848812883E-001, -1.43829089392E-001
+5.60376037604E+009, -2.45813350445E-001, -1.41419272756E-001
+5.60378037804E+009, -2.47766925435E-001, -1.38975172474E-001
+5.60380038004E+009, -2.49980353397E-001, -1.36586177456E-001
+5.60382038204E+009, -2.51775779828E-001, -1.33867034325E-001
+5.60384038404E+009, -2.53775606987E-001, -1.31277743716E-001
+5.60386038604E+009, -2.55847419019E-001, -1.28377095899E-001
+5.60388038804E+009, -2.57961201869E-001, -1.25704142656E-001
+5.60390039004E+009, -2.60037312878E-001, -1.22757152545E-001
+5.60392039204E+009, -2.62118053873E-001, -1.19735819901E-001
+5.60394039404E+009, -2.64125048269E-001, -1.16588979826E-001
+5.60396039604E+009, -2.66277482625E-001, -1.13257942021E-001
+5.60398039804E+009, -2.68486968517E-001, -1.09776574054E-001
+5.60400040004E+009, -2.70671096986E-001, -1.06182696810E-001
+5.60402040204E+009, -2.73049156639E-001, -1.02440238750E-001
+5.60404040404E+009, -2.75198979991E-001, -9.83375146567E-002
+5.60406040604E+009, -2.77562745790E-001, -9.39791004683E-002
+5.60408040804E+009, -2.79760189590E-001, -8.93713468575E-002
+5.60410041004E+009, -2.82255486663E-001, -8.44012086990E-002
+5.60412041204E+009, -2.84509129114E-001, -7.90066973758E-002
+5.60414041404E+009, -2.86954155998E-001, -7.29437491067E-002
+5.60416041604E+009, -2.89299634993E-001, -6.63340375914E-002
+5.60418041804E+009, -2.91514329533E-001, -5.87951809825E-002
+5.60420042004E+009, -2.93427333299E-001, -5.04884384115E-002
+5.60422042204E+009, -2.95061296611E-001, -4.07402753174E-002
+5.60424042404E+009, -2.95875979888E-001, -2.98088317465E-002
+5.60426042604E+009, -2.95591604551E-001, -1.64826690152E-002
+5.60428042804E+009, -2.93062263833E-001, -7.54231666618E-004
+5.60430043004E+009, -2.86433663001E-001, +1.75261197035E-002
+5.60432043204E+009, -2.72501551849E-001, +3.85908869570E-002
+5.60434043404E+009, -2.47468587759E-001, +5.84986899006E-002
+5.60436043604E+009, -2.10665630422E-001, +6.91492223460E-002
+5.60438043804E+009, -1.70358817430E-001, +6.33484349267E-002
+5.60440044004E+009, -1.37771317933E-001, +4.19989864074E-002
+5.60442044204E+009, -1.18874943425E-001, +1.29477401835E-002
+5.60444044404E+009, -1.12770020068E-001, -1.62340009816E-002
+5.60446044604E+009, -1.16007207773E-001, -4.13498945757E-002
+5.60448044804E+009, -1.24959490096E-001, -6.09761119360E-002
+5.60450045005E+009, -1.36611785254E-001, -7.52506579785E-002
+5.60452045205E+009, -1.49261900738E-001, -8.47848793857E-002
+5.60454045405E+009, -1.61789826278E-001, -9.07866904484E-002
+5.60456045605E+009, -1.73108843231E-001, -9.39135812982E-002
+5.60458045805E+009, -1.83064051455E-001, -9.52476289804E-002
+5.60460046005E+009, -1.91991554355E-001, -9.53567687381E-002
+5.60462046205E+009, -1.99950536847E-001, -9.43737911465E-002
+5.60464046405E+009, -2.06606340443E-001, -9.28289704344E-002
+5.60466046605E+009, -2.12541914391E-001, -9.08900861209E-002
+5.60468046805E+009, -2.17829253291E-001, -8.87945573705E-002
+5.60470047005E+009, -2.22531426600E-001, -8.62981582946E-002
+5.60472047205E+009, -2.26726856343E-001, -8.38149608419E-002
+5.60474047405E+009, -2.30495676454E-001, -8.11841405961E-002
+5.60476047605E+009, -2.33946491477E-001, -7.85293084829E-002
+5.60478047805E+009, -2.37019429535E-001, -7.58798888846E-002
+5.60480048005E+009, -2.39917275145E-001, -7.32237177824E-002
+5.60482048205E+009, -2.42536830937E-001, -7.03524141410E-002
+5.60484048405E+009, -2.45074658006E-001, -6.78103942598E-002
+5.60486048605E+009, -2.47111708783E-001, -6.49460798593E-002
+5.60488048805E+009, -2.49150024426E-001, -6.22657478379E-002
+5.60490049005E+009, -2.51237551966E-001, -5.95912479997E-002
+5.60492049205E+009, -2.52993523452E-001, -5.67722647353E-002
+5.60494049405E+009, -2.54803872888E-001, -5.40175239252E-002
+5.60496049605E+009, -2.56275142056E-001, -5.13387572526E-002
+5.60498049805E+009, -2.57825174873E-001, -4.87012655629E-002
+5.60500050005E+009, -2.59216310217E-001, -4.58359018635E-002
+5.60502050205E+009, -2.60594568775E-001, -4.30974636511E-002
+5.60504050405E+009, -2.61737356403E-001, -4.04328913720E-002
+5.60506050605E+009, -2.63001099073E-001, -3.77359607163E-002
+5.60508050805E+009, -2.64112102630E-001, -3.49024974540E-002
+5.60510051005E+009, -2.65319845285E-001, -3.21867248345E-002
+5.60512051205E+009, -2.66180127382E-001, -2.93772040381E-002
+5.60514051405E+009, -2.67086913513E-001, -2.65789477028E-002
+5.60516051605E+009, -2.68014640982E-001, -2.37613469007E-002
+5.60518051805E+009, -2.68855426696E-001, -2.10111606230E-002
+5.60520052005E+009, -2.69677499265E-001, -1.81780653706E-002
+5.60522052205E+009, -2.70498257131E-001, -1.54191165078E-002
+5.60524052405E+009, -2.71186303849E-001, -1.25530633306E-002
+5.60526052605E+009, -2.71957498606E-001, -9.55834724573E-003
+5.60528052805E+009, -2.72665728174E-001, -6.83723490398E-003
+5.60530053005E+009, -2.73276405824E-001, -3.85247702708E-003
+5.60532053205E+009, -2.73911721255E-001, -7.46619970012E-004
+5.60534053405E+009, -2.74480691348E-001, +2.16304975074E-003
+5.60536053605E+009, -2.74975406547E-001, +5.32197230131E-003
+5.60538053805E+009, -2.75419742771E-001, +8.40085180063E-003
+5.60540054005E+009, -2.75899349964E-001, +1.15906554688E-002
+5.60542054205E+009, -2.76236272529E-001, +1.48715393572E-002
+5.60544054405E+009, -2.76842524944E-001, +1.82749107239E-002
+5.60546054605E+009, -2.77113066289E-001, +2.16324558529E-002
+5.60548054805E+009, -2.77508010037E-001, +2.51810785666E-002
+5.60550055006E+009, -2.77763977983E-001, +2.86872918897E-002
+5.60552055206E+009, -2.78085858716E-001, +3.25152553713E-002
+5.60554055406E+009, -2.78171476061E-001, +3.64652656866E-002
+5.60556055606E+009, -2.78539380521E-001, +4.05938715605E-002
+5.60558055806E+009, -2.78543702588E-001, +4.50366656874E-002
+5.60560056006E+009, -2.78506940547E-001, +4.96154415819E-002
+5.60562056206E+009, -2.78416467773E-001, +5.46662015559E-002
+5.60564056406E+009, -2.78129532223E-001, +6.00800803225E-002
+5.60566056606E+009, -2.77703038416E-001, +6.59430288037E-002
+5.60568056806E+009, -2.76684511417E-001, +7.25447164562E-002
+5.60570057006E+009, -2.75563962276E-001, +7.99459059950E-002
+5.60572057206E+009, -2.73491281277E-001, +8.82768772023E-002
+5.60574057406E+009, -2.70438409025E-001, +9.81536443468E-002
+5.60576057606E+009, -2.65270379515E-001, +1.09597020957E-001
+5.60578057806E+009, -2.56677983870E-001, +1.23139903914E-001
+5.60580058006E+009, -2.40909736621E-001, +1.38994869811E-001
+5.60582058206E+009, -2.09237869748E-001, +1.53465223025E-001
+5.60584058406E+009, -1.58427645225E-001, +1.46874495185E-001
+5.60586058606E+009, -1.19557724105E-001, +1.08459293767E-001
+5.60588058806E+009, -1.11159567830E-001, +6.36828502851E-002
+5.60590059006E+009, -1.23015522959E-001, +2.93574009108E-002
+5.60592059206E+009, -1.43184042037E-001, +8.59487255247E-003
+5.60594059406E+009, -1.64436701113E-001, -9.99670166566E-004
+5.60596059606E+009, -1.83728093807E-001, -3.15443287531E-003
+5.60598059806E+009, -1.99263801887E-001, -7.90365567949E-004
+5.60600060006E+009, -2.11643802478E-001, +3.96656360832E-003
+5.60602060206E+009, -2.20777220427E-001, +9.35775116619E-003
+5.60604060406E+009, -2.27948786873E-001, +1.50273875485E-002
+5.60606060606E+009, -2.33158945256E-001, +2.05187037165E-002
+5.60608060806E+009, -2.37401042522E-001, +2.58140494466E-002
+5.60610061006E+009, -2.40601404121E-001, +3.07202830627E-002
+5.60612061206E+009, -2.43183772327E-001, +3.52447387310E-002
+5.60614061406E+009, -2.45113431845E-001, +3.95225807883E-002
+5.60616061606E+009, -2.46605462450E-001, +4.37324443840E-002
+5.60618061806E+009, -2.47955591021E-001, +4.76219396757E-002
+5.60620062006E+009, -2.48839150415E-001, +5.12735606789E-002
+5.60622062206E+009, -2.49639692133E-001, +5.49276392471E-002
+5.60624062406E+009, -2.50340126094E-001, +5.83228391896E-002
+5.60626062606E+009, -2.50764557243E-001, +6.16955029662E-002
+5.60628062806E+009, -2.51032177244E-001, +6.47994538200E-002
+5.60630063006E+009, -2.51124503741E-001, +6.81834695465E-002
