!Keysight Technologies,E5063A,MY54502693,A.05.04
!Date: Sat Feb 27 16:15:11 2021
!Data & Calibration Information:
!Freq	S11:NONE(--)	S21:NONE(--)	S12:NONE(--)	S22:NONE(--)
# Hz S RI R 50
4800000000.000	0.000000e+000	0.000000e+000	2.862613e-002	-3.319673e-001	0.000000e+000	0.000000e+000	0.000000e+000	0.000000e+000
4800020002.000	0.000000e+000	0.000000e+000	1.830819e-002	-3.574559e-001	0.000000e+000	0.000000e+000	0.000000e+000	0.000000e+000
4800040004.000	0.000000e+000	0.000000e+000	5.989459e-003	-3.761275e-001	0.000000e+000	0.000000e+000	0.000000e+000	0.000000e+000
4800060006.001	0.000000e+000	0.000000e+000	-6.753239e-003	-3.900147e-001	0.000000e+000	0.000000e+000	0.000000e+000	0.000000e+000
4800080008.001	0.000000e+000	0.000000e+000	-1.909035e-002	-4.000790e-001	0.000000e+000	0.000000e+000	0.000000e+000	0.000000e+000
4800100010.001	0.000000e+000	0.000000e+000	-3.053474e-002	-4.075025e-001	0.000000e+000	0.000000e+000	0.000000e+000	0.000000e+000
4800120012.001	0.000000e+000	0.000000e+000	-4.114896e-002	-4.130332e-001	0.000000e+000	0.000000e+000	0.000000e+000	0.000000e+000
4800140014.001	0.000000e+000	0.000000e+000	-5.104376e-002	-4.172101e-001	0.000000e+000	0.000000e+000	0.000000e+000	0.000000e+000
4800160016.002	0.000000e+000	0.000000e+000	-6.014733e-002	-4.202037e-001	0.000000e+000	0.000000e+000	0.000000e+000	0.000000e+000
4800180018.002	0.000000e+000	0.000000e+000	-6.874867e-002	-4.225077e-001	0.000000e+000	0.000000e+000	0.000000e+000	0.000000e+000
4800200020.002	0.000000e+000	0.000000e+000	-7.685645e-002	-4.241723e-001	0.000000e+000	0.000000e+000	0.000000e+000	0.000000e+000
4800220022.002	0.000000e+000	0.000000e+000	-8.459743e-002	-4.253453e-001	0.000000e+000	0.000000e+000	0.000000e+000	0.000000e+000
4800240024.002	0.000000e+000	0.000000e+000	-9.167341e-002	-4.261961e-001	0.000000e+000	0.000000e+000	0.000000e+000	0.000000e+000
4800260026.003	0.000000e+000	0.000000e+000	-9.869120e-002	-4.265367e-001	0.000000e+000	0.000000e+000	0.000000e+000	0.000000e+000
4800280028.003	0.000000e+000	0.000000e+000	-1.052611e-001	-4.267799e-001	0.000000e+000	0.000000e+000	0.000000e+000	0.000000e+000
4800300030.003	0.000000e+000	0.000000e+000	-1.115024e-001	-4.266654e-001	0.000000e+000	0.000000e+000	0.000000e+000	0.000000e+000
4800320032.003	0.000000e+000	0.000000e+000	-1.176762e-001	-4.264585e-001	0.000000e+000	0.000000e+000	0.000000e+000	0.000000e+000
4800340034.003	0.000000e+000	0.000000e+000	-1.234227e-001	-4.260274e-001	0.000000e+000	0.000000e+000	0.000000e+000	0.000000e+000
4800360036.004	0.000000e+000	0.000000e+000	-1.291661e-001	-4.255207e-001	0.000000e+000	0.000000e+000	0.000000e+000	0.000000e+000
4800380038.004	0.000000e+000	0.000000e+000	-1.347523e-001	-4.248586e-001	0.000000e+000	0.000000e+000	0.000000e+000	0.000000e+000
4800400040.004	0.000000e+000	0.000000e+000	-1.401444e-001	-4.240526e-001	0.000000e+000	0.000000e+000	0.000000e+000	0.000000e+000
4800420042.004	0.000000e+000	0.000000e+000	-1.454444e-001	-4.230551e-001	0.000000e+000	0.000000e+000	0.000000e+000	0.000000e+000
4800440044.004	0.000000e+000	0.000000e+000	-1.505108e-001	-4.221229e-001	0.000000e+000	0.000000e+000	0.000000e+000	0.000000e+000
4800460046.005	0.000000e+000	0.000000e+000	-1.556780e-001	-4.210123e-001	0.000000e+000	0.000000e+000	0.000000e+000	0.000000e+000
4800480048.005	0.000000e+000	0.000000e+000	-1.606430e-001	-4.198063e-001	0.000000e+000	0.000000e+000	0.000000e+000	0.000000e+000
4800500050.005	0.000000e+000	0.000000e+000	-1.654798e-001	-4.187351e-001	0.000000e+000	0.000000e+000	0.000000e+000	0.000000e+000
4800520052.005	0.000000e+000	0.000000e+000	-1.702439e-001	-4.174424e-001	0.000000e+000	0.000000e+000	0.000000e+000	0.000000e+000
4800540054.005	0.000000e+000	0.000000e+000	-1.749554e-001	-4.159975e-001	0.000000e+000	0.000000e+000	0.000000e+000	0.000000e+000
4800560056.006	0.000000e+000	0.000000e+000	-1.795563e-001	-4.145253e-001	0.000000e+000	0.000000e+000	0.000000e+000	0.000000e+000
4800580058.006	0.000000e+000	0.000000e+000	-1.841800e-001	-4.129910e-001	0.000000e+000	0.000000e+000	0.000000e+000	0.000000e+000
4800600060.006	0.000000e+000	0.000000e+000	-1.886775e-001	-4.114949e-001	0.000000e+000	0.000000e+000	0.000000e+000	0.000000e+000
4800620062.006	0.000000e+000	0.000000e+000	-1.933943e-001	-4.099120e-001	0.000000e+000	0.000000e+000	0.000000e+000	0.000000e+000
4800640064.006	0.000000e+000	0.000000e+000	-1.978962e-001	-4.082895e-001	0.000000e+000	0.000000e+000	0.000000e+000	0.000000e+000
4800660066.007	0.000000e+000	0.000000e+000	-2.022891e-001	-4.065765e-001	0.000000e+000	0.000000e+000	0.000000e+000	0.000000e+000
4800680068.007	0.000000e+000	0.000000e+000	-2.065659e-001	-4.048139e-001	0.000000e+000	0.000000e+000	0.000000e+000	0.000000e+000
4800700070.007	0.000000e+000	0.000000e+000	-2.109837e-001	-4.030010e-001	0.000000e+000	0.000000e+000	0.000000e+000	0.000000e+000
4800720072.007	0.000000e+000	0.000000e+000	-2.152894e-001	-4.011866e-001	0.000000e+000	0.000000e+000	0.000000e+000	0.000000e+000
4800740074.007	0.000000e+000	0.000000e+000	-2.195990e-001	-3.992844e-001	0.000000e+000	0.000000e+000	0.000000e+000	0.000000e+000
4800760076.008	0.000000e+000	0.000000e+000	-2.237774e-001	-3.973735e-001	0.000000e+000	0.000000e+000	0.000000e+000	0.000000e+000
4800780078.008	0.000000e+000	0.000000e+000	-2.280588e-001	-3.952770e-001	0.000000e+000	0.000000e+000	0.000000e+000	0.000000e+000
4800800080.008	0.000000e+000	0.000000e+000	-2.323146e-001	-3.932550e-001	0.000000e+000	0.000000e+000	0.000000e+000	0.000000e+000
4800820082.008	0.000000e+000	0.000000e+000	-2.363539e-001	-3.910476e-001	0.000000e+000	0.000000e+000	0.000000e+000	0.000000e+000
4800840084.008	0.000000e+000	0.000000e+000	-2.406971e-001	-3.888406e-001	0.000000e+000	0.000000e+000	0.000000e+000	0.000000e+000
4800860086.009	0.000000e+000	0.000000e+000	-2.449265e-001	-3.867658e-001	0.000000e+000	0.000000e+000	0.000000e+000	0.000000e+000
4800880088.009	0.000000e+000	0.000000e+000	-2.490248e-001	-3.845212e-001	0.000000e+000	0.000000e+000	0.000000e+000	0.000000e+000
4800900090.009	0.000000e+000	0.000000e+000	-2.531699e-001	-3.821663e-001	0.000000e+000	0.000000e+000	0.000000e+000	0.000000e+000
4800920092.009	0.000000e+000	0.000000e+000	-2.572565e-001	-3.796747e-001	0.000000e+000	0.000000e+000	0.000000e+000	0.000000e+000
4800940094.009	0.000000e+000	0.000000e+000	-2.614638e-001	-3.772715e-001	0.000000e+000	0.000000e+000	0.000000e+000	0.000000e+000
4800960096.010	0.000000e+000	0.000000e+000	-2.657845e-001	-3.745765e-001	0.000000e+000	0.000000e+000	0.000000e+000	0.000000e+000
4800980098.010	0.000000e+000	0.000000e+000	-2.698769e-001	-3.720415e-001	0.000000e+000	0.000000e+000	0.000000e+000	0.000000e+000
4801000100.010	0.000000e+000	0.000000e+000	-2.742353e-001	-3.693406e-001	0.000000e+000	0.000000e+000	0.000000e+000	0.000000e+000
4801020102.010	0.000000e+000	0.000000e+000	-2.784689e-001	-3.667132e-001	0.000000e+000	0.000000e+000	0.000000e+000	0.000000e+000
4801040104.010	0.000000e+000	0.000000e+000	-2.827506e-001	-3.637678e-001	0.000000e+000	0.000000e+000	0.000000e+000	0.000000e+000
4801060106.011	0.000000e+000	0.000000e+000	-2.870092e-001	-3.608660e-001	0.000000e+000	0.000000e+000	0.000000e+000	0.000000e+000
4801080108.011	0.000000e+000	0.000000e+000	-2.912529e-001	-3.577771e-001	0.000000e+000	0.000000e+000	0.000000e+000	0.000000e+000
4801100110.011	0.000000e+000	0.000000e+000	-2.956650e-001	-3.546827e-001	0.000000e+000	0.000000e+000	0.000000e+000	0.000000e+000
4801120112.011	0.000000e+000	0.000000e+000	-3.000111e-001	-3.514947e-001	0.000000e+000	0.000000e+000	0.000000e+000	0.000000e+000
4801140114.011	0.000000e+000	0.000000e+000	-3.045041e-001	-3.481965e-001	0.000000e+000	0.000000e+000	0.000000e+000	0.000000e+000
4801160116.012	0.000000e+000	0.000000e+000	-3.089091e-001	-3.446763e-001	0.000000e+000	0.000000e+000	0.000000e+000	0.000000e+000
4801180118.012	0.000000e+000	0.000000e+000	-3.135909e-001	-3.409731e-001	0.000000e+000	0.000000e+000	0.000000e+000	0.000000e+000
4801200120.012	0.000000e+000	0.000000e+000	-3.180202e-001	-3.371341e-001	0.000000e+000	0.000000e+000	0.000000e+000	0.000000e+000
4801220122.012	0.000000e+000	0.000000e+000	-3.227408e-001	-3.331877e-001	0.000000e+000	0.000000e+000	0.000000e+000	0.000000e+000
4801240124.012	0.000000e+000	0.000000e+000	-3.275294e-001	-3.288051e-001	0.000000e+000	0.000000e+000	0.000000e+000	0.000000e+000
4801260126.013	0.000000e+000	0.000000e+000	-3.325812e-001	-3.244461e-001	0.000000e+000	0.000000e+000	0.000000e+000	0.000000e+000
4801280128.013	0.000000e+000	0.000000e+000	-3.376308e-001	-3.196734e-001	0.000000e+000	0.000000e+000	0.000000e+000	0.000000e+000
4801300130.013	0.000000e+000	0.000000e+000	-3.429303e-001	-3.145824e-001	0.000000e+000	0.000000e+000	0.000000e+000	0.000000e+000
4801320132.013	0.000000e+000	0.000000e+000	-3.481778e-001	-3.091664e-001	0.000000e+000	0.000000e+000	0.000000e+000	0.000000e+000
4801340134.013	0.000000e+000	0.000000e+000	-3.536799e-001	-3.032234e-001	0.000000e+000	0.000000e+000	0.000000e+000	0.000000e+000
4801360136.014	0.000000e+000	0.000000e+000	-3.593537e-001	-2.968376e-001	0.000000e+000	0.000000e+000	0.000000e+000	0.000000e+000
4801380138.014	0.000000e+000	0.000000e+000	-3.654031e-001	-2.897174e-001	0.000000e+000	0.000000e+000	0.000000e+000	0.000000e+000
4801400140.014	0.000000e+000	0.000000e+000	-3.715900e-001	-2.818056e-001	0.000000e+000	0.000000e+000	0.000000e+000	0.000000e+000
4801420142.014	0.000000e+000	0.000000e+000	-3.780545e-001	-2.727133e-001	0.000000e+000	0.000000e+000	0.000000e+000	0.000000e+000
4801440144.014	0.000000e+000	0.000000e+000	-3.847502e-001	-2.625038e-001	0.000000e+000	0.000000e+000	0.000000e+000	0.000000e+000
4801460146.015	0.000000e+000	0.000000e+000	-3.916152e-001	-2.503374e-001	0.000000e+000	0.000000e+000	0.000000e+000	0.000000e+000
4801480148.015	0.000000e+000	0.000000e+000	-3.985917e-001	-2.361133e-001	0.000000e+000	0.000000e+000	0.000000e+000	0.000000e+000
4801500150.015	0.000000e+000	0.000000e+000	-4.053231e-001	-2.188683e-001	0.000000e+000	0.000000e+000	0.000000e+000	0.000000e+000
4801520152.015	0.000000e+000	0.000000e+000	-4.113082e-001	-1.971189e-001	0.000000e+000	0.000000e+000	0.000000e+000	0.000000e+000
4801540154.015	0.000000e+000	0.000000e+000	-4.150758e-001	-1.690811e-001	0.000000e+000	0.000000e+000	0.000000e+000	0.000000e+000
4801560156.016	0.000000e+000	0.000000e+000	-4.128771e-001	-1.319633e-001	0.000000e+000	0.000000e+000	0.000000e+000	0.000000e+000
4801580158.016	0.000000e+000	0.000000e+000	-3.960312e-001	-8.243339e-002	0.000000e+000	0.000000e+000	0.000000e+000	0.000000e+000
4801600160.016	0.000000e+000	0.000000e+000	-3.462407e-001	-2.594123e-002	0.000000e+000	0.000000e+000	0.000000e+000	0.000000e+000
4801620162.016	0.000000e+000	0.000000e+000	-2.545234e-001	4.420337e-003	0.000000e+000	0.000000e+000	0.000000e+000	0.000000e+000
4801640164.016	0.000000e+000	0.000000e+000	-1.618673e-001	-2.071461e-002	0.000000e+000	0.000000e+000	0.000000e+000	0.000000e+000
4801660166.017	0.000000e+000	0.000000e+000	-1.053123e-001	-8.025204e-002	0.000000e+000	0.000000e+000	0.000000e+000	0.000000e+000
4801680168.017	0.000000e+000	0.000000e+000	-8.584936e-002	-1.435056e-001	0.000000e+000	0.000000e+000	0.000000e+000	0.000000e+000
4801700170.017	0.000000e+000	0.000000e+000	-9.093493e-002	-1.974072e-001	0.000000e+000	0.000000e+000	0.000000e+000	0.000000e+000
4801720172.017	0.000000e+000	0.000000e+000	-1.090546e-001	-2.385005e-001	0.000000e+000	0.000000e+000	0.000000e+000	0.000000e+000
4801740174.017	0.000000e+000	0.000000e+000	-1.326650e-001	-2.668196e-001	0.000000e+000	0.000000e+000	0.000000e+000	0.000000e+000
4801760176.018	0.000000e+000	0.000000e+000	-1.573809e-001	-2.855603e-001	0.000000e+000	0.000000e+000	0.000000e+000	0.000000e+000
4801780178.018	0.000000e+000	0.000000e+000	-1.808144e-001	-2.971588e-001	0.000000e+000	0.000000e+000	0.000000e+000	0.000000e+000
4801800180.018	0.000000e+000	0.000000e+000	-2.018805e-001	-3.035128e-001	0.000000e+000	0.000000e+000	0.000000e+000	0.000000e+000
4801820182.018	0.000000e+000	0.000000e+000	-2.202818e-001	-3.066808e-001	0.000000e+000	0.000000e+000	0.000000e+000	0.000000e+000
4801840184.018	0.000000e+000	0.000000e+000	-2.365313e-001	-3.074881e-001	0.000000e+000	0.000000e+000	0.000000e+000	0.000000e+000
4801860186.019	0.000000e+000	0.000000e+000	-2.504409e-001	-3.067015e-001	0.000000e+000	0.000000e+000	0.000000e+000	0.000000e+000
4801880188.019	0.000000e+000	0.000000e+000	-2.626923e-001	-3.050367e-001	0.000000e+000	0.000000e+000	0.000000e+000	0.000000e+000
4801900190.019	0.000000e+000	0.000000e+000	-2.734387e-001	-3.027153e-001	0.000000e+000	0.000000e+000	0.000000e+000	0.000000e+000
4801920192.019	0.000000e+000	0.000000e+000	-2.830714e-001	-3.000202e-001	0.000000e+000	0.000000e+000	0.000000e+000	0.000000e+000
4801940194.019	0.000000e+000	0.000000e+000	-2.917185e-001	-2.970336e-001	0.000000e+000	0.000000e+000	0.000000e+000	0.000000e+000
4801960196.020	0.000000e+000	0.000000e+000	-2.997477e-001	-2.936099e-001	0.000000e+000	0.000000e+000	0.000000e+000	0.000000e+000
4801980198.020	0.000000e+000	0.000000e+000	-3.066910e-001	-2.902522e-001	0.000000e+000	0.000000e+000	0.000000e+000	0.000000e+000
4802000200.020	0.000000e+000	0.000000e+000	-3.132594e-001	-2.867773e-001	0.000000e+000	0.000000e+000	0.000000e+000	0.000000e+000
4802020202.020	0.000000e+000	0.000000e+000	-3.192660e-001	-2.832774e-001	0.000000e+000	0.000000e+000	0.000000e+000	0.000000e+000
4802040204.020	0.000000e+000	0.000000e+000	-3.249837e-001	-2.797412e-001	0.000000e+000	0.000000e+000	0.000000e+000	0.000000e+000
4802060206.021	0.000000e+000	0.000000e+000	-3.302113e-001	-2.760862e-001	0.000000e+000	0.000000e+000	0.000000e+000	0.000000e+000
4802080208.021	0.000000e+000	0.000000e+000	-3.351903e-001	-2.724018e-001	0.000000e+000	0.000000e+000	0.000000e+000	0.000000e+000
4802100210.021	0.000000e+000	0.000000e+000	-3.397771e-001	-2.688179e-001	0.000000e+000	0.000000e+000	0.000000e+000	0.000000e+000
4802120212.021	0.000000e+000	0.000000e+000	-3.441114e-001	-2.651118e-001	0.000000e+000	0.000000e+000	0.000000e+000	0.000000e+000
4802140214.021	0.000000e+000	0.000000e+000	-3.483583e-001	-2.614547e-001	0.000000e+000	0.000000e+000	0.000000e+000	0.000000e+000
4802160216.022	0.000000e+000	0.000000e+000	-3.523726e-001	-2.578501e-001	0.000000e+000	0.000000e+000	0.000000e+000	0.000000e+000
4802180218.022	0.000000e+000	0.000000e+000	-3.561133e-001	-2.542569e-001	0.000000e+000	0.000000e+000	0.000000e+000	0.000000e+000
4802200220.022	0.000000e+000	0.000000e+000	-3.597817e-001	-2.505359e-001	0.000000e+000	0.000000e+000	0.000000e+000	0.000000e+000
4802220222.022	0.000000e+000	0.000000e+000	-3.632726e-001	-2.469211e-001	0.000000e+000	0.000000e+000	0.000000e+000	0.000000e+000
4802240224.022	0.000000e+000	0.000000e+000	-3.666552e-001	-2.431650e-001	0.000000e+000	0.000000e+000	0.000000e+000	0.000000e+000
4802260226.023	0.000000e+000	0.000000e+000	-3.698046e-001	-2.395044e-001	0.000000e+000	0.000000e+000	0.000000e+000	0.000000e+000
4802280228.023	0.000000e+000	0.000000e+000	-3.728910e-001	-2.358293e-001	0.000000e+000	0.000000e+000	0.000000e+000	0.000000e+000
4802300230.023	0.000000e+000	0.000000e+000	-3.759161e-001	-2.320936e-001	0.000000e+000	0.000000e+000	0.000000e+000	0.000000e+000
4802320232.023	0.000000e+000	0.000000e+000	-3.788416e-001	-2.284032e-001	0.000000e+000	0.000000e+000	0.000000e+000	0.000000e+000
4802340234.023	0.000000e+000	0.000000e+000	-3.816806e-001	-2.247107e-001	0.000000e+000	0.000000e+000	0.000000e+000	0.000000e+000
4802360236.024	0.000000e+000	0.000000e+000	-3.844971e-001	-2.210109e-001	0.000000e+000	0.000000e+000	0.000000e+000	0.000000e+000
4802380238.024	0.000000e+000	0.000000e+000	-3.871321e-001	-2.173103e-001	0.000000e+000	0.000000e+000	0.000000e+000	0.000000e+000
4802400240.024	0.000000e+000	0.000000e+000	-3.896622e-001	-2.136374e-001	0.000000e+000	0.000000e+000	0.000000e+000	0.000000e+000
4802420242.024	0.000000e+000	0.000000e+000	-3.921540e-001	-2.098619e-001	0.000000e+000	0.000000e+000	0.000000e+000	0.000000e+000
4802440244.024	0.000000e+000	0.000000e+000	-3.947131e-001	-2.062369e-001	0.000000e+000	0.000000e+000	0.000000e+000	0.000000e+000
4802460246.025	0.000000e+000	0.000000e+000	-3.971702e-001	-2.025377e-001	0.000000e+000	0.000000e+000	0.000000e+000	0.000000e+000
4802480248.025	0.000000e+000	0.000000e+000	-3.993995e-001	-1.987585e-001	0.000000e+000	0.000000e+000	0.000000e+000	0.000000e+000
4802500250.025	0.000000e+000	0.000000e+000	-4.015509e-001	-1.948781e-001	0.000000e+000	0.000000e+000	0.000000e+000	0.000000e+000
4802520252.025	0.000000e+000	0.000000e+000	-4.037132e-001	-1.912251e-001	0.000000e+000	0.000000e+000	0.000000e+000	0.000000e+000
4802540254.025	0.000000e+000	0.000000e+000	-4.059164e-001	-1.874300e-001	0.000000e+000	0.000000e+000	0.000000e+000	0.000000e+000
4802560256.026	0.000000e+000	0.000000e+000	-4.079550e-001	-1.836362e-001	0.000000e+000	0.000000e+000	0.000000e+000	0.000000e+000
4802580258.026	0.000000e+000	0.000000e+000	-4.100567e-001	-1.799423e-001	0.000000e+000	0.000000e+000	0.000000e+000	0.000000e+000
4802600260.026	0.000000e+000	0.000000e+000	-4.119345e-001	-1.760264e-001	0.000000e+000	0.000000e+000	0.000000e+000	0.000000e+000
4802620262.026	0.000000e+000	0.000000e+000	-4.139868e-001	-1.721528e-001	0.000000e+000	0.000000e+000	0.000000e+000	0.000000e+000
4802640264.026	0.000000e+000	0.000000e+000	-4.157025e-001	-1.682870e-001	0.000000e+000	0.000000e+000	0.000000e+000	0.000000e+000
4802660266.027	0.000000e+000	0.000000e+000	-4.176020e-001	-1.644649e-001	0.000000e+000	0.000000e+000	0.000000e+000	0.000000e+000
4802680268.027	0.000000e+000	0.000000e+000	-4.194831e-001	-1.605957e-001	0.000000e+000	0.000000e+000	0.000000e+000	0.000000e+000
4802700270.027	0.000000e+000	0.000000e+000	-4.212259e-001	-1.567381e-001	0.000000e+000	0.000000e+000	0.000000e+000	0.000000e+000
4802720272.027	0.000000e+000	0.000000e+000	-4.229427e-001	-1.528349e-001	0.000000e+000	0.000000e+000	0.000000e+000	0.000000e+000
4802740274.027	0.000000e+000	0.000000e+000	-4.246225e-001	-1.488908e-001	0.000000e+000	0.000000e+000	0.000000e+000	0.000000e+000
4802760276.028	0.000000e+000	0.000000e+000	-4.261850e-001	-1.450659e-001	0.000000e+000	0.000000e+000	0.000000e+000	0.000000e+000
4802780278.028	0.000000e+000	0.000000e+000	-4.278357e-001	-1.410374e-001	0.000000e+000	0.000000e+000	0.000000e+000	0.000000e+000
4802800280.028	0.000000e+000	0.000000e+000	-4.292240e-001	-1.371902e-001	0.000000e+000	0.000000e+000	0.000000e+000	0.000000e+000
4802820282.028	0.000000e+000	0.000000e+000	-4.308367e-001	-1.330525e-001	0.000000e+000	0.000000e+000	0.000000e+000	0.000000e+000
4802840284.028	0.000000e+000	0.000000e+000	-4.323128e-001	-1.290275e-001	0.000000e+000	0.000000e+000	0.000000e+000	0.000000e+000
4802860286.029	0.000000e+000	0.000000e+000	-4.336920e-001	-1.250961e-001	0.000000e+000	0.000000e+000	0.000000e+000	0.000000e+000
4802880288.029	0.000000e+000	0.000000e+000	-4.351523e-001	-1.208870e-001	0.000000e+000	0.000000e+000	0.000000e+000	0.000000e+000
4802900290.029	0.000000e+000	0.000000e+000	-4.364704e-001	-1.169762e-001	0.000000e+000	0.000000e+000	0.000000e+000	0.000000e+000
4802920292.029	0.000000e+000	0.000000e+000	-4.377426e-001	-1.127486e-001	0.000000e+000	0.000000e+000	0.000000e+000	0.000000e+000
4802940294.029	0.000000e+000	0.000000e+000	-4.389724e-001	-1.085898e-001	0.000000e+000	0.000000e+000	0.000000e+000	0.000000e+000
4802960296.030	0.000000e+000	0.000000e+000	-4.402764e-001	-1.044443e-001	0.000000e+000	0.000000e+000	0.000000e+000	0.000000e+000
4802980298.030	0.000000e+000	0.000000e+000	-4.414422e-001	-1.002431e-001	0.000000e+000	0.000000e+000	0.000000e+000	0.000000e+000
4803000300.030	0.000000e+000	0.000000e+000	-4.426048e-001	-9.593166e-002	0.000000e+000	0.000000e+000	0.000000e+000	0.000000e+000
4803020302.030	0.000000e+000	0.000000e+000	-4.438620e-001	-9.176176e-002	0.000000e+000	0.000000e+000	0.000000e+000	0.000000e+000
