!Keysight Technologies,E5063A,MY54502693,A.05.04
!Date: Sat Feb 27 15:57:22 2021
!Data & Calibration Information:
!Freq	S11:NONE(--)	S21:NONE(--)	S12:NONE(--)	S22:NONE(--)
# Hz S RI R 50
4000000000.000	0.000000e+000	0.000000e+000	-2.781252e-001	-6.354898e-001	0.000000e+000	0.000000e+000	0.000000e+000	0.000000e+000
4000020002.000	0.000000e+000	0.000000e+000	-2.828355e-001	-6.334625e-001	0.000000e+000	0.000000e+000	0.000000e+000	0.000000e+000
4000040004.000	0.000000e+000	0.000000e+000	-2.875406e-001	-6.312682e-001	0.000000e+000	0.000000e+000	0.000000e+000	0.000000e+000
4000060006.001	0.000000e+000	0.000000e+000	-2.921732e-001	-6.291565e-001	0.000000e+000	0.000000e+000	0.000000e+000	0.000000e+000
4000080008.001	0.000000e+000	0.000000e+000	-2.969437e-001	-6.270956e-001	0.000000e+000	0.000000e+000	0.000000e+000	0.000000e+000
4000100010.001	0.000000e+000	0.000000e+000	-3.016006e-001	-6.249411e-001	0.000000e+000	0.000000e+000	0.000000e+000	0.000000e+000
4000120012.001	0.000000e+000	0.000000e+000	-3.064399e-001	-6.227134e-001	0.000000e+000	0.000000e+000	0.000000e+000	0.000000e+000
4000140014.001	0.000000e+000	0.000000e+000	-3.110389e-001	-6.204323e-001	0.000000e+000	0.000000e+000	0.000000e+000	0.000000e+000
4000160016.002	0.000000e+000	0.000000e+000	-3.156606e-001	-6.181543e-001	0.000000e+000	0.000000e+000	0.000000e+000	0.000000e+000
4000180018.002	0.000000e+000	0.000000e+000	-3.202192e-001	-6.158438e-001	0.000000e+000	0.000000e+000	0.000000e+000	0.000000e+000
4000200020.002	0.000000e+000	0.000000e+000	-3.247067e-001	-6.134390e-001	0.000000e+000	0.000000e+000	0.000000e+000	0.000000e+000
4000220022.002	0.000000e+000	0.000000e+000	-3.293231e-001	-6.110739e-001	0.000000e+000	0.000000e+000	0.000000e+000	0.000000e+000
4000240024.002	0.000000e+000	0.000000e+000	-3.338541e-001	-6.086351e-001	0.000000e+000	0.000000e+000	0.000000e+000	0.000000e+000
4000260026.003	0.000000e+000	0.000000e+000	-3.384224e-001	-6.062049e-001	0.000000e+000	0.000000e+000	0.000000e+000	0.000000e+000
4000280028.003	0.000000e+000	0.000000e+000	-3.429229e-001	-6.036726e-001	0.000000e+000	0.000000e+000	0.000000e+000	0.000000e+000
4000300030.003	0.000000e+000	0.000000e+000	-3.473865e-001	-6.011612e-001	0.000000e+000	0.000000e+000	0.000000e+000	0.000000e+000
4000320032.003	0.000000e+000	0.000000e+000	-3.518218e-001	-5.984986e-001	0.000000e+000	0.000000e+000	0.000000e+000	0.000000e+000
4000340034.003	0.000000e+000	0.000000e+000	-3.562845e-001	-5.959343e-001	0.000000e+000	0.000000e+000	0.000000e+000	0.000000e+000
4000360036.004	0.000000e+000	0.000000e+000	-3.607112e-001	-5.932359e-001	0.000000e+000	0.000000e+000	0.000000e+000	0.000000e+000
4000380038.004	0.000000e+000	0.000000e+000	-3.651501e-001	-5.906525e-001	0.000000e+000	0.000000e+000	0.000000e+000	0.000000e+000
4000400040.004	0.000000e+000	0.000000e+000	-3.696330e-001	-5.879641e-001	0.000000e+000	0.000000e+000	0.000000e+000	0.000000e+000
4000420042.004	0.000000e+000	0.000000e+000	-3.739160e-001	-5.851979e-001	0.000000e+000	0.000000e+000	0.000000e+000	0.000000e+000
4000440044.004	0.000000e+000	0.000000e+000	-3.782898e-001	-5.825006e-001	0.000000e+000	0.000000e+000	0.000000e+000	0.000000e+000
4000460046.005	0.000000e+000	0.000000e+000	-3.827310e-001	-5.797135e-001	0.000000e+000	0.000000e+000	0.000000e+000	0.000000e+000
4000480048.005	0.000000e+000	0.000000e+000	-3.870389e-001	-5.767793e-001	0.000000e+000	0.000000e+000	0.000000e+000	0.000000e+000
4000500050.005	0.000000e+000	0.000000e+000	-3.913630e-001	-5.739642e-001	0.000000e+000	0.000000e+000	0.000000e+000	0.000000e+000
4000520052.005	0.000000e+000	0.000000e+000	-3.956265e-001	-5.710900e-001	0.000000e+000	0.000000e+000	0.000000e+000	0.000000e+000
4000540054.005	0.000000e+000	0.000000e+000	-3.998295e-001	-5.682056e-001	0.000000e+000	0.000000e+000	0.000000e+000	0.000000e+000
4000560056.006	0.000000e+000	0.000000e+000	-4.040917e-001	-5.653130e-001	0.000000e+000	0.000000e+000	0.000000e+000	0.000000e+000
4000580058.006	0.000000e+000	0.000000e+000	-4.082901e-001	-5.622040e-001	0.000000e+000	0.000000e+000	0.000000e+000	0.000000e+000
4000600060.006	0.000000e+000	0.000000e+000	-4.124963e-001	-5.592259e-001	0.000000e+000	0.000000e+000	0.000000e+000	0.000000e+000
4000620062.006	0.000000e+000	0.000000e+000	-4.167818e-001	-5.562302e-001	0.000000e+000	0.000000e+000	0.000000e+000	0.000000e+000
4000640064.006	0.000000e+000	0.000000e+000	-4.209559e-001	-5.531243e-001	0.000000e+000	0.000000e+000	0.000000e+000	0.000000e+000
4000660066.007	0.000000e+000	0.000000e+000	-4.250490e-001	-5.500040e-001	0.000000e+000	0.000000e+000	0.000000e+000	0.000000e+000
4000680068.007	0.000000e+000	0.000000e+000	-4.290725e-001	-5.468731e-001	0.000000e+000	0.000000e+000	0.000000e+000	0.000000e+000
4000700070.007	0.000000e+000	0.000000e+000	-4.331455e-001	-5.437239e-001	0.000000e+000	0.000000e+000	0.000000e+000	0.000000e+000
4000720072.007	0.000000e+000	0.000000e+000	-4.371862e-001	-5.404976e-001	0.000000e+000	0.000000e+000	0.000000e+000	0.000000e+000
4000740074.007	0.000000e+000	0.000000e+000	-4.411632e-001	-5.372601e-001	0.000000e+000	0.000000e+000	0.000000e+000	0.000000e+000
4000760076.008	0.000000e+000	0.000000e+000	-4.452459e-001	-5.339435e-001	0.000000e+000	0.000000e+000	0.000000e+000	0.000000e+000
4000780078.008	0.000000e+000	0.000000e+000	-4.493457e-001	-5.306721e-001	0.000000e+000	0.000000e+000	0.000000e+000	0.000000e+000
4000800080.008	0.000000e+000	0.000000e+000	-4.531990e-001	-5.273864e-001	0.000000e+000	0.000000e+000	0.000000e+000	0.000000e+000
4000820082.008	0.000000e+000	0.000000e+000	-4.571584e-001	-5.239832e-001	0.000000e+000	0.000000e+000	0.000000e+000	0.000000e+000
4000840084.008	0.000000e+000	0.000000e+000	-4.610746e-001	-5.206108e-001	0.000000e+000	0.000000e+000	0.000000e+000	0.000000e+000
4000860086.009	0.000000e+000	0.000000e+000	-4.649238e-001	-5.171613e-001	0.000000e+000	0.000000e+000	0.000000e+000	0.000000e+000
4000880088.009	0.000000e+000	0.000000e+000	-4.687696e-001	-5.137041e-001	0.000000e+000	0.000000e+000	0.000000e+000	0.000000e+000
4000900090.009	0.000000e+000	0.000000e+000	-4.727236e-001	-5.102170e-001	0.000000e+000	0.000000e+000	0.000000e+000	0.000000e+000
4000920092.009	0.000000e+000	0.000000e+000	-4.764881e-001	-5.067875e-001	0.000000e+000	0.000000e+000	0.000000e+000	0.000000e+000
4000940094.009	0.000000e+000	0.000000e+000	-4.802614e-001	-5.032768e-001	0.000000e+000	0.000000e+000	0.000000e+000	0.000000e+000
4000960096.010	0.000000e+000	0.000000e+000	-4.840024e-001	-4.996675e-001	0.000000e+000	0.000000e+000	0.000000e+000	0.000000e+000
4000980098.010	0.000000e+000	0.000000e+000	-4.877379e-001	-4.960823e-001	0.000000e+000	0.000000e+000	0.000000e+000	0.000000e+000
4001000100.010	0.000000e+000	0.000000e+000	-4.913930e-001	-4.924213e-001	0.000000e+000	0.000000e+000	0.000000e+000	0.000000e+000
4001020102.010	0.000000e+000	0.000000e+000	-4.950869e-001	-4.888099e-001	0.000000e+000	0.000000e+000	0.000000e+000	0.000000e+000
4001040104.010	0.000000e+000	0.000000e+000	-4.988445e-001	-4.851337e-001	0.000000e+000	0.000000e+000	0.000000e+000	0.000000e+000
4001060106.011	0.000000e+000	0.000000e+000	-5.024322e-001	-4.814715e-001	0.000000e+000	0.000000e+000	0.000000e+000	0.000000e+000
4001080108.011	0.000000e+000	0.000000e+000	-5.059999e-001	-4.777050e-001	0.000000e+000	0.000000e+000	0.000000e+000	0.000000e+000
4001100110.011	0.000000e+000	0.000000e+000	-5.095168e-001	-4.739292e-001	0.000000e+000	0.000000e+000	0.000000e+000	0.000000e+000
4001120112.011	0.000000e+000	0.000000e+000	-5.130993e-001	-4.701899e-001	0.000000e+000	0.000000e+000	0.000000e+000	0.000000e+000
4001140114.011	0.000000e+000	0.000000e+000	-5.166216e-001	-4.663141e-001	0.000000e+000	0.000000e+000	0.000000e+000	0.000000e+000
4001160116.012	0.000000e+000	0.000000e+000	-5.201321e-001	-4.624782e-001	0.000000e+000	0.000000e+000	0.000000e+000	0.000000e+000
4001180118.012	0.000000e+000	0.000000e+000	-5.236087e-001	-4.586351e-001	0.000000e+000	0.000000e+000	0.000000e+000	0.000000e+000
4001200120.012	0.000000e+000	0.000000e+000	-5.270321e-001	-4.548439e-001	0.000000e+000	0.000000e+000	0.000000e+000	0.000000e+000
4001220122.012	0.000000e+000	0.000000e+000	-5.304182e-001	-4.509737e-001	0.000000e+000	0.000000e+000	0.000000e+000	0.000000e+000
4001240124.012	0.000000e+000	0.000000e+000	-5.338453e-001	-4.469212e-001	0.000000e+000	0.000000e+000	0.000000e+000	0.000000e+000
4001260126.013	0.000000e+000	0.000000e+000	-5.370843e-001	-4.430432e-001	0.000000e+000	0.000000e+000	0.000000e+000	0.000000e+000
4001280128.013	0.000000e+000	0.000000e+000	-5.404921e-001	-4.390296e-001	0.000000e+000	0.000000e+000	0.000000e+000	0.000000e+000
4001300130.013	0.000000e+000	0.000000e+000	-5.438049e-001	-4.350219e-001	0.000000e+000	0.000000e+000	0.000000e+000	0.000000e+000
4001320132.013	0.000000e+000	0.000000e+000	-5.469829e-001	-4.309623e-001	0.000000e+000	0.000000e+000	0.000000e+000	0.000000e+000
4001340134.013	0.000000e+000	0.000000e+000	-5.501880e-001	-4.268930e-001	0.000000e+000	0.000000e+000	0.000000e+000	0.000000e+000
4001360136.014	0.000000e+000	0.000000e+000	-5.533480e-001	-4.227645e-001	0.000000e+000	0.000000e+000	0.000000e+000	0.000000e+000
4001380138.014	0.000000e+000	0.000000e+000	-5.564669e-001	-4.186826e-001	0.000000e+000	0.000000e+000	0.000000e+000	0.000000e+000
4001400140.014	0.000000e+000	0.000000e+000	-5.597304e-001	-4.146263e-001	0.000000e+000	0.000000e+000	0.000000e+000	0.000000e+000
4001420142.014	0.000000e+000	0.000000e+000	-5.627452e-001	-4.104028e-001	0.000000e+000	0.000000e+000	0.000000e+000	0.000000e+000
4001440144.014	0.000000e+000	0.000000e+000	-5.658912e-001	-4.062232e-001	0.000000e+000	0.000000e+000	0.000000e+000	0.000000e+000
4001460146.015	0.000000e+000	0.000000e+000	-5.688829e-001	-4.020270e-001	0.000000e+000	0.000000e+000	0.000000e+000	0.000000e+000
4001480148.015	0.000000e+000	0.000000e+000	-5.719551e-001	-3.977802e-001	0.000000e+000	0.000000e+000	0.000000e+000	0.000000e+000
4001500150.015	0.000000e+000	0.000000e+000	-5.748636e-001	-3.935984e-001	0.000000e+000	0.000000e+000	0.000000e+000	0.000000e+000
4001520152.015	0.000000e+000	0.000000e+000	-5.778297e-001	-3.893192e-001	0.000000e+000	0.000000e+000	0.000000e+000	0.000000e+000
4001540154.015	0.000000e+000	0.000000e+000	-5.807065e-001	-3.849896e-001	0.000000e+000	0.000000e+000	0.000000e+000	0.000000e+000
4001560156.016	0.000000e+000	0.000000e+000	-5.836892e-001	-3.807185e-001	0.000000e+000	0.000000e+000	0.000000e+000	0.000000e+000
4001580158.016	0.000000e+000	0.000000e+000	-5.865265e-001	-3.763789e-001	0.000000e+000	0.000000e+000	0.000000e+000	0.000000e+000
4001600160.016	0.000000e+000	0.000000e+000	-5.892926e-001	-3.720493e-001	0.000000e+000	0.000000e+000	0.000000e+000	0.000000e+000
4001620162.016	0.000000e+000	0.000000e+000	-5.921467e-001	-3.676349e-001	0.000000e+000	0.000000e+000	0.000000e+000	0.000000e+000
4001640164.016	0.000000e+000	0.000000e+000	-5.947634e-001	-3.633053e-001	0.000000e+000	0.000000e+000	0.000000e+000	0.000000e+000
4001660166.017	0.000000e+000	0.000000e+000	-5.975651e-001	-3.588845e-001	0.000000e+000	0.000000e+000	0.000000e+000	0.000000e+000
4001680168.017	0.000000e+000	0.000000e+000	-6.001623e-001	-3.543542e-001	0.000000e+000	0.000000e+000	0.000000e+000	0.000000e+000
4001700170.017	0.000000e+000	0.000000e+000	-6.029647e-001	-3.499284e-001	0.000000e+000	0.000000e+000	0.000000e+000	0.000000e+000
4001720172.017	0.000000e+000	0.000000e+000	-6.055862e-001	-3.454315e-001	0.000000e+000	0.000000e+000	0.000000e+000	0.000000e+000
4001740174.017	0.000000e+000	0.000000e+000	-6.081685e-001	-3.409147e-001	0.000000e+000	0.000000e+000	0.000000e+000	0.000000e+000
4001760176.018	0.000000e+000	0.000000e+000	-6.106177e-001	-3.363837e-001	0.000000e+000	0.000000e+000	0.000000e+000	0.000000e+000
4001780178.018	0.000000e+000	0.000000e+000	-6.131594e-001	-3.318659e-001	0.000000e+000	0.000000e+000	0.000000e+000	0.000000e+000
4001800180.018	0.000000e+000	0.000000e+000	-6.155246e-001	-3.272695e-001	0.000000e+000	0.000000e+000	0.000000e+000	0.000000e+000
4001820182.018	0.000000e+000	0.000000e+000	-6.181556e-001	-3.227898e-001	0.000000e+000	0.000000e+000	0.000000e+000	0.000000e+000
4001840184.018	0.000000e+000	0.000000e+000	-6.206251e-001	-3.182083e-001	0.000000e+000	0.000000e+000	0.000000e+000	0.000000e+000
4001860186.019	0.000000e+000	0.000000e+000	-6.228923e-001	-3.135402e-001	0.000000e+000	0.000000e+000	0.000000e+000	0.000000e+000
4001880188.019	0.000000e+000	0.000000e+000	-6.252408e-001	-3.088989e-001	0.000000e+000	0.000000e+000	0.000000e+000	0.000000e+000
4001900190.019	0.000000e+000	0.000000e+000	-6.275720e-001	-3.042380e-001	0.000000e+000	0.000000e+000	0.000000e+000	0.000000e+000
4001920192.019	0.000000e+000	0.000000e+000	-6.298384e-001	-2.995235e-001	0.000000e+000	0.000000e+000	0.000000e+000	0.000000e+000
4001940194.019	0.000000e+000	0.000000e+000	-6.321245e-001	-2.947897e-001	0.000000e+000	0.000000e+000	0.000000e+000	0.000000e+000
4001960196.020	0.000000e+000	0.000000e+000	-6.344168e-001	-2.901488e-001	0.000000e+000	0.000000e+000	0.000000e+000	0.000000e+000
4001980198.020	0.000000e+000	0.000000e+000	-6.365990e-001	-2.854844e-001	0.000000e+000	0.000000e+000	0.000000e+000	0.000000e+000
4002000200.020	0.000000e+000	0.000000e+000	-6.387230e-001	-2.806967e-001	0.000000e+000	0.000000e+000	0.000000e+000	0.000000e+000
4002020202.020	0.000000e+000	0.000000e+000	-6.407476e-001	-2.759057e-001	0.000000e+000	0.000000e+000	0.000000e+000	0.000000e+000
4002040204.020	0.000000e+000	0.000000e+000	-6.428034e-001	-2.711506e-001	0.000000e+000	0.000000e+000	0.000000e+000	0.000000e+000
4002060206.021	0.000000e+000	0.000000e+000	-6.448708e-001	-2.663649e-001	0.000000e+000	0.000000e+000	0.000000e+000	0.000000e+000
4002080208.021	0.000000e+000	0.000000e+000	-6.469195e-001	-2.615541e-001	0.000000e+000	0.000000e+000	0.000000e+000	0.000000e+000
4002100210.021	0.000000e+000	0.000000e+000	-6.489823e-001	-2.567153e-001	0.000000e+000	0.000000e+000	0.000000e+000	0.000000e+000
4002120212.021	0.000000e+000	0.000000e+000	-6.509681e-001	-2.518739e-001	0.000000e+000	0.000000e+000	0.000000e+000	0.000000e+000
4002140214.021	0.000000e+000	0.000000e+000	-6.527080e-001	-2.470606e-001	0.000000e+000	0.000000e+000	0.000000e+000	0.000000e+000
4002160216.022	0.000000e+000	0.000000e+000	-6.545187e-001	-2.422337e-001	0.000000e+000	0.000000e+000	0.000000e+000	0.000000e+000
4002180218.022	0.000000e+000	0.000000e+000	-6.563617e-001	-2.373390e-001	0.000000e+000	0.000000e+000	0.000000e+000	0.000000e+000
4002200220.022	0.000000e+000	0.000000e+000	-6.581268e-001	-2.324564e-001	0.000000e+000	0.000000e+000	0.000000e+000	0.000000e+000
4002220222.022	0.000000e+000	0.000000e+000	-6.599484e-001	-2.275923e-001	0.000000e+000	0.000000e+000	0.000000e+000	0.000000e+000
4002240224.022	0.000000e+000	0.000000e+000	-6.615661e-001	-2.226001e-001	0.000000e+000	0.000000e+000	0.000000e+000	0.000000e+000
4002260226.023	0.000000e+000	0.000000e+000	-6.633010e-001	-2.177548e-001	0.000000e+000	0.000000e+000	0.000000e+000	0.000000e+000
4002280228.023	0.000000e+000	0.000000e+000	-6.648643e-001	-2.127818e-001	0.000000e+000	0.000000e+000	0.000000e+000	0.000000e+000
4002300230.023	0.000000e+000	0.000000e+000	-6.664793e-001	-2.078519e-001	0.000000e+000	0.000000e+000	0.000000e+000	0.000000e+000
4002320232.023	0.000000e+000	0.000000e+000	-6.680010e-001	-2.028883e-001	0.000000e+000	0.000000e+000	0.000000e+000	0.000000e+000
4002340234.023	0.000000e+000	0.000000e+000	-6.695659e-001	-1.978529e-001	0.000000e+000	0.000000e+000	0.000000e+000	0.000000e+000
4002360236.024	0.000000e+000	0.000000e+000	-6.710488e-001	-1.928979e-001	0.000000e+000	0.000000e+000	0.000000e+000	0.000000e+000
4002380238.024	0.000000e+000	0.000000e+000	-6.725453e-001	-1.878475e-001	0.000000e+000	0.000000e+000	0.000000e+000	0.000000e+000
4002400240.024	0.000000e+000	0.000000e+000	-6.739707e-001	-1.828938e-001	0.000000e+000	0.000000e+000	0.000000e+000	0.000000e+000
4002420242.024	0.000000e+000	0.000000e+000	-6.753516e-001	-1.778506e-001	0.000000e+000	0.000000e+000	0.000000e+000	0.000000e+000
4002440244.024	0.000000e+000	0.000000e+000	-6.767680e-001	-1.728098e-001	0.000000e+000	0.000000e+000	0.000000e+000	0.000000e+000
4002460246.025	0.000000e+000	0.000000e+000	-6.780248e-001	-1.678206e-001	0.000000e+000	0.000000e+000	0.000000e+000	0.000000e+000
4002480248.025	0.000000e+000	0.000000e+000	-6.793734e-001	-1.628163e-001	0.000000e+000	0.000000e+000	0.000000e+000	0.000000e+000
4002500250.025	0.000000e+000	0.000000e+000	-6.804951e-001	-1.577961e-001	0.000000e+000	0.000000e+000	0.000000e+000	0.000000e+000
4002520252.025	0.000000e+000	0.000000e+000	-6.817742e-001	-1.525912e-001	0.000000e+000	0.000000e+000	0.000000e+000	0.000000e+000
4002540254.025	0.000000e+000	0.000000e+000	-6.828338e-001	-1.475373e-001	0.000000e+000	0.000000e+000	0.000000e+000	0.000000e+000
4002560256.026	0.000000e+000	0.000000e+000	-6.839156e-001	-1.424675e-001	0.000000e+000	0.000000e+000	0.000000e+000	0.000000e+000
4002580258.026	0.000000e+000	0.000000e+000	-6.850390e-001	-1.372904e-001	0.000000e+000	0.000000e+000	0.000000e+000	0.000000e+000
4002600260.026	0.000000e+000	0.000000e+000	-6.860927e-001	-1.322847e-001	0.000000e+000	0.000000e+000	0.000000e+000	0.000000e+000
4002620262.026	0.000000e+000	0.000000e+000	-6.870916e-001	-1.271064e-001	0.000000e+000	0.000000e+000	0.000000e+000	0.000000e+000
4002640264.026	0.000000e+000	0.000000e+000	-6.880472e-001	-1.219598e-001	0.000000e+000	0.000000e+000	0.000000e+000	0.000000e+000
4002660266.027	0.000000e+000	0.000000e+000	-6.889017e-001	-1.168321e-001	0.000000e+000	0.000000e+000	0.000000e+000	0.000000e+000
4002680268.027	0.000000e+000	0.000000e+000	-6.897024e-001	-1.117351e-001	0.000000e+000	0.000000e+000	0.000000e+000	0.000000e+000
4002700270.027	0.000000e+000	0.000000e+000	-6.907269e-001	-1.065143e-001	0.000000e+000	0.000000e+000	0.000000e+000	0.000000e+000
4002720272.027	0.000000e+000	0.000000e+000	-6.914990e-001	-1.013618e-001	0.000000e+000	0.000000e+000	0.000000e+000	0.000000e+000
4002740274.027	0.000000e+000	0.000000e+000	-6.922795e-001	-9.630034e-002	0.000000e+000	0.000000e+000	0.000000e+000	0.000000e+000
4002760276.028	0.000000e+000	0.000000e+000	-6.929658e-001	-9.113303e-002	0.000000e+000	0.000000e+000	0.000000e+000	0.000000e+000
4002780278.028	0.000000e+000	0.000000e+000	-6.937176e-001	-8.594963e-002	0.000000e+000	0.000000e+000	0.000000e+000	0.000000e+000
4002800280.028	0.000000e+000	0.000000e+000	-6.943801e-001	-8.072886e-002	0.000000e+000	0.000000e+000	0.000000e+000	0.000000e+000
4002820282.028	0.000000e+000	0.000000e+000	-6.950130e-001	-7.553025e-002	0.000000e+000	0.000000e+000	0.000000e+000	0.000000e+000
4002840284.028	0.000000e+000	0.000000e+000	-6.955401e-001	-7.038673e-002	0.000000e+000	0.000000e+000	0.000000e+000	0.000000e+000
4002860286.029	0.000000e+000	0.000000e+000	-6.960865e-001	-6.510942e-002	0.000000e+000	0.000000e+000	0.000000e+000	0.000000e+000
4002880288.029	0.000000e+000	0.000000e+000	-6.966330e-001	-5.995996e-002	0.000000e+000	0.000000e+000	0.000000e+000	0.000000e+000
4002900290.029	0.000000e+000	0.000000e+000	-6.970725e-001	-5.474843e-002	0.000000e+000	0.000000e+000	0.000000e+000	0.000000e+000
4002920292.029	0.000000e+000	0.000000e+000	-6.974862e-001	-4.951524e-002	0.000000e+000	0.000000e+000	0.000000e+000	0.000000e+000
4002940294.029	0.000000e+000	0.000000e+000	-6.977410e-001	-4.440092e-002	0.000000e+000	0.000000e+000	0.000000e+000	0.000000e+000
4002960296.030	0.000000e+000	0.000000e+000	-6.980424e-001	-3.916815e-002	0.000000e+000	0.000000e+000	0.000000e+000	0.000000e+000
4002980298.030	0.000000e+000	0.000000e+000	-6.983406e-001	-3.403082e-002	0.000000e+000	0.000000e+000	0.000000e+000	0.000000e+000
4003000300.030	0.000000e+000	0.000000e+000	-6.987955e-001	-2.877702e-002	0.000000e+000	0.000000e+000	0.000000e+000	0.000000e+000
4003020302.030	0.000000e+000	0.000000e+000	-6.989939e-001	-2.358400e-002	0.000000e+000	0.000000e+000	0.000000e+000	0.000000e+000
