!Keysight Technologies,E5063A,MY54502693,A.05.04
!Date: Sat Feb 27 16:28:33 2021
!Data & Calibration Information:
!Freq	S11:NONE(--)	S21:NONE(--)	S12:NONE(--)	S22:NONE(--)
# Hz S RI R 50
5400000000.000	0.000000e+000	0.000000e+000	-2.982477e-001	-4.306379e-002	0.000000e+000	0.000000e+000	0.000000e+000	0.000000e+000
5400020002.000	0.000000e+000	0.000000e+000	-2.996428e-001	-3.826334e-002	0.000000e+000	0.000000e+000	0.000000e+000	0.000000e+000
5400040004.000	0.000000e+000	0.000000e+000	-3.009468e-001	-3.364091e-002	0.000000e+000	0.000000e+000	0.000000e+000	0.000000e+000
5400060006.001	0.000000e+000	0.000000e+000	-3.018547e-001	-2.930112e-002	0.000000e+000	0.000000e+000	0.000000e+000	0.000000e+000
5400080008.001	0.000000e+000	0.000000e+000	-3.028552e-001	-2.497903e-002	0.000000e+000	0.000000e+000	0.000000e+000	0.000000e+000
5400100010.001	0.000000e+000	0.000000e+000	-3.034742e-001	-2.088889e-002	0.000000e+000	0.000000e+000	0.000000e+000	0.000000e+000
5400120012.001	0.000000e+000	0.000000e+000	-3.040234e-001	-1.700226e-002	0.000000e+000	0.000000e+000	0.000000e+000	0.000000e+000
5400140014.001	0.000000e+000	0.000000e+000	-3.044427e-001	-1.309147e-002	0.000000e+000	0.000000e+000	0.000000e+000	0.000000e+000
5400160016.002	0.000000e+000	0.000000e+000	-3.047968e-001	-9.347937e-003	0.000000e+000	0.000000e+000	0.000000e+000	0.000000e+000
5400180018.002	0.000000e+000	0.000000e+000	-3.051261e-001	-5.790524e-003	0.000000e+000	0.000000e+000	0.000000e+000	0.000000e+000
5400200020.002	0.000000e+000	0.000000e+000	-3.053163e-001	-2.291196e-003	0.000000e+000	0.000000e+000	0.000000e+000	0.000000e+000
5400220022.002	0.000000e+000	0.000000e+000	-3.054456e-001	1.320799e-003	0.000000e+000	0.000000e+000	0.000000e+000	0.000000e+000
5400240024.002	0.000000e+000	0.000000e+000	-3.056684e-001	4.840906e-003	0.000000e+000	0.000000e+000	0.000000e+000	0.000000e+000
5400260026.003	0.000000e+000	0.000000e+000	-3.056456e-001	8.149177e-003	0.000000e+000	0.000000e+000	0.000000e+000	0.000000e+000
5400280028.003	0.000000e+000	0.000000e+000	-3.056956e-001	1.152987e-002	0.000000e+000	0.000000e+000	0.000000e+000	0.000000e+000
5400300030.003	0.000000e+000	0.000000e+000	-3.055534e-001	1.465374e-002	0.000000e+000	0.000000e+000	0.000000e+000	0.000000e+000
5400320032.003	0.000000e+000	0.000000e+000	-3.055299e-001	1.800725e-002	0.000000e+000	0.000000e+000	0.000000e+000	0.000000e+000
5400340034.003	0.000000e+000	0.000000e+000	-3.053416e-001	2.113232e-002	0.000000e+000	0.000000e+000	0.000000e+000	0.000000e+000
5400360036.004	0.000000e+000	0.000000e+000	-3.052363e-001	2.440254e-002	0.000000e+000	0.000000e+000	0.000000e+000	0.000000e+000
5400380038.004	0.000000e+000	0.000000e+000	-3.050820e-001	2.751375e-002	0.000000e+000	0.000000e+000	0.000000e+000	0.000000e+000
5400400040.004	0.000000e+000	0.000000e+000	-3.049540e-001	3.053113e-002	0.000000e+000	0.000000e+000	0.000000e+000	0.000000e+000
5400420042.004	0.000000e+000	0.000000e+000	-3.045153e-001	3.380280e-002	0.000000e+000	0.000000e+000	0.000000e+000	0.000000e+000
5400440044.004	0.000000e+000	0.000000e+000	-3.042260e-001	3.675667e-002	0.000000e+000	0.000000e+000	0.000000e+000	0.000000e+000
5400460046.005	0.000000e+000	0.000000e+000	-3.039043e-001	3.983098e-002	0.000000e+000	0.000000e+000	0.000000e+000	0.000000e+000
5400480048.005	0.000000e+000	0.000000e+000	-3.034855e-001	4.290822e-002	0.000000e+000	0.000000e+000	0.000000e+000	0.000000e+000
5400500050.005	0.000000e+000	0.000000e+000	-3.031942e-001	4.596849e-002	0.000000e+000	0.000000e+000	0.000000e+000	0.000000e+000
5400520052.005	0.000000e+000	0.000000e+000	-3.027124e-001	4.897176e-002	0.000000e+000	0.000000e+000	0.000000e+000	0.000000e+000
5400540054.005	0.000000e+000	0.000000e+000	-3.022540e-001	5.222256e-002	0.000000e+000	0.000000e+000	0.000000e+000	0.000000e+000
5400560056.006	0.000000e+000	0.000000e+000	-3.017523e-001	5.510824e-002	0.000000e+000	0.000000e+000	0.000000e+000	0.000000e+000
5400580058.006	0.000000e+000	0.000000e+000	-3.013431e-001	5.815571e-002	0.000000e+000	0.000000e+000	0.000000e+000	0.000000e+000
5400600060.006	0.000000e+000	0.000000e+000	-3.007244e-001	6.109118e-002	0.000000e+000	0.000000e+000	0.000000e+000	0.000000e+000
5400620062.006	0.000000e+000	0.000000e+000	-3.001790e-001	6.422188e-002	0.000000e+000	0.000000e+000	0.000000e+000	0.000000e+000
5400640064.006	0.000000e+000	0.000000e+000	-2.995390e-001	6.732413e-002	0.000000e+000	0.000000e+000	0.000000e+000	0.000000e+000
5400660066.007	0.000000e+000	0.000000e+000	-2.988041e-001	7.036606e-002	0.000000e+000	0.000000e+000	0.000000e+000	0.000000e+000
5400680068.007	0.000000e+000	0.000000e+000	-2.982602e-001	7.344371e-002	0.000000e+000	0.000000e+000	0.000000e+000	0.000000e+000
5400700070.007	0.000000e+000	0.000000e+000	-2.975035e-001	7.664699e-002	0.000000e+000	0.000000e+000	0.000000e+000	0.000000e+000
5400720072.007	0.000000e+000	0.000000e+000	-2.966442e-001	7.987237e-002	0.000000e+000	0.000000e+000	0.000000e+000	0.000000e+000
5400740074.007	0.000000e+000	0.000000e+000	-2.957489e-001	8.294831e-002	0.000000e+000	0.000000e+000	0.000000e+000	0.000000e+000
5400760076.008	0.000000e+000	0.000000e+000	-2.949695e-001	8.625323e-002	0.000000e+000	0.000000e+000	0.000000e+000	0.000000e+000
5400780078.008	0.000000e+000	0.000000e+000	-2.940253e-001	8.969943e-002	0.000000e+000	0.000000e+000	0.000000e+000	0.000000e+000
5400800080.008	0.000000e+000	0.000000e+000	-2.929764e-001	9.295847e-002	0.000000e+000	0.000000e+000	0.000000e+000	0.000000e+000
5400820082.008	0.000000e+000	0.000000e+000	-2.918498e-001	9.643145e-002	0.000000e+000	0.000000e+000	0.000000e+000	0.000000e+000
5400840084.008	0.000000e+000	0.000000e+000	-2.908262e-001	9.997062e-002	0.000000e+000	0.000000e+000	0.000000e+000	0.000000e+000
5400860086.009	0.000000e+000	0.000000e+000	-2.896072e-001	1.035216e-001	0.000000e+000	0.000000e+000	0.000000e+000	0.000000e+000
5400880088.009	0.000000e+000	0.000000e+000	-2.881192e-001	1.073543e-001	0.000000e+000	0.000000e+000	0.000000e+000	0.000000e+000
5400900090.009	0.000000e+000	0.000000e+000	-2.866478e-001	1.112484e-001	0.000000e+000	0.000000e+000	0.000000e+000	0.000000e+000
5400920092.009	0.000000e+000	0.000000e+000	-2.849282e-001	1.153029e-001	0.000000e+000	0.000000e+000	0.000000e+000	0.000000e+000
5400940094.009	0.000000e+000	0.000000e+000	-2.831211e-001	1.194559e-001	0.000000e+000	0.000000e+000	0.000000e+000	0.000000e+000
5400960096.010	0.000000e+000	0.000000e+000	-2.809362e-001	1.239214e-001	0.000000e+000	0.000000e+000	0.000000e+000	0.000000e+000
5400980098.010	0.000000e+000	0.000000e+000	-2.785477e-001	1.287453e-001	0.000000e+000	0.000000e+000	0.000000e+000	0.000000e+000
5401000100.010	0.000000e+000	0.000000e+000	-2.756127e-001	1.338073e-001	0.000000e+000	0.000000e+000	0.000000e+000	0.000000e+000
5401020102.010	0.000000e+000	0.000000e+000	-2.721777e-001	1.391698e-001	0.000000e+000	0.000000e+000	0.000000e+000	0.000000e+000
5401040104.010	0.000000e+000	0.000000e+000	-2.679939e-001	1.452283e-001	0.000000e+000	0.000000e+000	0.000000e+000	0.000000e+000
5401060106.011	0.000000e+000	0.000000e+000	-2.626177e-001	1.514745e-001	0.000000e+000	0.000000e+000	0.000000e+000	0.000000e+000
5401080108.011	0.000000e+000	0.000000e+000	-2.557431e-001	1.582043e-001	0.000000e+000	0.000000e+000	0.000000e+000	0.000000e+000
5401100110.011	0.000000e+000	0.000000e+000	-2.466397e-001	1.651286e-001	0.000000e+000	0.000000e+000	0.000000e+000	0.000000e+000
5401120112.011	0.000000e+000	0.000000e+000	-2.343548e-001	1.718650e-001	0.000000e+000	0.000000e+000	0.000000e+000	0.000000e+000
5401140114.011	0.000000e+000	0.000000e+000	-2.175323e-001	1.769801e-001	0.000000e+000	0.000000e+000	0.000000e+000	0.000000e+000
5401160116.012	0.000000e+000	0.000000e+000	-1.946697e-001	1.770636e-001	0.000000e+000	0.000000e+000	0.000000e+000	0.000000e+000
5401180118.012	0.000000e+000	0.000000e+000	-1.671050e-001	1.658864e-001	0.000000e+000	0.000000e+000	0.000000e+000	0.000000e+000
5401200120.012	0.000000e+000	0.000000e+000	-1.435874e-001	1.366311e-001	0.000000e+000	0.000000e+000	0.000000e+000	0.000000e+000
5401220122.012	0.000000e+000	0.000000e+000	-1.409059e-001	9.332625e-002	0.000000e+000	0.000000e+000	0.000000e+000	0.000000e+000
5401240124.012	0.000000e+000	0.000000e+000	-1.655193e-001	5.738660e-002	0.000000e+000	0.000000e+000	0.000000e+000	0.000000e+000
5401260126.013	0.000000e+000	0.000000e+000	-1.990166e-001	4.514746e-002	0.000000e+000	0.000000e+000	0.000000e+000	0.000000e+000
5401280128.013	0.000000e+000	0.000000e+000	-2.252363e-001	4.922102e-002	0.000000e+000	0.000000e+000	0.000000e+000	0.000000e+000
5401300130.013	0.000000e+000	0.000000e+000	-2.418427e-001	5.880898e-002	0.000000e+000	0.000000e+000	0.000000e+000	0.000000e+000
5401320132.013	0.000000e+000	0.000000e+000	-2.518679e-001	6.893758e-002	0.000000e+000	0.000000e+000	0.000000e+000	0.000000e+000
5401340134.013	0.000000e+000	0.000000e+000	-2.575242e-001	7.794755e-002	0.000000e+000	0.000000e+000	0.000000e+000	0.000000e+000
5401360136.014	0.000000e+000	0.000000e+000	-2.611779e-001	8.610728e-002	0.000000e+000	0.000000e+000	0.000000e+000	0.000000e+000
5401380138.014	0.000000e+000	0.000000e+000	-2.631477e-001	9.314877e-002	0.000000e+000	0.000000e+000	0.000000e+000	0.000000e+000
5401400140.014	0.000000e+000	0.000000e+000	-2.643581e-001	9.938321e-002	0.000000e+000	0.000000e+000	0.000000e+000	0.000000e+000
5401420142.014	0.000000e+000	0.000000e+000	-2.649071e-001	1.050076e-001	0.000000e+000	0.000000e+000	0.000000e+000	0.000000e+000
5401440144.014	0.000000e+000	0.000000e+000	-2.649306e-001	1.100263e-001	0.000000e+000	0.000000e+000	0.000000e+000	0.000000e+000
5401460146.015	0.000000e+000	0.000000e+000	-2.647315e-001	1.147166e-001	0.000000e+000	0.000000e+000	0.000000e+000	0.000000e+000
5401480148.015	0.000000e+000	0.000000e+000	-2.642814e-001	1.189371e-001	0.000000e+000	0.000000e+000	0.000000e+000	0.000000e+000
5401500150.015	0.000000e+000	0.000000e+000	-2.637650e-001	1.229623e-001	0.000000e+000	0.000000e+000	0.000000e+000	0.000000e+000
5401520152.015	0.000000e+000	0.000000e+000	-2.630038e-001	1.266633e-001	0.000000e+000	0.000000e+000	0.000000e+000	0.000000e+000
5401540154.015	0.000000e+000	0.000000e+000	-2.621355e-001	1.303921e-001	0.000000e+000	0.000000e+000	0.000000e+000	0.000000e+000
5401560156.016	0.000000e+000	0.000000e+000	-2.612791e-001	1.338077e-001	0.000000e+000	0.000000e+000	0.000000e+000	0.000000e+000
5401580158.016	0.000000e+000	0.000000e+000	-2.601591e-001	1.370011e-001	0.000000e+000	0.000000e+000	0.000000e+000	0.000000e+000
5401600160.016	0.000000e+000	0.000000e+000	-2.591616e-001	1.399893e-001	0.000000e+000	0.000000e+000	0.000000e+000	0.000000e+000
5401620162.016	0.000000e+000	0.000000e+000	-2.581585e-001	1.430385e-001	0.000000e+000	0.000000e+000	0.000000e+000	0.000000e+000
5401640164.016	0.000000e+000	0.000000e+000	-2.569986e-001	1.461036e-001	0.000000e+000	0.000000e+000	0.000000e+000	0.000000e+000
5401660166.017	0.000000e+000	0.000000e+000	-2.558578e-001	1.488498e-001	0.000000e+000	0.000000e+000	0.000000e+000	0.000000e+000
5401680168.017	0.000000e+000	0.000000e+000	-2.546085e-001	1.516456e-001	0.000000e+000	0.000000e+000	0.000000e+000	0.000000e+000
5401700170.017	0.000000e+000	0.000000e+000	-2.534541e-001	1.542636e-001	0.000000e+000	0.000000e+000	0.000000e+000	0.000000e+000
5401720172.017	0.000000e+000	0.000000e+000	-2.520870e-001	1.567905e-001	0.000000e+000	0.000000e+000	0.000000e+000	0.000000e+000
5401740174.017	0.000000e+000	0.000000e+000	-2.508044e-001	1.594241e-001	0.000000e+000	0.000000e+000	0.000000e+000	0.000000e+000
5401760176.018	0.000000e+000	0.000000e+000	-2.494273e-001	1.618834e-001	0.000000e+000	0.000000e+000	0.000000e+000	0.000000e+000
5401780178.018	0.000000e+000	0.000000e+000	-2.481219e-001	1.643269e-001	0.000000e+000	0.000000e+000	0.000000e+000	0.000000e+000
5401800180.018	0.000000e+000	0.000000e+000	-2.468757e-001	1.667539e-001	0.000000e+000	0.000000e+000	0.000000e+000	0.000000e+000
5401820182.018	0.000000e+000	0.000000e+000	-2.454362e-001	1.690863e-001	0.000000e+000	0.000000e+000	0.000000e+000	0.000000e+000
5401840184.018	0.000000e+000	0.000000e+000	-2.439714e-001	1.713736e-001	0.000000e+000	0.000000e+000	0.000000e+000	0.000000e+000
5401860186.019	0.000000e+000	0.000000e+000	-2.424941e-001	1.736415e-001	0.000000e+000	0.000000e+000	0.000000e+000	0.000000e+000
5401880188.019	0.000000e+000	0.000000e+000	-2.411413e-001	1.759173e-001	0.000000e+000	0.000000e+000	0.000000e+000	0.000000e+000
5401900190.019	0.000000e+000	0.000000e+000	-2.396998e-001	1.780913e-001	0.000000e+000	0.000000e+000	0.000000e+000	0.000000e+000
5401920192.019	0.000000e+000	0.000000e+000	-2.381812e-001	1.802645e-001	0.000000e+000	0.000000e+000	0.000000e+000	0.000000e+000
5401940194.019	0.000000e+000	0.000000e+000	-2.368415e-001	1.824171e-001	0.000000e+000	0.000000e+000	0.000000e+000	0.000000e+000
5401960196.020	0.000000e+000	0.000000e+000	-2.353004e-001	1.845804e-001	0.000000e+000	0.000000e+000	0.000000e+000	0.000000e+000
5401980198.020	0.000000e+000	0.000000e+000	-2.336979e-001	1.866410e-001	0.000000e+000	0.000000e+000	0.000000e+000	0.000000e+000
5402000200.020	0.000000e+000	0.000000e+000	-2.322393e-001	1.886580e-001	0.000000e+000	0.000000e+000	0.000000e+000	0.000000e+000
5402020202.020	0.000000e+000	0.000000e+000	-2.305123e-001	1.906625e-001	0.000000e+000	0.000000e+000	0.000000e+000	0.000000e+000
5402040204.020	0.000000e+000	0.000000e+000	-2.291737e-001	1.927482e-001	0.000000e+000	0.000000e+000	0.000000e+000	0.000000e+000
5402060206.021	0.000000e+000	0.000000e+000	-2.274760e-001	1.947516e-001	0.000000e+000	0.000000e+000	0.000000e+000	0.000000e+000
5402080208.021	0.000000e+000	0.000000e+000	-2.259775e-001	1.967037e-001	0.000000e+000	0.000000e+000	0.000000e+000	0.000000e+000
5402100210.021	0.000000e+000	0.000000e+000	-2.243074e-001	1.985912e-001	0.000000e+000	0.000000e+000	0.000000e+000	0.000000e+000
5402120212.021	0.000000e+000	0.000000e+000	-2.226924e-001	2.004073e-001	0.000000e+000	0.000000e+000	0.000000e+000	0.000000e+000
5402140214.021	0.000000e+000	0.000000e+000	-2.210599e-001	2.024534e-001	0.000000e+000	0.000000e+000	0.000000e+000	0.000000e+000
5402160216.022	0.000000e+000	0.000000e+000	-2.194012e-001	2.043851e-001	0.000000e+000	0.000000e+000	0.000000e+000	0.000000e+000
5402180218.022	0.000000e+000	0.000000e+000	-2.177898e-001	2.062134e-001	0.000000e+000	0.000000e+000	0.000000e+000	0.000000e+000
5402200220.022	0.000000e+000	0.000000e+000	-2.161537e-001	2.080611e-001	0.000000e+000	0.000000e+000	0.000000e+000	0.000000e+000
5402220222.022	0.000000e+000	0.000000e+000	-2.143904e-001	2.098627e-001	0.000000e+000	0.000000e+000	0.000000e+000	0.000000e+000
5402240224.022	0.000000e+000	0.000000e+000	-2.126967e-001	2.116513e-001	0.000000e+000	0.000000e+000	0.000000e+000	0.000000e+000
5402260226.023	0.000000e+000	0.000000e+000	-2.110703e-001	2.133889e-001	0.000000e+000	0.000000e+000	0.000000e+000	0.000000e+000
5402280228.023	0.000000e+000	0.000000e+000	-2.092940e-001	2.151471e-001	0.000000e+000	0.000000e+000	0.000000e+000	0.000000e+000
5402300230.023	0.000000e+000	0.000000e+000	-2.074298e-001	2.169506e-001	0.000000e+000	0.000000e+000	0.000000e+000	0.000000e+000
5402320232.023	0.000000e+000	0.000000e+000	-2.057027e-001	2.186688e-001	0.000000e+000	0.000000e+000	0.000000e+000	0.000000e+000
5402340234.023	0.000000e+000	0.000000e+000	-2.039818e-001	2.204272e-001	0.000000e+000	0.000000e+000	0.000000e+000	0.000000e+000
5402360236.024	0.000000e+000	0.000000e+000	-2.023000e-001	2.219694e-001	0.000000e+000	0.000000e+000	0.000000e+000	0.000000e+000
5402380238.024	0.000000e+000	0.000000e+000	-2.005085e-001	2.237478e-001	0.000000e+000	0.000000e+000	0.000000e+000	0.000000e+000
5402400240.024	0.000000e+000	0.000000e+000	-1.986415e-001	2.253246e-001	0.000000e+000	0.000000e+000	0.000000e+000	0.000000e+000
5402420242.024	0.000000e+000	0.000000e+000	-1.968963e-001	2.270163e-001	0.000000e+000	0.000000e+000	0.000000e+000	0.000000e+000
5402440244.024	0.000000e+000	0.000000e+000	-1.950523e-001	2.286000e-001	0.000000e+000	0.000000e+000	0.000000e+000	0.000000e+000
5402460246.025	0.000000e+000	0.000000e+000	-1.932802e-001	2.302752e-001	0.000000e+000	0.000000e+000	0.000000e+000	0.000000e+000
5402480248.025	0.000000e+000	0.000000e+000	-1.914665e-001	2.318963e-001	0.000000e+000	0.000000e+000	0.000000e+000	0.000000e+000
5402500250.025	0.000000e+000	0.000000e+000	-1.894725e-001	2.334246e-001	0.000000e+000	0.000000e+000	0.000000e+000	0.000000e+000
5402520252.025	0.000000e+000	0.000000e+000	-1.875566e-001	2.349693e-001	0.000000e+000	0.000000e+000	0.000000e+000	0.000000e+000
5402540254.025	0.000000e+000	0.000000e+000	-1.857608e-001	2.364346e-001	0.000000e+000	0.000000e+000	0.000000e+000	0.000000e+000
5402560256.026	0.000000e+000	0.000000e+000	-1.838791e-001	2.380283e-001	0.000000e+000	0.000000e+000	0.000000e+000	0.000000e+000
5402580258.026	0.000000e+000	0.000000e+000	-1.819881e-001	2.395906e-001	0.000000e+000	0.000000e+000	0.000000e+000	0.000000e+000
5402600260.026	0.000000e+000	0.000000e+000	-1.801026e-001	2.409142e-001	0.000000e+000	0.000000e+000	0.000000e+000	0.000000e+000
5402620262.026	0.000000e+000	0.000000e+000	-1.781170e-001	2.424678e-001	0.000000e+000	0.000000e+000	0.000000e+000	0.000000e+000
5402640264.026	0.000000e+000	0.000000e+000	-1.761628e-001	2.438343e-001	0.000000e+000	0.000000e+000	0.000000e+000	0.000000e+000
5402660266.027	0.000000e+000	0.000000e+000	-1.742817e-001	2.452515e-001	0.000000e+000	0.000000e+000	0.000000e+000	0.000000e+000
5402680268.027	0.000000e+000	0.000000e+000	-1.722771e-001	2.466634e-001	0.000000e+000	0.000000e+000	0.000000e+000	0.000000e+000
5402700270.027	0.000000e+000	0.000000e+000	-1.703128e-001	2.481446e-001	0.000000e+000	0.000000e+000	0.000000e+000	0.000000e+000
5402720272.027	0.000000e+000	0.000000e+000	-1.684688e-001	2.496223e-001	0.000000e+000	0.000000e+000	0.000000e+000	0.000000e+000
5402740274.027	0.000000e+000	0.000000e+000	-1.664286e-001	2.508861e-001	0.000000e+000	0.000000e+000	0.000000e+000	0.000000e+000
5402760276.028	0.000000e+000	0.000000e+000	-1.644206e-001	2.523208e-001	0.000000e+000	0.000000e+000	0.000000e+000	0.000000e+000
5402780278.028	0.000000e+000	0.000000e+000	-1.623404e-001	2.536549e-001	0.000000e+000	0.000000e+000	0.000000e+000	0.000000e+000
5402800280.028	0.000000e+000	0.000000e+000	-1.602550e-001	2.549075e-001	0.000000e+000	0.000000e+000	0.000000e+000	0.000000e+000
5402820282.028	0.000000e+000	0.000000e+000	-1.582538e-001	2.561857e-001	0.000000e+000	0.000000e+000	0.000000e+000	0.000000e+000
5402840284.028	0.000000e+000	0.000000e+000	-1.563259e-001	2.575285e-001	0.000000e+000	0.000000e+000	0.000000e+000	0.000000e+000
5402860286.029	0.000000e+000	0.000000e+000	-1.542627e-001	2.588398e-001	0.000000e+000	0.000000e+000	0.000000e+000	0.000000e+000
5402880288.029	0.000000e+000	0.000000e+000	-1.522339e-001	2.601660e-001	0.000000e+000	0.000000e+000	0.000000e+000	0.000000e+000
5402900290.029	0.000000e+000	0.000000e+000	-1.500499e-001	2.614091e-001	0.000000e+000	0.000000e+000	0.000000e+000	0.000000e+000
5402920292.029	0.000000e+000	0.000000e+000	-1.479524e-001	2.625493e-001	0.000000e+000	0.000000e+000	0.000000e+000	0.000000e+000
5402940294.029	0.000000e+000	0.000000e+000	-1.458228e-001	2.638324e-001	0.000000e+000	0.000000e+000	0.000000e+000	0.000000e+000
5402960296.030	0.000000e+000	0.000000e+000	-1.438106e-001	2.649612e-001	0.000000e+000	0.000000e+000	0.000000e+000	0.000000e+000
5402980298.030	0.000000e+000	0.000000e+000	-1.416037e-001	2.662593e-001	0.000000e+000	0.000000e+000	0.000000e+000	0.000000e+000
5403000300.030	0.000000e+000	0.000000e+000	-1.395698e-001	2.674022e-001	0.000000e+000	0.000000e+000	0.000000e+000	0.000000e+000
5403020302.030	0.000000e+000	0.000000e+000	-1.373738e-001	2.686059e-001	0.000000e+000	0.000000e+000	0.000000e+000	0.000000e+000
5403040304.030	0.000000e+000	0.000000e+000	-1.352316e-001	2.695939e-001	0.000000e+000	0.000000e+000	0.000000e+000	0.000000e+000
