!Keysight Technologies,E5063A,MY54502693,A.05.04
!Date: Sat Feb 27 16:41:54 2021
!Data & Calibration Information:
!Freq	S11:NONE(--)	S21:NONE(--)	S12:NONE(--)	S22:NONE(--)
# Hz S RI R 50
6000000000.000	0.000000e+000	0.000000e+000	-1.504002e-001	1.628085e-001	0.000000e+000	0.000000e+000	0.000000e+000	0.000000e+000
6000020002.000	0.000000e+000	0.000000e+000	-1.492899e-001	1.640408e-001	0.000000e+000	0.000000e+000	0.000000e+000	0.000000e+000
6000040004.000	0.000000e+000	0.000000e+000	-1.482370e-001	1.651801e-001	0.000000e+000	0.000000e+000	0.000000e+000	0.000000e+000
6000060006.001	0.000000e+000	0.000000e+000	-1.468788e-001	1.661196e-001	0.000000e+000	0.000000e+000	0.000000e+000	0.000000e+000
6000080008.001	0.000000e+000	0.000000e+000	-1.457670e-001	1.673058e-001	0.000000e+000	0.000000e+000	0.000000e+000	0.000000e+000
6000100010.001	0.000000e+000	0.000000e+000	-1.446180e-001	1.684067e-001	0.000000e+000	0.000000e+000	0.000000e+000	0.000000e+000
6000120012.001	0.000000e+000	0.000000e+000	-1.434001e-001	1.695346e-001	0.000000e+000	0.000000e+000	0.000000e+000	0.000000e+000
6000140014.001	0.000000e+000	0.000000e+000	-1.420924e-001	1.706224e-001	0.000000e+000	0.000000e+000	0.000000e+000	0.000000e+000
6000160016.002	0.000000e+000	0.000000e+000	-1.409717e-001	1.716270e-001	0.000000e+000	0.000000e+000	0.000000e+000	0.000000e+000
6000180018.002	0.000000e+000	0.000000e+000	-1.397388e-001	1.727961e-001	0.000000e+000	0.000000e+000	0.000000e+000	0.000000e+000
6000200020.002	0.000000e+000	0.000000e+000	-1.385386e-001	1.738110e-001	0.000000e+000	0.000000e+000	0.000000e+000	0.000000e+000
6000220022.002	0.000000e+000	0.000000e+000	-1.372142e-001	1.748865e-001	0.000000e+000	0.000000e+000	0.000000e+000	0.000000e+000
6000240024.002	0.000000e+000	0.000000e+000	-1.359857e-001	1.759746e-001	0.000000e+000	0.000000e+000	0.000000e+000	0.000000e+000
6000260026.003	0.000000e+000	0.000000e+000	-1.348172e-001	1.768632e-001	0.000000e+000	0.000000e+000	0.000000e+000	0.000000e+000
6000280028.003	0.000000e+000	0.000000e+000	-1.335134e-001	1.780208e-001	0.000000e+000	0.000000e+000	0.000000e+000	0.000000e+000
6000300030.003	0.000000e+000	0.000000e+000	-1.321894e-001	1.788899e-001	0.000000e+000	0.000000e+000	0.000000e+000	0.000000e+000
6000320032.003	0.000000e+000	0.000000e+000	-1.309516e-001	1.800181e-001	0.000000e+000	0.000000e+000	0.000000e+000	0.000000e+000
6000340034.003	0.000000e+000	0.000000e+000	-1.296402e-001	1.810413e-001	0.000000e+000	0.000000e+000	0.000000e+000	0.000000e+000
6000360036.004	0.000000e+000	0.000000e+000	-1.283933e-001	1.819736e-001	0.000000e+000	0.000000e+000	0.000000e+000	0.000000e+000
6000380038.004	0.000000e+000	0.000000e+000	-1.270891e-001	1.829596e-001	0.000000e+000	0.000000e+000	0.000000e+000	0.000000e+000
6000400040.004	0.000000e+000	0.000000e+000	-1.258330e-001	1.839884e-001	0.000000e+000	0.000000e+000	0.000000e+000	0.000000e+000
6000420042.004	0.000000e+000	0.000000e+000	-1.244971e-001	1.849358e-001	0.000000e+000	0.000000e+000	0.000000e+000	0.000000e+000
6000440044.004	0.000000e+000	0.000000e+000	-1.231921e-001	1.858360e-001	0.000000e+000	0.000000e+000	0.000000e+000	0.000000e+000
6000460046.005	0.000000e+000	0.000000e+000	-1.218317e-001	1.868606e-001	0.000000e+000	0.000000e+000	0.000000e+000	0.000000e+000
6000480048.005	0.000000e+000	0.000000e+000	-1.205183e-001	1.877173e-001	0.000000e+000	0.000000e+000	0.000000e+000	0.000000e+000
6000500050.005	0.000000e+000	0.000000e+000	-1.190720e-001	1.886689e-001	0.000000e+000	0.000000e+000	0.000000e+000	0.000000e+000
6000520052.005	0.000000e+000	0.000000e+000	-1.178812e-001	1.896029e-001	0.000000e+000	0.000000e+000	0.000000e+000	0.000000e+000
6000540054.005	0.000000e+000	0.000000e+000	-1.164243e-001	1.904303e-001	0.000000e+000	0.000000e+000	0.000000e+000	0.000000e+000
6000560056.006	0.000000e+000	0.000000e+000	-1.150606e-001	1.914792e-001	0.000000e+000	0.000000e+000	0.000000e+000	0.000000e+000
6000580058.006	0.000000e+000	0.000000e+000	-1.137772e-001	1.924026e-001	0.000000e+000	0.000000e+000	0.000000e+000	0.000000e+000
6000600060.006	0.000000e+000	0.000000e+000	-1.123596e-001	1.930441e-001	0.000000e+000	0.000000e+000	0.000000e+000	0.000000e+000
6000620062.006	0.000000e+000	0.000000e+000	-1.109303e-001	1.940421e-001	0.000000e+000	0.000000e+000	0.000000e+000	0.000000e+000
6000640064.006	0.000000e+000	0.000000e+000	-1.095956e-001	1.949006e-001	0.000000e+000	0.000000e+000	0.000000e+000	0.000000e+000
6000660066.007	0.000000e+000	0.000000e+000	-1.082294e-001	1.958340e-001	0.000000e+000	0.000000e+000	0.000000e+000	0.000000e+000
6000680068.007	0.000000e+000	0.000000e+000	-1.066942e-001	1.966016e-001	0.000000e+000	0.000000e+000	0.000000e+000	0.000000e+000
6000700070.007	0.000000e+000	0.000000e+000	-1.053056e-001	1.973893e-001	0.000000e+000	0.000000e+000	0.000000e+000	0.000000e+000
6000720072.007	0.000000e+000	0.000000e+000	-1.039974e-001	1.983450e-001	0.000000e+000	0.000000e+000	0.000000e+000	0.000000e+000
6000740074.007	0.000000e+000	0.000000e+000	-1.025119e-001	1.990453e-001	0.000000e+000	0.000000e+000	0.000000e+000	0.000000e+000
6000760076.008	0.000000e+000	0.000000e+000	-1.009776e-001	1.999016e-001	0.000000e+000	0.000000e+000	0.000000e+000	0.000000e+000
6000780078.008	0.000000e+000	0.000000e+000	-9.962010e-002	2.006475e-001	0.000000e+000	0.000000e+000	0.000000e+000	0.000000e+000
6000800080.008	0.000000e+000	0.000000e+000	-9.811413e-002	2.014339e-001	0.000000e+000	0.000000e+000	0.000000e+000	0.000000e+000
6000820082.008	0.000000e+000	0.000000e+000	-9.678804e-002	2.021881e-001	0.000000e+000	0.000000e+000	0.000000e+000	0.000000e+000
6000840084.008	0.000000e+000	0.000000e+000	-9.523661e-002	2.029164e-001	0.000000e+000	0.000000e+000	0.000000e+000	0.000000e+000
6000860086.009	0.000000e+000	0.000000e+000	-9.374555e-002	2.037484e-001	0.000000e+000	0.000000e+000	0.000000e+000	0.000000e+000
6000880088.009	0.000000e+000	0.000000e+000	-9.231695e-002	2.043844e-001	0.000000e+000	0.000000e+000	0.000000e+000	0.000000e+000
6000900090.009	0.000000e+000	0.000000e+000	-9.090969e-002	2.051056e-001	0.000000e+000	0.000000e+000	0.000000e+000	0.000000e+000
6000920092.009	0.000000e+000	0.000000e+000	-8.938372e-002	2.058730e-001	0.000000e+000	0.000000e+000	0.000000e+000	0.000000e+000
6000940094.009	0.000000e+000	0.000000e+000	-8.802266e-002	2.065496e-001	0.000000e+000	0.000000e+000	0.000000e+000	0.000000e+000
6000960096.010	0.000000e+000	0.000000e+000	-8.644981e-002	2.072924e-001	0.000000e+000	0.000000e+000	0.000000e+000	0.000000e+000
6000980098.010	0.000000e+000	0.000000e+000	-8.492275e-002	2.079823e-001	0.000000e+000	0.000000e+000	0.000000e+000	0.000000e+000
6001000100.010	0.000000e+000	0.000000e+000	-8.345076e-002	2.085705e-001	0.000000e+000	0.000000e+000	0.000000e+000	0.000000e+000
6001020102.010	0.000000e+000	0.000000e+000	-8.181275e-002	2.092463e-001	0.000000e+000	0.000000e+000	0.000000e+000	0.000000e+000
6001040104.010	0.000000e+000	0.000000e+000	-8.042864e-002	2.098710e-001	0.000000e+000	0.000000e+000	0.000000e+000	0.000000e+000
6001060106.011	0.000000e+000	0.000000e+000	-7.891230e-002	2.106397e-001	0.000000e+000	0.000000e+000	0.000000e+000	0.000000e+000
6001080108.011	0.000000e+000	0.000000e+000	-7.733491e-002	2.112395e-001	0.000000e+000	0.000000e+000	0.000000e+000	0.000000e+000
6001100110.011	0.000000e+000	0.000000e+000	-7.577381e-002	2.118161e-001	0.000000e+000	0.000000e+000	0.000000e+000	0.000000e+000
6001120112.011	0.000000e+000	0.000000e+000	-7.431091e-002	2.124329e-001	0.000000e+000	0.000000e+000	0.000000e+000	0.000000e+000
6001140114.011	0.000000e+000	0.000000e+000	-7.271195e-002	2.130564e-001	0.000000e+000	0.000000e+000	0.000000e+000	0.000000e+000
6001160116.012	0.000000e+000	0.000000e+000	-7.116661e-002	2.135913e-001	0.000000e+000	0.000000e+000	0.000000e+000	0.000000e+000
6001180118.012	0.000000e+000	0.000000e+000	-6.959653e-002	2.141720e-001	0.000000e+000	0.000000e+000	0.000000e+000	0.000000e+000
6001200120.012	0.000000e+000	0.000000e+000	-6.815511e-002	2.147081e-001	0.000000e+000	0.000000e+000	0.000000e+000	0.000000e+000
6001220122.012	0.000000e+000	0.000000e+000	-6.657669e-002	2.152985e-001	0.000000e+000	0.000000e+000	0.000000e+000	0.000000e+000
6001240124.012	0.000000e+000	0.000000e+000	-6.506471e-002	2.159242e-001	0.000000e+000	0.000000e+000	0.000000e+000	0.000000e+000
6001260126.013	0.000000e+000	0.000000e+000	-6.342039e-002	2.165319e-001	0.000000e+000	0.000000e+000	0.000000e+000	0.000000e+000
6001280128.013	0.000000e+000	0.000000e+000	-6.184996e-002	2.168615e-001	0.000000e+000	0.000000e+000	0.000000e+000	0.000000e+000
6001300130.013	0.000000e+000	0.000000e+000	-6.023262e-002	2.172901e-001	0.000000e+000	0.000000e+000	0.000000e+000	0.000000e+000
6001320132.013	0.000000e+000	0.000000e+000	-5.866679e-002	2.178916e-001	0.000000e+000	0.000000e+000	0.000000e+000	0.000000e+000
6001340134.013	0.000000e+000	0.000000e+000	-5.706589e-002	2.184007e-001	0.000000e+000	0.000000e+000	0.000000e+000	0.000000e+000
6001360136.014	0.000000e+000	0.000000e+000	-5.551611e-002	2.188495e-001	0.000000e+000	0.000000e+000	0.000000e+000	0.000000e+000
6001380138.014	0.000000e+000	0.000000e+000	-5.396701e-002	2.193184e-001	0.000000e+000	0.000000e+000	0.000000e+000	0.000000e+000
6001400140.014	0.000000e+000	0.000000e+000	-5.236125e-002	2.196856e-001	0.000000e+000	0.000000e+000	0.000000e+000	0.000000e+000
6001420142.014	0.000000e+000	0.000000e+000	-5.071256e-002	2.202359e-001	0.000000e+000	0.000000e+000	0.000000e+000	0.000000e+000
6001440144.014	0.000000e+000	0.000000e+000	-4.913705e-002	2.206661e-001	0.000000e+000	0.000000e+000	0.000000e+000	0.000000e+000
6001460146.015	0.000000e+000	0.000000e+000	-4.756218e-002	2.210239e-001	0.000000e+000	0.000000e+000	0.000000e+000	0.000000e+000
6001480148.015	0.000000e+000	0.000000e+000	-4.590050e-002	2.214411e-001	0.000000e+000	0.000000e+000	0.000000e+000	0.000000e+000
6001500150.015	0.000000e+000	0.000000e+000	-4.433634e-002	2.218397e-001	0.000000e+000	0.000000e+000	0.000000e+000	0.000000e+000
6001520152.015	0.000000e+000	0.000000e+000	-4.263725e-002	2.221654e-001	0.000000e+000	0.000000e+000	0.000000e+000	0.000000e+000
6001540154.015	0.000000e+000	0.000000e+000	-4.102882e-002	2.226537e-001	0.000000e+000	0.000000e+000	0.000000e+000	0.000000e+000
6001560156.016	0.000000e+000	0.000000e+000	-3.945458e-002	2.230403e-001	0.000000e+000	0.000000e+000	0.000000e+000	0.000000e+000
6001580158.016	0.000000e+000	0.000000e+000	-3.788274e-002	2.232925e-001	0.000000e+000	0.000000e+000	0.000000e+000	0.000000e+000
6001600160.016	0.000000e+000	0.000000e+000	-3.620934e-002	2.236626e-001	0.000000e+000	0.000000e+000	0.000000e+000	0.000000e+000
6001620162.016	0.000000e+000	0.000000e+000	-3.453488e-002	2.240220e-001	0.000000e+000	0.000000e+000	0.000000e+000	0.000000e+000
6001640164.016	0.000000e+000	0.000000e+000	-3.300147e-002	2.243521e-001	0.000000e+000	0.000000e+000	0.000000e+000	0.000000e+000
6001660166.017	0.000000e+000	0.000000e+000	-3.120653e-002	2.245358e-001	0.000000e+000	0.000000e+000	0.000000e+000	0.000000e+000
6001680168.017	0.000000e+000	0.000000e+000	-2.962759e-002	2.247701e-001	0.000000e+000	0.000000e+000	0.000000e+000	0.000000e+000
6001700170.017	0.000000e+000	0.000000e+000	-2.793791e-002	2.251395e-001	0.000000e+000	0.000000e+000	0.000000e+000	0.000000e+000
6001720172.017	0.000000e+000	0.000000e+000	-2.643407e-002	2.254037e-001	0.000000e+000	0.000000e+000	0.000000e+000	0.000000e+000
6001740174.017	0.000000e+000	0.000000e+000	-2.479863e-002	2.256712e-001	0.000000e+000	0.000000e+000	0.000000e+000	0.000000e+000
6001760176.018	0.000000e+000	0.000000e+000	-2.310517e-002	2.258744e-001	0.000000e+000	0.000000e+000	0.000000e+000	0.000000e+000
6001780178.018	0.000000e+000	0.000000e+000	-2.154519e-002	2.260644e-001	0.000000e+000	0.000000e+000	0.000000e+000	0.000000e+000
6001800180.018	0.000000e+000	0.000000e+000	-1.979478e-002	2.263350e-001	0.000000e+000	0.000000e+000	0.000000e+000	0.000000e+000
6001820182.018	0.000000e+000	0.000000e+000	-1.804781e-002	2.265221e-001	0.000000e+000	0.000000e+000	0.000000e+000	0.000000e+000
6001840184.018	0.000000e+000	0.000000e+000	-1.637017e-002	2.266844e-001	0.000000e+000	0.000000e+000	0.000000e+000	0.000000e+000
6001860186.019	0.000000e+000	0.000000e+000	-1.481236e-002	2.269048e-001	0.000000e+000	0.000000e+000	0.000000e+000	0.000000e+000
6001880188.019	0.000000e+000	0.000000e+000	-1.315222e-002	2.270665e-001	0.000000e+000	0.000000e+000	0.000000e+000	0.000000e+000
6001900190.019	0.000000e+000	0.000000e+000	-1.145745e-002	2.272722e-001	0.000000e+000	0.000000e+000	0.000000e+000	0.000000e+000
6001920192.019	0.000000e+000	0.000000e+000	-9.861766e-003	2.274034e-001	0.000000e+000	0.000000e+000	0.000000e+000	0.000000e+000
6001940194.019	0.000000e+000	0.000000e+000	-8.161846e-003	2.275294e-001	0.000000e+000	0.000000e+000	0.000000e+000	0.000000e+000
6001960196.020	0.000000e+000	0.000000e+000	-6.519644e-003	2.276226e-001	0.000000e+000	0.000000e+000	0.000000e+000	0.000000e+000
6001980198.020	0.000000e+000	0.000000e+000	-4.811259e-003	2.276543e-001	0.000000e+000	0.000000e+000	0.000000e+000	0.000000e+000
6002000200.020	0.000000e+000	0.000000e+000	-3.253050e-003	2.278042e-001	0.000000e+000	0.000000e+000	0.000000e+000	0.000000e+000
6002020202.020	0.000000e+000	0.000000e+000	-1.547312e-003	2.279374e-001	0.000000e+000	0.000000e+000	0.000000e+000	0.000000e+000
6002040204.020	0.000000e+000	0.000000e+000	1.807738e-004	2.278788e-001	0.000000e+000	0.000000e+000	0.000000e+000	0.000000e+000
6002060206.021	0.000000e+000	0.000000e+000	1.896904e-003	2.278677e-001	0.000000e+000	0.000000e+000	0.000000e+000	0.000000e+000
6002080208.021	0.000000e+000	0.000000e+000	3.540816e-003	2.280141e-001	0.000000e+000	0.000000e+000	0.000000e+000	0.000000e+000
6002100210.021	0.000000e+000	0.000000e+000	5.318775e-003	2.280339e-001	0.000000e+000	0.000000e+000	0.000000e+000	0.000000e+000
6002120212.021	0.000000e+000	0.000000e+000	6.823604e-003	2.281262e-001	0.000000e+000	0.000000e+000	0.000000e+000	0.000000e+000
6002140214.021	0.000000e+000	0.000000e+000	8.524418e-003	2.280921e-001	0.000000e+000	0.000000e+000	0.000000e+000	0.000000e+000
6002160216.022	0.000000e+000	0.000000e+000	1.023286e-002	2.280152e-001	0.000000e+000	0.000000e+000	0.000000e+000	0.000000e+000
6002180218.022	0.000000e+000	0.000000e+000	1.192484e-002	2.281357e-001	0.000000e+000	0.000000e+000	0.000000e+000	0.000000e+000
6002200220.022	0.000000e+000	0.000000e+000	1.362886e-002	2.280715e-001	0.000000e+000	0.000000e+000	0.000000e+000	0.000000e+000
6002220222.022	0.000000e+000	0.000000e+000	1.537118e-002	2.280952e-001	0.000000e+000	0.000000e+000	0.000000e+000	0.000000e+000
6002240224.022	0.000000e+000	0.000000e+000	1.704987e-002	2.280752e-001	0.000000e+000	0.000000e+000	0.000000e+000	0.000000e+000
6002260226.023	0.000000e+000	0.000000e+000	1.866195e-002	2.279130e-001	0.000000e+000	0.000000e+000	0.000000e+000	0.000000e+000
6002280228.023	0.000000e+000	0.000000e+000	2.034686e-002	2.278854e-001	0.000000e+000	0.000000e+000	0.000000e+000	0.000000e+000
6002300230.023	0.000000e+000	0.000000e+000	2.199651e-002	2.276248e-001	0.000000e+000	0.000000e+000	0.000000e+000	0.000000e+000
6002320232.023	0.000000e+000	0.000000e+000	2.370422e-002	2.276054e-001	0.000000e+000	0.000000e+000	0.000000e+000	0.000000e+000
6002340234.023	0.000000e+000	0.000000e+000	2.524267e-002	2.274482e-001	0.000000e+000	0.000000e+000	0.000000e+000	0.000000e+000
6002360236.024	0.000000e+000	0.000000e+000	2.709284e-002	2.272574e-001	0.000000e+000	0.000000e+000	0.000000e+000	0.000000e+000
6002380238.024	0.000000e+000	0.000000e+000	2.866649e-002	2.271758e-001	0.000000e+000	0.000000e+000	0.000000e+000	0.000000e+000
6002400240.024	0.000000e+000	0.000000e+000	3.034124e-002	2.270395e-001	0.000000e+000	0.000000e+000	0.000000e+000	0.000000e+000
6002420242.024	0.000000e+000	0.000000e+000	3.206937e-002	2.269233e-001	0.000000e+000	0.000000e+000	0.000000e+000	0.000000e+000
6002440244.024	0.000000e+000	0.000000e+000	3.370001e-002	2.267251e-001	0.000000e+000	0.000000e+000	0.000000e+000	0.000000e+000
6002460246.025	0.000000e+000	0.000000e+000	3.544721e-002	2.265178e-001	0.000000e+000	0.000000e+000	0.000000e+000	0.000000e+000
6002480248.025	0.000000e+000	0.000000e+000	3.712027e-002	2.263269e-001	0.000000e+000	0.000000e+000	0.000000e+000	0.000000e+000
6002500250.025	0.000000e+000	0.000000e+000	3.883211e-002	2.260579e-001	0.000000e+000	0.000000e+000	0.000000e+000	0.000000e+000
6002520252.025	0.000000e+000	0.000000e+000	4.048284e-002	2.257659e-001	0.000000e+000	0.000000e+000	0.000000e+000	0.000000e+000
6002540254.025	0.000000e+000	0.000000e+000	4.218847e-002	2.255791e-001	0.000000e+000	0.000000e+000	0.000000e+000	0.000000e+000
6002560256.026	0.000000e+000	0.000000e+000	4.384343e-002	2.253723e-001	0.000000e+000	0.000000e+000	0.000000e+000	0.000000e+000
6002580258.026	0.000000e+000	0.000000e+000	4.548072e-002	2.250891e-001	0.000000e+000	0.000000e+000	0.000000e+000	0.000000e+000
6002600260.026	0.000000e+000	0.000000e+000	4.721423e-002	2.248175e-001	0.000000e+000	0.000000e+000	0.000000e+000	0.000000e+000
6002620262.026	0.000000e+000	0.000000e+000	4.880668e-002	2.246077e-001	0.000000e+000	0.000000e+000	0.000000e+000	0.000000e+000
6002640264.026	0.000000e+000	0.000000e+000	5.042587e-002	2.242857e-001	0.000000e+000	0.000000e+000	0.000000e+000	0.000000e+000
6002660266.027	0.000000e+000	0.000000e+000	5.214061e-002	2.238683e-001	0.000000e+000	0.000000e+000	0.000000e+000	0.000000e+000
6002680268.027	0.000000e+000	0.000000e+000	5.374972e-002	2.235962e-001	0.000000e+000	0.000000e+000	0.000000e+000	0.000000e+000
6002700270.027	0.000000e+000	0.000000e+000	5.534468e-002	2.232467e-001	0.000000e+000	0.000000e+000	0.000000e+000	0.000000e+000
6002720272.027	0.000000e+000	0.000000e+000	5.698493e-002	2.229737e-001	0.000000e+000	0.000000e+000	0.000000e+000	0.000000e+000
6002740274.027	0.000000e+000	0.000000e+000	5.867988e-002	2.225302e-001	0.000000e+000	0.000000e+000	0.000000e+000	0.000000e+000
6002760276.028	0.000000e+000	0.000000e+000	6.052849e-002	2.222230e-001	0.000000e+000	0.000000e+000	0.000000e+000	0.000000e+000
6002780278.028	0.000000e+000	0.000000e+000	6.205455e-002	2.218402e-001	0.000000e+000	0.000000e+000	0.000000e+000	0.000000e+000
6002800280.028	0.000000e+000	0.000000e+000	6.369519e-002	2.214489e-001	0.000000e+000	0.000000e+000	0.000000e+000	0.000000e+000
6002820282.028	0.000000e+000	0.000000e+000	6.534210e-002	2.209443e-001	0.000000e+000	0.000000e+000	0.000000e+000	0.000000e+000
6002840284.028	0.000000e+000	0.000000e+000	6.702765e-002	2.205338e-001	0.000000e+000	0.000000e+000	0.000000e+000	0.000000e+000
6002860286.029	0.000000e+000	0.000000e+000	6.868844e-002	2.200830e-001	0.000000e+000	0.000000e+000	0.000000e+000	0.000000e+000
6002880288.029	0.000000e+000	0.000000e+000	7.028715e-002	2.197269e-001	0.000000e+000	0.000000e+000	0.000000e+000	0.000000e+000
6002900290.029	0.000000e+000	0.000000e+000	7.181429e-002	2.192613e-001	0.000000e+000	0.000000e+000	0.000000e+000	0.000000e+000
6002920292.029	0.000000e+000	0.000000e+000	7.347428e-002	2.187587e-001	0.000000e+000	0.000000e+000	0.000000e+000	0.000000e+000
6002940294.029	0.000000e+000	0.000000e+000	7.520522e-002	2.182210e-001	0.000000e+000	0.000000e+000	0.000000e+000	0.000000e+000
6002960296.030	0.000000e+000	0.000000e+000	7.676960e-002	2.177027e-001	0.000000e+000	0.000000e+000	0.000000e+000	0.000000e+000
6002980298.030	0.000000e+000	0.000000e+000	7.831267e-002	2.172656e-001	0.000000e+000	0.000000e+000	0.000000e+000	0.000000e+000
6003000300.030	0.000000e+000	0.000000e+000	7.997588e-002	2.167048e-001	0.000000e+000	0.000000e+000	0.000000e+000	0.000000e+000
6003020302.030	0.000000e+000	0.000000e+000	8.161267e-002	2.161605e-001	0.000000e+000	0.000000e+000	0.000000e+000	0.000000e+000
6003040304.030	0.000000e+000	0.000000e+000	8.321289e-002	2.155787e-001	0.000000e+000	0.000000e+000	0.000000e+000	0.000000e+000
