!Keysight Technologies,E5063A,MY54502693,A.05.04
!Date: Sat Feb 27 16:01:49 2021
!Data & Calibration Information:
!Freq	S11:NONE(--)	S21:NONE(--)	S12:NONE(--)	S22:NONE(--)
# Hz S RI R 50
4200000000.000	0.000000e+000	0.000000e+000	6.132287e-001	-3.398918e-001	0.000000e+000	0.000000e+000	0.000000e+000	0.000000e+000
4200020002.000	0.000000e+000	0.000000e+000	6.095758e-001	-3.459832e-001	0.000000e+000	0.000000e+000	0.000000e+000	0.000000e+000
4200040004.000	0.000000e+000	0.000000e+000	6.056672e-001	-3.518466e-001	0.000000e+000	0.000000e+000	0.000000e+000	0.000000e+000
4200060006.001	0.000000e+000	0.000000e+000	6.017340e-001	-3.577828e-001	0.000000e+000	0.000000e+000	0.000000e+000	0.000000e+000
4200080008.001	0.000000e+000	0.000000e+000	5.977337e-001	-3.635779e-001	0.000000e+000	0.000000e+000	0.000000e+000	0.000000e+000
4200100010.001	0.000000e+000	0.000000e+000	5.936902e-001	-3.694999e-001	0.000000e+000	0.000000e+000	0.000000e+000	0.000000e+000
4200120012.001	0.000000e+000	0.000000e+000	5.895401e-001	-3.753698e-001	0.000000e+000	0.000000e+000	0.000000e+000	0.000000e+000
4200140014.001	0.000000e+000	0.000000e+000	5.853478e-001	-3.812758e-001	0.000000e+000	0.000000e+000	0.000000e+000	0.000000e+000
4200160016.002	0.000000e+000	0.000000e+000	5.809398e-001	-3.869308e-001	0.000000e+000	0.000000e+000	0.000000e+000	0.000000e+000
4200180018.002	0.000000e+000	0.000000e+000	5.764417e-001	-3.927982e-001	0.000000e+000	0.000000e+000	0.000000e+000	0.000000e+000
4200200020.002	0.000000e+000	0.000000e+000	5.719113e-001	-3.986566e-001	0.000000e+000	0.000000e+000	0.000000e+000	0.000000e+000
4200220022.002	0.000000e+000	0.000000e+000	5.671303e-001	-4.044117e-001	0.000000e+000	0.000000e+000	0.000000e+000	0.000000e+000
4200240024.002	0.000000e+000	0.000000e+000	5.622596e-001	-4.101801e-001	0.000000e+000	0.000000e+000	0.000000e+000	0.000000e+000
4200260026.003	0.000000e+000	0.000000e+000	5.572835e-001	-4.160701e-001	0.000000e+000	0.000000e+000	0.000000e+000	0.000000e+000
4200280028.003	0.000000e+000	0.000000e+000	5.521693e-001	-4.218352e-001	0.000000e+000	0.000000e+000	0.000000e+000	0.000000e+000
4200300030.003	0.000000e+000	0.000000e+000	5.468500e-001	-4.275569e-001	0.000000e+000	0.000000e+000	0.000000e+000	0.000000e+000
4200320032.003	0.000000e+000	0.000000e+000	5.413710e-001	-4.332346e-001	0.000000e+000	0.000000e+000	0.000000e+000	0.000000e+000
4200340034.003	0.000000e+000	0.000000e+000	5.357992e-001	-4.390113e-001	0.000000e+000	0.000000e+000	0.000000e+000	0.000000e+000
4200360036.004	0.000000e+000	0.000000e+000	5.298743e-001	-4.447449e-001	0.000000e+000	0.000000e+000	0.000000e+000	0.000000e+000
4200380038.004	0.000000e+000	0.000000e+000	5.238750e-001	-4.505403e-001	0.000000e+000	0.000000e+000	0.000000e+000	0.000000e+000
4200400040.004	0.000000e+000	0.000000e+000	5.175396e-001	-4.563083e-001	0.000000e+000	0.000000e+000	0.000000e+000	0.000000e+000
4200420042.004	0.000000e+000	0.000000e+000	5.109257e-001	-4.620979e-001	0.000000e+000	0.000000e+000	0.000000e+000	0.000000e+000
4200440044.004	0.000000e+000	0.000000e+000	5.040415e-001	-4.678497e-001	0.000000e+000	0.000000e+000	0.000000e+000	0.000000e+000
4200460046.005	0.000000e+000	0.000000e+000	4.967689e-001	-4.737288e-001	0.000000e+000	0.000000e+000	0.000000e+000	0.000000e+000
4200480048.005	0.000000e+000	0.000000e+000	4.891645e-001	-4.793688e-001	0.000000e+000	0.000000e+000	0.000000e+000	0.000000e+000
4200500050.005	0.000000e+000	0.000000e+000	4.809973e-001	-4.852277e-001	0.000000e+000	0.000000e+000	0.000000e+000	0.000000e+000
4200520052.005	0.000000e+000	0.000000e+000	4.724353e-001	-4.910644e-001	0.000000e+000	0.000000e+000	0.000000e+000	0.000000e+000
4200540054.005	0.000000e+000	0.000000e+000	4.632669e-001	-4.968971e-001	0.000000e+000	0.000000e+000	0.000000e+000	0.000000e+000
4200560056.006	0.000000e+000	0.000000e+000	4.533911e-001	-5.026302e-001	0.000000e+000	0.000000e+000	0.000000e+000	0.000000e+000
4200580058.006	0.000000e+000	0.000000e+000	4.427865e-001	-5.084607e-001	0.000000e+000	0.000000e+000	0.000000e+000	0.000000e+000
4200600060.006	0.000000e+000	0.000000e+000	4.311606e-001	-5.140130e-001	0.000000e+000	0.000000e+000	0.000000e+000	0.000000e+000
4200620062.006	0.000000e+000	0.000000e+000	4.184856e-001	-5.195786e-001	0.000000e+000	0.000000e+000	0.000000e+000	0.000000e+000
4200640064.006	0.000000e+000	0.000000e+000	4.044328e-001	-5.248821e-001	0.000000e+000	0.000000e+000	0.000000e+000	0.000000e+000
4200660066.007	0.000000e+000	0.000000e+000	3.887512e-001	-5.298234e-001	0.000000e+000	0.000000e+000	0.000000e+000	0.000000e+000
4200680068.007	0.000000e+000	0.000000e+000	3.710358e-001	-5.340868e-001	0.000000e+000	0.000000e+000	0.000000e+000	0.000000e+000
4200700070.007	0.000000e+000	0.000000e+000	3.505505e-001	-5.373617e-001	0.000000e+000	0.000000e+000	0.000000e+000	0.000000e+000
4200720072.007	0.000000e+000	0.000000e+000	3.264336e-001	-5.392349e-001	0.000000e+000	0.000000e+000	0.000000e+000	0.000000e+000
4200740074.007	0.000000e+000	0.000000e+000	2.977464e-001	-5.382152e-001	0.000000e+000	0.000000e+000	0.000000e+000	0.000000e+000
4200760076.008	0.000000e+000	0.000000e+000	2.623695e-001	-5.318929e-001	0.000000e+000	0.000000e+000	0.000000e+000	0.000000e+000
4200780078.008	0.000000e+000	0.000000e+000	2.185355e-001	-5.157388e-001	0.000000e+000	0.000000e+000	0.000000e+000	0.000000e+000
4200800080.008	0.000000e+000	0.000000e+000	1.630992e-001	-4.770644e-001	0.000000e+000	0.000000e+000	0.000000e+000	0.000000e+000
4200820082.008	0.000000e+000	0.000000e+000	1.072118e-001	-3.948462e-001	0.000000e+000	0.000000e+000	0.000000e+000	0.000000e+000
4200840084.008	0.000000e+000	0.000000e+000	9.458289e-002	-2.579032e-001	0.000000e+000	0.000000e+000	0.000000e+000	0.000000e+000
4200860086.009	0.000000e+000	0.000000e+000	1.630913e-001	-1.304300e-001	0.000000e+000	0.000000e+000	0.000000e+000	0.000000e+000
4200880088.009	0.000000e+000	0.000000e+000	2.682949e-001	-6.888860e-002	0.000000e+000	0.000000e+000	0.000000e+000	0.000000e+000
4200900090.009	0.000000e+000	0.000000e+000	3.678232e-001	-6.169174e-002	0.000000e+000	0.000000e+000	0.000000e+000	0.000000e+000
4200920092.009	0.000000e+000	0.000000e+000	4.466093e-001	-8.687995e-002	0.000000e+000	0.000000e+000	0.000000e+000	0.000000e+000
4200940094.009	0.000000e+000	0.000000e+000	5.037526e-001	-1.285577e-001	0.000000e+000	0.000000e+000	0.000000e+000	0.000000e+000
4200960096.010	0.000000e+000	0.000000e+000	5.407465e-001	-1.759374e-001	0.000000e+000	0.000000e+000	0.000000e+000	0.000000e+000
4200980098.010	0.000000e+000	0.000000e+000	5.621053e-001	-2.224443e-001	0.000000e+000	0.000000e+000	0.000000e+000	0.000000e+000
4201000100.010	0.000000e+000	0.000000e+000	5.725217e-001	-2.661720e-001	0.000000e+000	0.000000e+000	0.000000e+000	0.000000e+000
4201020102.010	0.000000e+000	0.000000e+000	5.750470e-001	-3.050354e-001	0.000000e+000	0.000000e+000	0.000000e+000	0.000000e+000
4201040104.010	0.000000e+000	0.000000e+000	5.724966e-001	-3.385920e-001	0.000000e+000	0.000000e+000	0.000000e+000	0.000000e+000
4201060106.011	0.000000e+000	0.000000e+000	5.667406e-001	-3.679349e-001	0.000000e+000	0.000000e+000	0.000000e+000	0.000000e+000
4201080108.011	0.000000e+000	0.000000e+000	5.590308e-001	-3.930864e-001	0.000000e+000	0.000000e+000	0.000000e+000	0.000000e+000
4201100110.011	0.000000e+000	0.000000e+000	5.504283e-001	-4.142803e-001	0.000000e+000	0.000000e+000	0.000000e+000	0.000000e+000
4201120112.011	0.000000e+000	0.000000e+000	5.413747e-001	-4.326913e-001	0.000000e+000	0.000000e+000	0.000000e+000	0.000000e+000
4201140114.011	0.000000e+000	0.000000e+000	5.320949e-001	-4.490325e-001	0.000000e+000	0.000000e+000	0.000000e+000	0.000000e+000
4201160116.012	0.000000e+000	0.000000e+000	5.229724e-001	-4.630573e-001	0.000000e+000	0.000000e+000	0.000000e+000	0.000000e+000
4201180118.012	0.000000e+000	0.000000e+000	5.141893e-001	-4.757607e-001	0.000000e+000	0.000000e+000	0.000000e+000	0.000000e+000
4201200120.012	0.000000e+000	0.000000e+000	5.053872e-001	-4.872476e-001	0.000000e+000	0.000000e+000	0.000000e+000	0.000000e+000
4201220122.012	0.000000e+000	0.000000e+000	4.968702e-001	-4.974178e-001	0.000000e+000	0.000000e+000	0.000000e+000	0.000000e+000
4201240124.012	0.000000e+000	0.000000e+000	4.886464e-001	-5.067324e-001	0.000000e+000	0.000000e+000	0.000000e+000	0.000000e+000
4201260126.013	0.000000e+000	0.000000e+000	4.804769e-001	-5.152829e-001	0.000000e+000	0.000000e+000	0.000000e+000	0.000000e+000
4201280128.013	0.000000e+000	0.000000e+000	4.725215e-001	-5.231857e-001	0.000000e+000	0.000000e+000	0.000000e+000	0.000000e+000
4201300130.013	0.000000e+000	0.000000e+000	4.648769e-001	-5.306450e-001	0.000000e+000	0.000000e+000	0.000000e+000	0.000000e+000
4201320132.013	0.000000e+000	0.000000e+000	4.574156e-001	-5.375942e-001	0.000000e+000	0.000000e+000	0.000000e+000	0.000000e+000
4201340134.013	0.000000e+000	0.000000e+000	4.499914e-001	-5.441608e-001	0.000000e+000	0.000000e+000	0.000000e+000	0.000000e+000
4201360136.014	0.000000e+000	0.000000e+000	4.426523e-001	-5.502231e-001	0.000000e+000	0.000000e+000	0.000000e+000	0.000000e+000
4201380138.014	0.000000e+000	0.000000e+000	4.355060e-001	-5.561112e-001	0.000000e+000	0.000000e+000	0.000000e+000	0.000000e+000
4201400140.014	0.000000e+000	0.000000e+000	4.284700e-001	-5.615265e-001	0.000000e+000	0.000000e+000	0.000000e+000	0.000000e+000
4201420142.014	0.000000e+000	0.000000e+000	4.216254e-001	-5.668673e-001	0.000000e+000	0.000000e+000	0.000000e+000	0.000000e+000
4201440144.014	0.000000e+000	0.000000e+000	4.147237e-001	-5.719027e-001	0.000000e+000	0.000000e+000	0.000000e+000	0.000000e+000
4201460146.015	0.000000e+000	0.000000e+000	4.078978e-001	-5.768517e-001	0.000000e+000	0.000000e+000	0.000000e+000	0.000000e+000
4201480148.015	0.000000e+000	0.000000e+000	4.011911e-001	-5.815438e-001	0.000000e+000	0.000000e+000	0.000000e+000	0.000000e+000
4201500150.015	0.000000e+000	0.000000e+000	3.945842e-001	-5.859253e-001	0.000000e+000	0.000000e+000	0.000000e+000	0.000000e+000
4201520152.015	0.000000e+000	0.000000e+000	3.879606e-001	-5.902358e-001	0.000000e+000	0.000000e+000	0.000000e+000	0.000000e+000
4201540154.015	0.000000e+000	0.000000e+000	3.813368e-001	-5.944383e-001	0.000000e+000	0.000000e+000	0.000000e+000	0.000000e+000
4201560156.016	0.000000e+000	0.000000e+000	3.748501e-001	-5.984074e-001	0.000000e+000	0.000000e+000	0.000000e+000	0.000000e+000
4201580158.016	0.000000e+000	0.000000e+000	3.684338e-001	-6.022891e-001	0.000000e+000	0.000000e+000	0.000000e+000	0.000000e+000
4201600160.016	0.000000e+000	0.000000e+000	3.620570e-001	-6.060734e-001	0.000000e+000	0.000000e+000	0.000000e+000	0.000000e+000
4201620162.016	0.000000e+000	0.000000e+000	3.556403e-001	-6.097564e-001	0.000000e+000	0.000000e+000	0.000000e+000	0.000000e+000
4201640164.016	0.000000e+000	0.000000e+000	3.492411e-001	-6.132518e-001	0.000000e+000	0.000000e+000	0.000000e+000	0.000000e+000
4201660166.017	0.000000e+000	0.000000e+000	3.428554e-001	-6.165780e-001	0.000000e+000	0.000000e+000	0.000000e+000	0.000000e+000
4201680168.017	0.000000e+000	0.000000e+000	3.364611e-001	-6.200604e-001	0.000000e+000	0.000000e+000	0.000000e+000	0.000000e+000
4201700170.017	0.000000e+000	0.000000e+000	3.301722e-001	-6.233021e-001	0.000000e+000	0.000000e+000	0.000000e+000	0.000000e+000
4201720172.017	0.000000e+000	0.000000e+000	3.238311e-001	-6.264909e-001	0.000000e+000	0.000000e+000	0.000000e+000	0.000000e+000
4201740174.017	0.000000e+000	0.000000e+000	3.176237e-001	-6.295426e-001	0.000000e+000	0.000000e+000	0.000000e+000	0.000000e+000
4201760176.018	0.000000e+000	0.000000e+000	3.112488e-001	-6.324683e-001	0.000000e+000	0.000000e+000	0.000000e+000	0.000000e+000
4201780178.018	0.000000e+000	0.000000e+000	3.049910e-001	-6.353622e-001	0.000000e+000	0.000000e+000	0.000000e+000	0.000000e+000
4201800180.018	0.000000e+000	0.000000e+000	2.986614e-001	-6.382011e-001	0.000000e+000	0.000000e+000	0.000000e+000	0.000000e+000
4201820182.018	0.000000e+000	0.000000e+000	2.923648e-001	-6.410141e-001	0.000000e+000	0.000000e+000	0.000000e+000	0.000000e+000
4201840184.018	0.000000e+000	0.000000e+000	2.860832e-001	-6.436787e-001	0.000000e+000	0.000000e+000	0.000000e+000	0.000000e+000
4201860186.019	0.000000e+000	0.000000e+000	2.798163e-001	-6.463120e-001	0.000000e+000	0.000000e+000	0.000000e+000	0.000000e+000
4201880188.019	0.000000e+000	0.000000e+000	2.735906e-001	-6.487109e-001	0.000000e+000	0.000000e+000	0.000000e+000	0.000000e+000
4201900190.019	0.000000e+000	0.000000e+000	2.672471e-001	-6.510645e-001	0.000000e+000	0.000000e+000	0.000000e+000	0.000000e+000
4201920192.019	0.000000e+000	0.000000e+000	2.609197e-001	-6.534204e-001	0.000000e+000	0.000000e+000	0.000000e+000	0.000000e+000
4201940194.019	0.000000e+000	0.000000e+000	2.546013e-001	-6.557035e-001	0.000000e+000	0.000000e+000	0.000000e+000	0.000000e+000
4201960196.020	0.000000e+000	0.000000e+000	2.482215e-001	-6.578632e-001	0.000000e+000	0.000000e+000	0.000000e+000	0.000000e+000
4201980198.020	0.000000e+000	0.000000e+000	2.419606e-001	-6.601498e-001	0.000000e+000	0.000000e+000	0.000000e+000	0.000000e+000
4202000200.020	0.000000e+000	0.000000e+000	2.355593e-001	-6.621774e-001	0.000000e+000	0.000000e+000	0.000000e+000	0.000000e+000
4202020202.020	0.000000e+000	0.000000e+000	2.292486e-001	-6.641396e-001	0.000000e+000	0.000000e+000	0.000000e+000	0.000000e+000
4202040204.020	0.000000e+000	0.000000e+000	2.228433e-001	-6.661200e-001	0.000000e+000	0.000000e+000	0.000000e+000	0.000000e+000
4202060206.021	0.000000e+000	0.000000e+000	2.164593e-001	-6.680094e-001	0.000000e+000	0.000000e+000	0.000000e+000	0.000000e+000
4202080208.021	0.000000e+000	0.000000e+000	2.099839e-001	-6.698425e-001	0.000000e+000	0.000000e+000	0.000000e+000	0.000000e+000
4202100210.021	0.000000e+000	0.000000e+000	2.035526e-001	-6.716478e-001	0.000000e+000	0.000000e+000	0.000000e+000	0.000000e+000
4202120212.021	0.000000e+000	0.000000e+000	1.971432e-001	-6.733568e-001	0.000000e+000	0.000000e+000	0.000000e+000	0.000000e+000
4202140214.021	0.000000e+000	0.000000e+000	1.905903e-001	-6.750149e-001	0.000000e+000	0.000000e+000	0.000000e+000	0.000000e+000
4202160216.022	0.000000e+000	0.000000e+000	1.841062e-001	-6.765078e-001	0.000000e+000	0.000000e+000	0.000000e+000	0.000000e+000
4202180218.022	0.000000e+000	0.000000e+000	1.775105e-001	-6.780265e-001	0.000000e+000	0.000000e+000	0.000000e+000	0.000000e+000
4202200220.022	0.000000e+000	0.000000e+000	1.709281e-001	-6.794284e-001	0.000000e+000	0.000000e+000	0.000000e+000	0.000000e+000
4202220222.022	0.000000e+000	0.000000e+000	1.643363e-001	-6.808496e-001	0.000000e+000	0.000000e+000	0.000000e+000	0.000000e+000
4202240224.022	0.000000e+000	0.000000e+000	1.576846e-001	-6.821172e-001	0.000000e+000	0.000000e+000	0.000000e+000	0.000000e+000
4202260226.023	0.000000e+000	0.000000e+000	1.510293e-001	-6.833003e-001	0.000000e+000	0.000000e+000	0.000000e+000	0.000000e+000
4202280228.023	0.000000e+000	0.000000e+000	1.443795e-001	-6.845168e-001	0.000000e+000	0.000000e+000	0.000000e+000	0.000000e+000
4202300230.023	0.000000e+000	0.000000e+000	1.376794e-001	-6.855089e-001	0.000000e+000	0.000000e+000	0.000000e+000	0.000000e+000
4202320232.023	0.000000e+000	0.000000e+000	1.308366e-001	-6.866296e-001	0.000000e+000	0.000000e+000	0.000000e+000	0.000000e+000
4202340234.023	0.000000e+000	0.000000e+000	1.239490e-001	-6.875583e-001	0.000000e+000	0.000000e+000	0.000000e+000	0.000000e+000
4202360236.024	0.000000e+000	0.000000e+000	1.170543e-001	-6.883234e-001	0.000000e+000	0.000000e+000	0.000000e+000	0.000000e+000
4202380238.024	0.000000e+000	0.000000e+000	1.101296e-001	-6.890966e-001	0.000000e+000	0.000000e+000	0.000000e+000	0.000000e+000
4202400240.024	0.000000e+000	0.000000e+000	1.031454e-001	-6.898315e-001	0.000000e+000	0.000000e+000	0.000000e+000	0.000000e+000
4202420242.024	0.000000e+000	0.000000e+000	9.605429e-002	-6.904218e-001	0.000000e+000	0.000000e+000	0.000000e+000	0.000000e+000
4202440244.024	0.000000e+000	0.000000e+000	8.899247e-002	-6.907966e-001	0.000000e+000	0.000000e+000	0.000000e+000	0.000000e+000
4202460246.025	0.000000e+000	0.000000e+000	8.182028e-002	-6.912098e-001	0.000000e+000	0.000000e+000	0.000000e+000	0.000000e+000
4202480248.025	0.000000e+000	0.000000e+000	7.458477e-002	-6.914954e-001	0.000000e+000	0.000000e+000	0.000000e+000	0.000000e+000
4202500250.025	0.000000e+000	0.000000e+000	6.719773e-002	-6.917427e-001	0.000000e+000	0.000000e+000	0.000000e+000	0.000000e+000
4202520252.025	0.000000e+000	0.000000e+000	5.973696e-002	-6.917934e-001	0.000000e+000	0.000000e+000	0.000000e+000	0.000000e+000
4202540254.025	0.000000e+000	0.000000e+000	5.216414e-002	-6.917610e-001	0.000000e+000	0.000000e+000	0.000000e+000	0.000000e+000
4202560256.026	0.000000e+000	0.000000e+000	4.453946e-002	-6.914996e-001	0.000000e+000	0.000000e+000	0.000000e+000	0.000000e+000
4202580258.026	0.000000e+000	0.000000e+000	3.668445e-002	-6.911652e-001	0.000000e+000	0.000000e+000	0.000000e+000	0.000000e+000
4202600260.026	0.000000e+000	0.000000e+000	2.869660e-002	-6.906617e-001	0.000000e+000	0.000000e+000	0.000000e+000	0.000000e+000
4202620262.026	0.000000e+000	0.000000e+000	2.059029e-002	-6.901816e-001	0.000000e+000	0.000000e+000	0.000000e+000	0.000000e+000
4202640264.026	0.000000e+000	0.000000e+000	1.236503e-002	-6.893112e-001	0.000000e+000	0.000000e+000	0.000000e+000	0.000000e+000
4202660266.027	0.000000e+000	0.000000e+000	4.094115e-003	-6.882558e-001	0.000000e+000	0.000000e+000	0.000000e+000	0.000000e+000
4202680268.027	0.000000e+000	0.000000e+000	-4.510875e-003	-6.869523e-001	0.000000e+000	0.000000e+000	0.000000e+000	0.000000e+000
4202700270.027	0.000000e+000	0.000000e+000	-1.345670e-002	-6.852991e-001	0.000000e+000	0.000000e+000	0.000000e+000	0.000000e+000
4202720272.027	0.000000e+000	0.000000e+000	-2.244638e-002	-6.833746e-001	0.000000e+000	0.000000e+000	0.000000e+000	0.000000e+000
4202740274.027	0.000000e+000	0.000000e+000	-3.178111e-002	-6.811451e-001	0.000000e+000	0.000000e+000	0.000000e+000	0.000000e+000
4202760276.028	0.000000e+000	0.000000e+000	-4.146449e-002	-6.786830e-001	0.000000e+000	0.000000e+000	0.000000e+000	0.000000e+000
4202780278.028	0.000000e+000	0.000000e+000	-5.147610e-002	-6.754697e-001	0.000000e+000	0.000000e+000	0.000000e+000	0.000000e+000
4202800280.028	0.000000e+000	0.000000e+000	-6.176368e-002	-6.717650e-001	0.000000e+000	0.000000e+000	0.000000e+000	0.000000e+000
4202820282.028	0.000000e+000	0.000000e+000	-7.252185e-002	-6.673163e-001	0.000000e+000	0.000000e+000	0.000000e+000	0.000000e+000
4202840284.028	0.000000e+000	0.000000e+000	-8.370583e-002	-6.619392e-001	0.000000e+000	0.000000e+000	0.000000e+000	0.000000e+000
4202860286.029	0.000000e+000	0.000000e+000	-9.540524e-002	-6.555412e-001	0.000000e+000	0.000000e+000	0.000000e+000	0.000000e+000
4202880288.029	0.000000e+000	0.000000e+000	-1.076946e-001	-6.476163e-001	0.000000e+000	0.000000e+000	0.000000e+000	0.000000e+000
4202900290.029	0.000000e+000	0.000000e+000	-1.205070e-001	-6.379760e-001	0.000000e+000	0.000000e+000	0.000000e+000	0.000000e+000
4202920292.029	0.000000e+000	0.000000e+000	-1.335127e-001	-6.260512e-001	0.000000e+000	0.000000e+000	0.000000e+000	0.000000e+000
4202940294.029	0.000000e+000	0.000000e+000	-1.468489e-001	-6.109123e-001	0.000000e+000	0.000000e+000	0.000000e+000	0.000000e+000
4202960296.030	0.000000e+000	0.000000e+000	-1.598909e-001	-5.914868e-001	0.000000e+000	0.000000e+000	0.000000e+000	0.000000e+000
4202980298.030	0.000000e+000	0.000000e+000	-1.717359e-001	-5.661306e-001	0.000000e+000	0.000000e+000	0.000000e+000	0.000000e+000
4203000300.030	0.000000e+000	0.000000e+000	-1.796739e-001	-5.327052e-001	0.000000e+000	0.000000e+000	0.000000e+000	0.000000e+000
4203020302.030	0.000000e+000	0.000000e+000	-1.785144e-001	-4.886564e-001	0.000000e+000	0.000000e+000	0.000000e+000	0.000000e+000
4203040304.030	0.000000e+000	0.000000e+000	-1.588949e-001	-4.361155e-001	0.000000e+000	0.000000e+000	0.000000e+000	0.000000e+000
