!Keysight Technologies,E5063A,MY54502693,A.05.04
!Date: Sat Feb 27 16:06:17 2021
!Data & Calibration Information:
!Freq	S11:NONE(--)	S21:NONE(--)	S12:NONE(--)	S22:NONE(--)
# Hz S RI R 50
4400000000.000	0.000000e+000	0.000000e+000	1.609323e-001	4.874998e-001	0.000000e+000	0.000000e+000	0.000000e+000	0.000000e+000
4400020002.000	0.000000e+000	0.000000e+000	1.651474e-001	4.855458e-001	0.000000e+000	0.000000e+000	0.000000e+000	0.000000e+000
4400040004.000	0.000000e+000	0.000000e+000	1.694701e-001	4.834051e-001	0.000000e+000	0.000000e+000	0.000000e+000	0.000000e+000
4400060006.001	0.000000e+000	0.000000e+000	1.738889e-001	4.813689e-001	0.000000e+000	0.000000e+000	0.000000e+000	0.000000e+000
4400080008.001	0.000000e+000	0.000000e+000	1.782214e-001	4.791509e-001	0.000000e+000	0.000000e+000	0.000000e+000	0.000000e+000
4400100010.001	0.000000e+000	0.000000e+000	1.825700e-001	4.770995e-001	0.000000e+000	0.000000e+000	0.000000e+000	0.000000e+000
4400120012.001	0.000000e+000	0.000000e+000	1.870039e-001	4.748151e-001	0.000000e+000	0.000000e+000	0.000000e+000	0.000000e+000
4400140014.001	0.000000e+000	0.000000e+000	1.912604e-001	4.725376e-001	0.000000e+000	0.000000e+000	0.000000e+000	0.000000e+000
4400160016.002	0.000000e+000	0.000000e+000	1.954863e-001	4.699841e-001	0.000000e+000	0.000000e+000	0.000000e+000	0.000000e+000
4400180018.002	0.000000e+000	0.000000e+000	1.998148e-001	4.676109e-001	0.000000e+000	0.000000e+000	0.000000e+000	0.000000e+000
4400200020.002	0.000000e+000	0.000000e+000	2.041274e-001	4.650518e-001	0.000000e+000	0.000000e+000	0.000000e+000	0.000000e+000
4400220022.002	0.000000e+000	0.000000e+000	2.083324e-001	4.623983e-001	0.000000e+000	0.000000e+000	0.000000e+000	0.000000e+000
4400240024.002	0.000000e+000	0.000000e+000	2.126896e-001	4.596468e-001	0.000000e+000	0.000000e+000	0.000000e+000	0.000000e+000
4400260026.003	0.000000e+000	0.000000e+000	2.167375e-001	4.568431e-001	0.000000e+000	0.000000e+000	0.000000e+000	0.000000e+000
4400280028.003	0.000000e+000	0.000000e+000	2.211900e-001	4.537740e-001	0.000000e+000	0.000000e+000	0.000000e+000	0.000000e+000
4400300030.003	0.000000e+000	0.000000e+000	2.252823e-001	4.507982e-001	0.000000e+000	0.000000e+000	0.000000e+000	0.000000e+000
4400320032.003	0.000000e+000	0.000000e+000	2.294959e-001	4.475463e-001	0.000000e+000	0.000000e+000	0.000000e+000	0.000000e+000
4400340034.003	0.000000e+000	0.000000e+000	2.337577e-001	4.442809e-001	0.000000e+000	0.000000e+000	0.000000e+000	0.000000e+000
4400360036.004	0.000000e+000	0.000000e+000	2.379836e-001	4.409143e-001	0.000000e+000	0.000000e+000	0.000000e+000	0.000000e+000
4400380038.004	0.000000e+000	0.000000e+000	2.421508e-001	4.373759e-001	0.000000e+000	0.000000e+000	0.000000e+000	0.000000e+000
4400400040.004	0.000000e+000	0.000000e+000	2.463164e-001	4.335588e-001	0.000000e+000	0.000000e+000	0.000000e+000	0.000000e+000
4400420042.004	0.000000e+000	0.000000e+000	2.506097e-001	4.296182e-001	0.000000e+000	0.000000e+000	0.000000e+000	0.000000e+000
4400440044.004	0.000000e+000	0.000000e+000	2.548175e-001	4.254212e-001	0.000000e+000	0.000000e+000	0.000000e+000	0.000000e+000
4400460046.005	0.000000e+000	0.000000e+000	2.590292e-001	4.210989e-001	0.000000e+000	0.000000e+000	0.000000e+000	0.000000e+000
4400480048.005	0.000000e+000	0.000000e+000	2.631436e-001	4.164800e-001	0.000000e+000	0.000000e+000	0.000000e+000	0.000000e+000
4400500050.005	0.000000e+000	0.000000e+000	2.673741e-001	4.116469e-001	0.000000e+000	0.000000e+000	0.000000e+000	0.000000e+000
4400520052.005	0.000000e+000	0.000000e+000	2.716089e-001	4.062525e-001	0.000000e+000	0.000000e+000	0.000000e+000	0.000000e+000
4400540054.005	0.000000e+000	0.000000e+000	2.756426e-001	4.007094e-001	0.000000e+000	0.000000e+000	0.000000e+000	0.000000e+000
4400560056.006	0.000000e+000	0.000000e+000	2.796335e-001	3.946035e-001	0.000000e+000	0.000000e+000	0.000000e+000	0.000000e+000
4400580058.006	0.000000e+000	0.000000e+000	2.836870e-001	3.878903e-001	0.000000e+000	0.000000e+000	0.000000e+000	0.000000e+000
4400600060.006	0.000000e+000	0.000000e+000	2.876096e-001	3.808104e-001	0.000000e+000	0.000000e+000	0.000000e+000	0.000000e+000
4400620062.006	0.000000e+000	0.000000e+000	2.914508e-001	3.728392e-001	0.000000e+000	0.000000e+000	0.000000e+000	0.000000e+000
4400640064.006	0.000000e+000	0.000000e+000	2.951206e-001	3.639646e-001	0.000000e+000	0.000000e+000	0.000000e+000	0.000000e+000
4400660066.007	0.000000e+000	0.000000e+000	2.986570e-001	3.540665e-001	0.000000e+000	0.000000e+000	0.000000e+000	0.000000e+000
4400680068.007	0.000000e+000	0.000000e+000	3.016351e-001	3.426127e-001	0.000000e+000	0.000000e+000	0.000000e+000	0.000000e+000
4400700070.007	0.000000e+000	0.000000e+000	3.040278e-001	3.295094e-001	0.000000e+000	0.000000e+000	0.000000e+000	0.000000e+000
4400720072.007	0.000000e+000	0.000000e+000	3.055653e-001	3.142306e-001	0.000000e+000	0.000000e+000	0.000000e+000	0.000000e+000
4400740074.007	0.000000e+000	0.000000e+000	3.054422e-001	2.959511e-001	0.000000e+000	0.000000e+000	0.000000e+000	0.000000e+000
4400760076.008	0.000000e+000	0.000000e+000	3.025703e-001	2.737108e-001	0.000000e+000	0.000000e+000	0.000000e+000	0.000000e+000
4400780078.008	0.000000e+000	0.000000e+000	2.945484e-001	2.456021e-001	0.000000e+000	0.000000e+000	0.000000e+000	0.000000e+000
4400800080.008	0.000000e+000	0.000000e+000	2.759069e-001	2.099225e-001	0.000000e+000	0.000000e+000	0.000000e+000	0.000000e+000
4400820082.008	0.000000e+000	0.000000e+000	2.333103e-001	1.653970e-001	0.000000e+000	0.000000e+000	0.000000e+000	0.000000e+000
4400840084.008	0.000000e+000	0.000000e+000	1.369284e-001	1.292057e-001	0.000000e+000	0.000000e+000	0.000000e+000	0.000000e+000
4400860086.009	0.000000e+000	0.000000e+000	-3.096727e-003	1.706181e-001	0.000000e+000	0.000000e+000	0.000000e+000	0.000000e+000
4400880088.009	0.000000e+000	0.000000e+000	-7.898566e-002	2.907737e-001	0.000000e+000	0.000000e+000	0.000000e+000	0.000000e+000
4400900090.009	0.000000e+000	0.000000e+000	-7.216147e-002	4.040183e-001	0.000000e+000	0.000000e+000	0.000000e+000	0.000000e+000
4400920092.009	0.000000e+000	0.000000e+000	-2.510236e-002	4.798402e-001	0.000000e+000	0.000000e+000	0.000000e+000	0.000000e+000
4400940094.009	0.000000e+000	0.000000e+000	3.286019e-002	5.215651e-001	0.000000e+000	0.000000e+000	0.000000e+000	0.000000e+000
4400960096.010	0.000000e+000	0.000000e+000	8.777883e-002	5.394543e-001	0.000000e+000	0.000000e+000	0.000000e+000	0.000000e+000
4400980098.010	0.000000e+000	0.000000e+000	1.348947e-001	5.425410e-001	0.000000e+000	0.000000e+000	0.000000e+000	0.000000e+000
4401000100.010	0.000000e+000	0.000000e+000	1.731371e-001	5.375357e-001	0.000000e+000	0.000000e+000	0.000000e+000	0.000000e+000
4401020102.010	0.000000e+000	0.000000e+000	2.038300e-001	5.287986e-001	0.000000e+000	0.000000e+000	0.000000e+000	0.000000e+000
4401040104.010	0.000000e+000	0.000000e+000	2.282808e-001	5.186098e-001	0.000000e+000	0.000000e+000	0.000000e+000	0.000000e+000
4401060106.011	0.000000e+000	0.000000e+000	2.479254e-001	5.080036e-001	0.000000e+000	0.000000e+000	0.000000e+000	0.000000e+000
4401080108.011	0.000000e+000	0.000000e+000	2.639819e-001	4.978610e-001	0.000000e+000	0.000000e+000	0.000000e+000	0.000000e+000
4401100110.011	0.000000e+000	0.000000e+000	2.774531e-001	4.883196e-001	0.000000e+000	0.000000e+000	0.000000e+000	0.000000e+000
4401120112.011	0.000000e+000	0.000000e+000	2.888492e-001	4.795428e-001	0.000000e+000	0.000000e+000	0.000000e+000	0.000000e+000
4401140114.011	0.000000e+000	0.000000e+000	2.986862e-001	4.712329e-001	0.000000e+000	0.000000e+000	0.000000e+000	0.000000e+000
4401160116.012	0.000000e+000	0.000000e+000	3.074951e-001	4.634982e-001	0.000000e+000	0.000000e+000	0.000000e+000	0.000000e+000
4401180118.012	0.000000e+000	0.000000e+000	3.153324e-001	4.561469e-001	0.000000e+000	0.000000e+000	0.000000e+000	0.000000e+000
4401200120.012	0.000000e+000	0.000000e+000	3.224219e-001	4.493585e-001	0.000000e+000	0.000000e+000	0.000000e+000	0.000000e+000
4401220122.012	0.000000e+000	0.000000e+000	3.289971e-001	4.428098e-001	0.000000e+000	0.000000e+000	0.000000e+000	0.000000e+000
4401240124.012	0.000000e+000	0.000000e+000	3.349258e-001	4.365919e-001	0.000000e+000	0.000000e+000	0.000000e+000	0.000000e+000
4401260126.013	0.000000e+000	0.000000e+000	3.405160e-001	4.306324e-001	0.000000e+000	0.000000e+000	0.000000e+000	0.000000e+000
4401280128.013	0.000000e+000	0.000000e+000	3.458221e-001	4.248869e-001	0.000000e+000	0.000000e+000	0.000000e+000	0.000000e+000
4401300130.013	0.000000e+000	0.000000e+000	3.508493e-001	4.193669e-001	0.000000e+000	0.000000e+000	0.000000e+000	0.000000e+000
4401320132.013	0.000000e+000	0.000000e+000	3.556479e-001	4.140847e-001	0.000000e+000	0.000000e+000	0.000000e+000	0.000000e+000
4401340134.013	0.000000e+000	0.000000e+000	3.600571e-001	4.087679e-001	0.000000e+000	0.000000e+000	0.000000e+000	0.000000e+000
4401360136.014	0.000000e+000	0.000000e+000	3.643714e-001	4.036645e-001	0.000000e+000	0.000000e+000	0.000000e+000	0.000000e+000
4401380138.014	0.000000e+000	0.000000e+000	3.684892e-001	3.987743e-001	0.000000e+000	0.000000e+000	0.000000e+000	0.000000e+000
4401400140.014	0.000000e+000	0.000000e+000	3.725508e-001	3.939353e-001	0.000000e+000	0.000000e+000	0.000000e+000	0.000000e+000
4401420142.014	0.000000e+000	0.000000e+000	3.764695e-001	3.890599e-001	0.000000e+000	0.000000e+000	0.000000e+000	0.000000e+000
4401440144.014	0.000000e+000	0.000000e+000	3.803904e-001	3.844908e-001	0.000000e+000	0.000000e+000	0.000000e+000	0.000000e+000
4401460146.015	0.000000e+000	0.000000e+000	3.840516e-001	3.797498e-001	0.000000e+000	0.000000e+000	0.000000e+000	0.000000e+000
4401480148.015	0.000000e+000	0.000000e+000	3.875051e-001	3.751785e-001	0.000000e+000	0.000000e+000	0.000000e+000	0.000000e+000
4401500150.015	0.000000e+000	0.000000e+000	3.909143e-001	3.706393e-001	0.000000e+000	0.000000e+000	0.000000e+000	0.000000e+000
4401520152.015	0.000000e+000	0.000000e+000	3.943275e-001	3.660787e-001	0.000000e+000	0.000000e+000	0.000000e+000	0.000000e+000
4401540154.015	0.000000e+000	0.000000e+000	3.977458e-001	3.616174e-001	0.000000e+000	0.000000e+000	0.000000e+000	0.000000e+000
4401560156.016	0.000000e+000	0.000000e+000	4.009714e-001	3.571491e-001	0.000000e+000	0.000000e+000	0.000000e+000	0.000000e+000
4401580158.016	0.000000e+000	0.000000e+000	4.041318e-001	3.527247e-001	0.000000e+000	0.000000e+000	0.000000e+000	0.000000e+000
4401600160.016	0.000000e+000	0.000000e+000	4.072955e-001	3.483629e-001	0.000000e+000	0.000000e+000	0.000000e+000	0.000000e+000
4401620162.016	0.000000e+000	0.000000e+000	4.102079e-001	3.439541e-001	0.000000e+000	0.000000e+000	0.000000e+000	0.000000e+000
4401640164.016	0.000000e+000	0.000000e+000	4.131589e-001	3.395010e-001	0.000000e+000	0.000000e+000	0.000000e+000	0.000000e+000
4401660166.017	0.000000e+000	0.000000e+000	4.160993e-001	3.351961e-001	0.000000e+000	0.000000e+000	0.000000e+000	0.000000e+000
4401680168.017	0.000000e+000	0.000000e+000	4.189581e-001	3.308004e-001	0.000000e+000	0.000000e+000	0.000000e+000	0.000000e+000
4401700170.017	0.000000e+000	0.000000e+000	4.218712e-001	3.263718e-001	0.000000e+000	0.000000e+000	0.000000e+000	0.000000e+000
4401720172.017	0.000000e+000	0.000000e+000	4.246944e-001	3.219777e-001	0.000000e+000	0.000000e+000	0.000000e+000	0.000000e+000
4401740174.017	0.000000e+000	0.000000e+000	4.272778e-001	3.175276e-001	0.000000e+000	0.000000e+000	0.000000e+000	0.000000e+000
4401760176.018	0.000000e+000	0.000000e+000	4.298232e-001	3.131384e-001	0.000000e+000	0.000000e+000	0.000000e+000	0.000000e+000
4401780178.018	0.000000e+000	0.000000e+000	4.326230e-001	3.087840e-001	0.000000e+000	0.000000e+000	0.000000e+000	0.000000e+000
4401800180.018	0.000000e+000	0.000000e+000	4.352169e-001	3.042417e-001	0.000000e+000	0.000000e+000	0.000000e+000	0.000000e+000
4401820182.018	0.000000e+000	0.000000e+000	4.377358e-001	2.998422e-001	0.000000e+000	0.000000e+000	0.000000e+000	0.000000e+000
4401840184.018	0.000000e+000	0.000000e+000	4.401194e-001	2.954216e-001	0.000000e+000	0.000000e+000	0.000000e+000	0.000000e+000
4401860186.019	0.000000e+000	0.000000e+000	4.425462e-001	2.909576e-001	0.000000e+000	0.000000e+000	0.000000e+000	0.000000e+000
4401880188.019	0.000000e+000	0.000000e+000	4.447736e-001	2.863503e-001	0.000000e+000	0.000000e+000	0.000000e+000	0.000000e+000
4401900190.019	0.000000e+000	0.000000e+000	4.471228e-001	2.818772e-001	0.000000e+000	0.000000e+000	0.000000e+000	0.000000e+000
4401920192.019	0.000000e+000	0.000000e+000	4.494552e-001	2.773947e-001	0.000000e+000	0.000000e+000	0.000000e+000	0.000000e+000
4401940194.019	0.000000e+000	0.000000e+000	4.518900e-001	2.726269e-001	0.000000e+000	0.000000e+000	0.000000e+000	0.000000e+000
4401960196.020	0.000000e+000	0.000000e+000	4.538785e-001	2.680355e-001	0.000000e+000	0.000000e+000	0.000000e+000	0.000000e+000
4401980198.020	0.000000e+000	0.000000e+000	4.559980e-001	2.633050e-001	0.000000e+000	0.000000e+000	0.000000e+000	0.000000e+000
4402000200.020	0.000000e+000	0.000000e+000	4.580405e-001	2.585770e-001	0.000000e+000	0.000000e+000	0.000000e+000	0.000000e+000
4402020202.020	0.000000e+000	0.000000e+000	4.599993e-001	2.537725e-001	0.000000e+000	0.000000e+000	0.000000e+000	0.000000e+000
4402040204.020	0.000000e+000	0.000000e+000	4.620523e-001	2.489563e-001	0.000000e+000	0.000000e+000	0.000000e+000	0.000000e+000
4402060206.021	0.000000e+000	0.000000e+000	4.639296e-001	2.440295e-001	0.000000e+000	0.000000e+000	0.000000e+000	0.000000e+000
4402080208.021	0.000000e+000	0.000000e+000	4.659315e-001	2.390818e-001	0.000000e+000	0.000000e+000	0.000000e+000	0.000000e+000
4402100210.021	0.000000e+000	0.000000e+000	4.676820e-001	2.340297e-001	0.000000e+000	0.000000e+000	0.000000e+000	0.000000e+000
4402120212.021	0.000000e+000	0.000000e+000	4.693594e-001	2.288889e-001	0.000000e+000	0.000000e+000	0.000000e+000	0.000000e+000
4402140214.021	0.000000e+000	0.000000e+000	4.711979e-001	2.238948e-001	0.000000e+000	0.000000e+000	0.000000e+000	0.000000e+000
4402160216.022	0.000000e+000	0.000000e+000	4.726116e-001	2.185826e-001	0.000000e+000	0.000000e+000	0.000000e+000	0.000000e+000
4402180218.022	0.000000e+000	0.000000e+000	4.740983e-001	2.132224e-001	0.000000e+000	0.000000e+000	0.000000e+000	0.000000e+000
4402200220.022	0.000000e+000	0.000000e+000	4.756807e-001	2.077185e-001	0.000000e+000	0.000000e+000	0.000000e+000	0.000000e+000
4402220222.022	0.000000e+000	0.000000e+000	4.771839e-001	2.021874e-001	0.000000e+000	0.000000e+000	0.000000e+000	0.000000e+000
4402240224.022	0.000000e+000	0.000000e+000	4.783148e-001	1.964382e-001	0.000000e+000	0.000000e+000	0.000000e+000	0.000000e+000
4402260226.023	0.000000e+000	0.000000e+000	4.796024e-001	1.904938e-001	0.000000e+000	0.000000e+000	0.000000e+000	0.000000e+000
4402280228.023	0.000000e+000	0.000000e+000	4.805730e-001	1.845315e-001	0.000000e+000	0.000000e+000	0.000000e+000	0.000000e+000
4402300230.023	0.000000e+000	0.000000e+000	4.812883e-001	1.783138e-001	0.000000e+000	0.000000e+000	0.000000e+000	0.000000e+000
4402320232.023	0.000000e+000	0.000000e+000	4.822205e-001	1.719222e-001	0.000000e+000	0.000000e+000	0.000000e+000	0.000000e+000
4402340234.023	0.000000e+000	0.000000e+000	4.828954e-001	1.652202e-001	0.000000e+000	0.000000e+000	0.000000e+000	0.000000e+000
4402360236.024	0.000000e+000	0.000000e+000	4.832358e-001	1.583280e-001	0.000000e+000	0.000000e+000	0.000000e+000	0.000000e+000
4402380238.024	0.000000e+000	0.000000e+000	4.834896e-001	1.511914e-001	0.000000e+000	0.000000e+000	0.000000e+000	0.000000e+000
4402400240.024	0.000000e+000	0.000000e+000	4.833515e-001	1.436049e-001	0.000000e+000	0.000000e+000	0.000000e+000	0.000000e+000
4402420242.024	0.000000e+000	0.000000e+000	4.830016e-001	1.357667e-001	0.000000e+000	0.000000e+000	0.000000e+000	0.000000e+000
4402440244.024	0.000000e+000	0.000000e+000	4.822211e-001	1.273706e-001	0.000000e+000	0.000000e+000	0.000000e+000	0.000000e+000
4402460246.025	0.000000e+000	0.000000e+000	4.811723e-001	1.185501e-001	0.000000e+000	0.000000e+000	0.000000e+000	0.000000e+000
4402480248.025	0.000000e+000	0.000000e+000	4.791836e-001	1.089971e-001	0.000000e+000	0.000000e+000	0.000000e+000	0.000000e+000
4402500250.025	0.000000e+000	0.000000e+000	4.765524e-001	9.876813e-002	0.000000e+000	0.000000e+000	0.000000e+000	0.000000e+000
4402520252.025	0.000000e+000	0.000000e+000	4.728377e-001	8.777695e-002	0.000000e+000	0.000000e+000	0.000000e+000	0.000000e+000
4402540254.025	0.000000e+000	0.000000e+000	4.678452e-001	7.591545e-002	0.000000e+000	0.000000e+000	0.000000e+000	0.000000e+000
4402560256.026	0.000000e+000	0.000000e+000	4.610355e-001	6.284912e-002	0.000000e+000	0.000000e+000	0.000000e+000	0.000000e+000
4402580258.026	0.000000e+000	0.000000e+000	4.517846e-001	4.846207e-002	0.000000e+000	0.000000e+000	0.000000e+000	0.000000e+000
4402600260.026	0.000000e+000	0.000000e+000	4.388470e-001	3.292618e-002	0.000000e+000	0.000000e+000	0.000000e+000	0.000000e+000
4402620262.026	0.000000e+000	0.000000e+000	4.202311e-001	1.648642e-002	0.000000e+000	0.000000e+000	0.000000e+000	0.000000e+000
4402640264.026	0.000000e+000	0.000000e+000	3.937316e-001	1.785645e-004	0.000000e+000	0.000000e+000	0.000000e+000	0.000000e+000
4402660266.027	0.000000e+000	0.000000e+000	3.549682e-001	-1.275178e-002	0.000000e+000	0.000000e+000	0.000000e+000	0.000000e+000
4402680268.027	0.000000e+000	0.000000e+000	3.005372e-001	-1.405944e-002	0.000000e+000	0.000000e+000	0.000000e+000	0.000000e+000
4402700270.027	0.000000e+000	0.000000e+000	2.304847e-001	1.309319e-002	0.000000e+000	0.000000e+000	0.000000e+000	0.000000e+000
4402720272.027	0.000000e+000	0.000000e+000	1.693631e-001	8.717766e-002	0.000000e+000	0.000000e+000	0.000000e+000	0.000000e+000
4402740274.027	0.000000e+000	0.000000e+000	1.585898e-001	1.963534e-001	0.000000e+000	0.000000e+000	0.000000e+000	0.000000e+000
4402760276.028	0.000000e+000	0.000000e+000	2.098727e-001	2.890828e-001	0.000000e+000	0.000000e+000	0.000000e+000	0.000000e+000
4402780278.028	0.000000e+000	0.000000e+000	2.873833e-001	3.333452e-001	0.000000e+000	0.000000e+000	0.000000e+000	0.000000e+000
4402800280.028	0.000000e+000	0.000000e+000	3.580902e-001	3.381497e-001	0.000000e+000	0.000000e+000	0.000000e+000	0.000000e+000
4402820282.028	0.000000e+000	0.000000e+000	4.110305e-001	3.227487e-001	0.000000e+000	0.000000e+000	0.000000e+000	0.000000e+000
4402840284.028	0.000000e+000	0.000000e+000	4.471479e-001	3.006757e-001	0.000000e+000	0.000000e+000	0.000000e+000	0.000000e+000
4402860286.029	0.000000e+000	0.000000e+000	4.715994e-001	2.782974e-001	0.000000e+000	0.000000e+000	0.000000e+000	0.000000e+000
4402880288.029	0.000000e+000	0.000000e+000	4.886129e-001	2.573386e-001	0.000000e+000	0.000000e+000	0.000000e+000	0.000000e+000
4402900290.029	0.000000e+000	0.000000e+000	5.003329e-001	2.389044e-001	0.000000e+000	0.000000e+000	0.000000e+000	0.000000e+000
4402920292.029	0.000000e+000	0.000000e+000	5.088899e-001	2.221514e-001	0.000000e+000	0.000000e+000	0.000000e+000	0.000000e+000
4402940294.029	0.000000e+000	0.000000e+000	5.152326e-001	2.075962e-001	0.000000e+000	0.000000e+000	0.000000e+000	0.000000e+000
4402960296.030	0.000000e+000	0.000000e+000	5.200357e-001	1.943480e-001	0.000000e+000	0.000000e+000	0.000000e+000	0.000000e+000
4402980298.030	0.000000e+000	0.000000e+000	5.237897e-001	1.826373e-001	0.000000e+000	0.000000e+000	0.000000e+000	0.000000e+000
4403000300.030	0.000000e+000	0.000000e+000	5.269082e-001	1.720115e-001	0.000000e+000	0.000000e+000	0.000000e+000	0.000000e+000
4403020302.030	0.000000e+000	0.000000e+000	5.294452e-001	1.620636e-001	0.000000e+000	0.000000e+000	0.000000e+000	0.000000e+000
4403040304.030	0.000000e+000	0.000000e+000	5.315686e-001	1.527224e-001	0.000000e+000	0.000000e+000	0.000000e+000	0.000000e+000
4403060306.031	0.000000e+000	0.000000e+000	5.332889e-001	1.439754e-001	0.000000e+000	0.000000e+000	0.000000e+000	0.000000e+000
