!Keysight Technologies,E5063A,MY54502693,A.05.04
!Date: Sat Feb 27 16:24:05 2021
!Data & Calibration Information:
!Freq	S11:NONE(--)	S21:NONE(--)	S12:NONE(--)	S22:NONE(--)
# Hz S RI R 50
5200000000.000	0.000000e+000	0.000000e+000	-1.216390e-003	3.371637e-001	0.000000e+000	0.000000e+000	0.000000e+000	0.000000e+000
5200020002.000	0.000000e+000	0.000000e+000	2.003399e-003	3.364178e-001	0.000000e+000	0.000000e+000	0.000000e+000	0.000000e+000
5200040004.000	0.000000e+000	0.000000e+000	5.320196e-003	3.357727e-001	0.000000e+000	0.000000e+000	0.000000e+000	0.000000e+000
5200060006.001	0.000000e+000	0.000000e+000	8.540896e-003	3.349222e-001	0.000000e+000	0.000000e+000	0.000000e+000	0.000000e+000
5200080008.001	0.000000e+000	0.000000e+000	1.177717e-002	3.340930e-001	0.000000e+000	0.000000e+000	0.000000e+000	0.000000e+000
5200100010.001	0.000000e+000	0.000000e+000	1.513295e-002	3.329837e-001	0.000000e+000	0.000000e+000	0.000000e+000	0.000000e+000
5200120012.001	0.000000e+000	0.000000e+000	1.831239e-002	3.317596e-001	0.000000e+000	0.000000e+000	0.000000e+000	0.000000e+000
5200140014.001	0.000000e+000	0.000000e+000	2.168454e-002	3.303960e-001	0.000000e+000	0.000000e+000	0.000000e+000	0.000000e+000
5200160016.002	0.000000e+000	0.000000e+000	2.492019e-002	3.289594e-001	0.000000e+000	0.000000e+000	0.000000e+000	0.000000e+000
5200180018.002	0.000000e+000	0.000000e+000	2.819487e-002	3.273193e-001	0.000000e+000	0.000000e+000	0.000000e+000	0.000000e+000
5200200020.002	0.000000e+000	0.000000e+000	3.141378e-002	3.253523e-001	0.000000e+000	0.000000e+000	0.000000e+000	0.000000e+000
5200220022.002	0.000000e+000	0.000000e+000	3.449655e-002	3.231425e-001	0.000000e+000	0.000000e+000	0.000000e+000	0.000000e+000
5200240024.002	0.000000e+000	0.000000e+000	3.763161e-002	3.208213e-001	0.000000e+000	0.000000e+000	0.000000e+000	0.000000e+000
5200260026.003	0.000000e+000	0.000000e+000	4.053680e-002	3.180561e-001	0.000000e+000	0.000000e+000	0.000000e+000	0.000000e+000
5200280028.003	0.000000e+000	0.000000e+000	4.337874e-002	3.150405e-001	0.000000e+000	0.000000e+000	0.000000e+000	0.000000e+000
5200300030.003	0.000000e+000	0.000000e+000	4.572241e-002	3.113485e-001	0.000000e+000	0.000000e+000	0.000000e+000	0.000000e+000
5200320032.003	0.000000e+000	0.000000e+000	4.784235e-002	3.073800e-001	0.000000e+000	0.000000e+000	0.000000e+000	0.000000e+000
5200340034.003	0.000000e+000	0.000000e+000	4.942960e-002	3.031896e-001	0.000000e+000	0.000000e+000	0.000000e+000	0.000000e+000
5200360036.004	0.000000e+000	0.000000e+000	5.031743e-002	2.980734e-001	0.000000e+000	0.000000e+000	0.000000e+000	0.000000e+000
5200380038.004	0.000000e+000	0.000000e+000	5.032730e-002	2.928595e-001	0.000000e+000	0.000000e+000	0.000000e+000	0.000000e+000
5200400040.004	0.000000e+000	0.000000e+000	4.907869e-002	2.872761e-001	0.000000e+000	0.000000e+000	0.000000e+000	0.000000e+000
5200420042.004	0.000000e+000	0.000000e+000	4.611964e-002	2.816591e-001	0.000000e+000	0.000000e+000	0.000000e+000	0.000000e+000
5200440044.004	0.000000e+000	0.000000e+000	4.126690e-002	2.766877e-001	0.000000e+000	0.000000e+000	0.000000e+000	0.000000e+000
5200460046.005	0.000000e+000	0.000000e+000	3.433250e-002	2.730117e-001	0.000000e+000	0.000000e+000	0.000000e+000	0.000000e+000
5200480048.005	0.000000e+000	0.000000e+000	2.593826e-002	2.719032e-001	0.000000e+000	0.000000e+000	0.000000e+000	0.000000e+000
5200500050.005	0.000000e+000	0.000000e+000	1.675436e-002	2.740243e-001	0.000000e+000	0.000000e+000	0.000000e+000	0.000000e+000
5200520052.005	0.000000e+000	0.000000e+000	8.412285e-003	2.797406e-001	0.000000e+000	0.000000e+000	0.000000e+000	0.000000e+000
5200540054.005	0.000000e+000	0.000000e+000	2.185366e-003	2.884907e-001	0.000000e+000	0.000000e+000	0.000000e+000	0.000000e+000
5200560056.006	0.000000e+000	0.000000e+000	-5.566551e-004	2.987710e-001	0.000000e+000	0.000000e+000	0.000000e+000	0.000000e+000
5200580058.006	0.000000e+000	0.000000e+000	-5.126121e-007	3.092496e-001	0.000000e+000	0.000000e+000	0.000000e+000	0.000000e+000
5200600060.006	0.000000e+000	0.000000e+000	3.161577e-003	3.185082e-001	0.000000e+000	0.000000e+000	0.000000e+000	0.000000e+000
5200620062.006	0.000000e+000	0.000000e+000	8.298228e-003	3.263001e-001	0.000000e+000	0.000000e+000	0.000000e+000	0.000000e+000
5200640064.006	0.000000e+000	0.000000e+000	1.416481e-002	3.323574e-001	0.000000e+000	0.000000e+000	0.000000e+000	0.000000e+000
5200660066.007	0.000000e+000	0.000000e+000	2.063102e-002	3.371993e-001	0.000000e+000	0.000000e+000	0.000000e+000	0.000000e+000
5200680068.007	0.000000e+000	0.000000e+000	2.728605e-002	3.406079e-001	0.000000e+000	0.000000e+000	0.000000e+000	0.000000e+000
5200700070.007	0.000000e+000	0.000000e+000	3.364816e-002	3.430794e-001	0.000000e+000	0.000000e+000	0.000000e+000	0.000000e+000
5200720072.007	0.000000e+000	0.000000e+000	3.987855e-002	3.447009e-001	0.000000e+000	0.000000e+000	0.000000e+000	0.000000e+000
5200740074.007	0.000000e+000	0.000000e+000	4.575850e-002	3.456510e-001	0.000000e+000	0.000000e+000	0.000000e+000	0.000000e+000
5200760076.008	0.000000e+000	0.000000e+000	5.131319e-002	3.462363e-001	0.000000e+000	0.000000e+000	0.000000e+000	0.000000e+000
5200780078.008	0.000000e+000	0.000000e+000	5.659487e-002	3.465600e-001	0.000000e+000	0.000000e+000	0.000000e+000	0.000000e+000
5200800080.008	0.000000e+000	0.000000e+000	6.170788e-002	3.464593e-001	0.000000e+000	0.000000e+000	0.000000e+000	0.000000e+000
5200820082.008	0.000000e+000	0.000000e+000	6.679351e-002	3.461529e-001	0.000000e+000	0.000000e+000	0.000000e+000	0.000000e+000
5200840084.008	0.000000e+000	0.000000e+000	7.140910e-002	3.458749e-001	0.000000e+000	0.000000e+000	0.000000e+000	0.000000e+000
5200860086.009	0.000000e+000	0.000000e+000	7.583245e-002	3.452267e-001	0.000000e+000	0.000000e+000	0.000000e+000	0.000000e+000
5200880088.009	0.000000e+000	0.000000e+000	8.009699e-002	3.445295e-001	0.000000e+000	0.000000e+000	0.000000e+000	0.000000e+000
5200900090.009	0.000000e+000	0.000000e+000	8.426580e-002	3.438692e-001	0.000000e+000	0.000000e+000	0.000000e+000	0.000000e+000
5200920092.009	0.000000e+000	0.000000e+000	8.823436e-002	3.428338e-001	0.000000e+000	0.000000e+000	0.000000e+000	0.000000e+000
5200940094.009	0.000000e+000	0.000000e+000	9.222510e-002	3.420170e-001	0.000000e+000	0.000000e+000	0.000000e+000	0.000000e+000
5200960096.010	0.000000e+000	0.000000e+000	9.585274e-002	3.409359e-001	0.000000e+000	0.000000e+000	0.000000e+000	0.000000e+000
5200980098.010	0.000000e+000	0.000000e+000	9.971335e-002	3.400138e-001	0.000000e+000	0.000000e+000	0.000000e+000	0.000000e+000
5201000100.010	0.000000e+000	0.000000e+000	1.032528e-001	3.388989e-001	0.000000e+000	0.000000e+000	0.000000e+000	0.000000e+000
5201020102.010	0.000000e+000	0.000000e+000	1.066737e-001	3.378121e-001	0.000000e+000	0.000000e+000	0.000000e+000	0.000000e+000
5201040104.010	0.000000e+000	0.000000e+000	1.101955e-001	3.366605e-001	0.000000e+000	0.000000e+000	0.000000e+000	0.000000e+000
5201060106.011	0.000000e+000	0.000000e+000	1.135666e-001	3.354955e-001	0.000000e+000	0.000000e+000	0.000000e+000	0.000000e+000
5201080108.011	0.000000e+000	0.000000e+000	1.169003e-001	3.343082e-001	0.000000e+000	0.000000e+000	0.000000e+000	0.000000e+000
5201100110.011	0.000000e+000	0.000000e+000	1.202969e-001	3.330874e-001	0.000000e+000	0.000000e+000	0.000000e+000	0.000000e+000
5201120112.011	0.000000e+000	0.000000e+000	1.233974e-001	3.318708e-001	0.000000e+000	0.000000e+000	0.000000e+000	0.000000e+000
5201140114.011	0.000000e+000	0.000000e+000	1.266119e-001	3.304698e-001	0.000000e+000	0.000000e+000	0.000000e+000	0.000000e+000
5201160116.012	0.000000e+000	0.000000e+000	1.297600e-001	3.291906e-001	0.000000e+000	0.000000e+000	0.000000e+000	0.000000e+000
5201180118.012	0.000000e+000	0.000000e+000	1.327709e-001	3.279748e-001	0.000000e+000	0.000000e+000	0.000000e+000	0.000000e+000
5201200120.012	0.000000e+000	0.000000e+000	1.359140e-001	3.265797e-001	0.000000e+000	0.000000e+000	0.000000e+000	0.000000e+000
5201220122.012	0.000000e+000	0.000000e+000	1.390615e-001	3.252693e-001	0.000000e+000	0.000000e+000	0.000000e+000	0.000000e+000
5201240124.012	0.000000e+000	0.000000e+000	1.419627e-001	3.237463e-001	0.000000e+000	0.000000e+000	0.000000e+000	0.000000e+000
5201260126.013	0.000000e+000	0.000000e+000	1.448877e-001	3.223749e-001	0.000000e+000	0.000000e+000	0.000000e+000	0.000000e+000
5201280128.013	0.000000e+000	0.000000e+000	1.479564e-001	3.209200e-001	0.000000e+000	0.000000e+000	0.000000e+000	0.000000e+000
5201300130.013	0.000000e+000	0.000000e+000	1.507975e-001	3.195441e-001	0.000000e+000	0.000000e+000	0.000000e+000	0.000000e+000
5201320132.013	0.000000e+000	0.000000e+000	1.536685e-001	3.180077e-001	0.000000e+000	0.000000e+000	0.000000e+000	0.000000e+000
5201340134.013	0.000000e+000	0.000000e+000	1.565706e-001	3.164801e-001	0.000000e+000	0.000000e+000	0.000000e+000	0.000000e+000
5201360136.014	0.000000e+000	0.000000e+000	1.593738e-001	3.149233e-001	0.000000e+000	0.000000e+000	0.000000e+000	0.000000e+000
5201380138.014	0.000000e+000	0.000000e+000	1.623013e-001	3.132895e-001	0.000000e+000	0.000000e+000	0.000000e+000	0.000000e+000
5201400140.014	0.000000e+000	0.000000e+000	1.649596e-001	3.118256e-001	0.000000e+000	0.000000e+000	0.000000e+000	0.000000e+000
5201420142.014	0.000000e+000	0.000000e+000	1.677228e-001	3.101465e-001	0.000000e+000	0.000000e+000	0.000000e+000	0.000000e+000
5201440144.014	0.000000e+000	0.000000e+000	1.705089e-001	3.084372e-001	0.000000e+000	0.000000e+000	0.000000e+000	0.000000e+000
5201460146.015	0.000000e+000	0.000000e+000	1.731662e-001	3.067530e-001	0.000000e+000	0.000000e+000	0.000000e+000	0.000000e+000
5201480148.015	0.000000e+000	0.000000e+000	1.760312e-001	3.051316e-001	0.000000e+000	0.000000e+000	0.000000e+000	0.000000e+000
5201500150.015	0.000000e+000	0.000000e+000	1.787291e-001	3.034620e-001	0.000000e+000	0.000000e+000	0.000000e+000	0.000000e+000
5201520152.015	0.000000e+000	0.000000e+000	1.814316e-001	3.015554e-001	0.000000e+000	0.000000e+000	0.000000e+000	0.000000e+000
5201540154.015	0.000000e+000	0.000000e+000	1.840726e-001	2.997496e-001	0.000000e+000	0.000000e+000	0.000000e+000	0.000000e+000
5201560156.016	0.000000e+000	0.000000e+000	1.867536e-001	2.980568e-001	0.000000e+000	0.000000e+000	0.000000e+000	0.000000e+000
5201580158.016	0.000000e+000	0.000000e+000	1.893556e-001	2.960685e-001	0.000000e+000	0.000000e+000	0.000000e+000	0.000000e+000
5201600160.016	0.000000e+000	0.000000e+000	1.920072e-001	2.942346e-001	0.000000e+000	0.000000e+000	0.000000e+000	0.000000e+000
5201620162.016	0.000000e+000	0.000000e+000	1.945385e-001	2.922729e-001	0.000000e+000	0.000000e+000	0.000000e+000	0.000000e+000
5201640164.016	0.000000e+000	0.000000e+000	1.971562e-001	2.903056e-001	0.000000e+000	0.000000e+000	0.000000e+000	0.000000e+000
5201660166.017	0.000000e+000	0.000000e+000	1.997072e-001	2.882110e-001	0.000000e+000	0.000000e+000	0.000000e+000	0.000000e+000
5201680168.017	0.000000e+000	0.000000e+000	2.021548e-001	2.862373e-001	0.000000e+000	0.000000e+000	0.000000e+000	0.000000e+000
5201700170.017	0.000000e+000	0.000000e+000	2.048188e-001	2.840269e-001	0.000000e+000	0.000000e+000	0.000000e+000	0.000000e+000
5201720172.017	0.000000e+000	0.000000e+000	2.073393e-001	2.819269e-001	0.000000e+000	0.000000e+000	0.000000e+000	0.000000e+000
5201740174.017	0.000000e+000	0.000000e+000	2.099131e-001	2.795997e-001	0.000000e+000	0.000000e+000	0.000000e+000	0.000000e+000
5201760176.018	0.000000e+000	0.000000e+000	2.124635e-001	2.773895e-001	0.000000e+000	0.000000e+000	0.000000e+000	0.000000e+000
5201780178.018	0.000000e+000	0.000000e+000	2.149062e-001	2.749284e-001	0.000000e+000	0.000000e+000	0.000000e+000	0.000000e+000
5201800180.018	0.000000e+000	0.000000e+000	2.174007e-001	2.725451e-001	0.000000e+000	0.000000e+000	0.000000e+000	0.000000e+000
5201820182.018	0.000000e+000	0.000000e+000	2.199651e-001	2.700940e-001	0.000000e+000	0.000000e+000	0.000000e+000	0.000000e+000
5201840184.018	0.000000e+000	0.000000e+000	2.223337e-001	2.674162e-001	0.000000e+000	0.000000e+000	0.000000e+000	0.000000e+000
5201860186.019	0.000000e+000	0.000000e+000	2.248389e-001	2.647439e-001	0.000000e+000	0.000000e+000	0.000000e+000	0.000000e+000
5201880188.019	0.000000e+000	0.000000e+000	2.272277e-001	2.619902e-001	0.000000e+000	0.000000e+000	0.000000e+000	0.000000e+000
5201900190.019	0.000000e+000	0.000000e+000	2.295848e-001	2.591854e-001	0.000000e+000	0.000000e+000	0.000000e+000	0.000000e+000
5201920192.019	0.000000e+000	0.000000e+000	2.320133e-001	2.560388e-001	0.000000e+000	0.000000e+000	0.000000e+000	0.000000e+000
5201940194.019	0.000000e+000	0.000000e+000	2.343418e-001	2.528608e-001	0.000000e+000	0.000000e+000	0.000000e+000	0.000000e+000
5201960196.020	0.000000e+000	0.000000e+000	2.367204e-001	2.494964e-001	0.000000e+000	0.000000e+000	0.000000e+000	0.000000e+000
5201980198.020	0.000000e+000	0.000000e+000	2.390926e-001	2.460172e-001	0.000000e+000	0.000000e+000	0.000000e+000	0.000000e+000
5202000200.020	0.000000e+000	0.000000e+000	2.413871e-001	2.421205e-001	0.000000e+000	0.000000e+000	0.000000e+000	0.000000e+000
5202020202.020	0.000000e+000	0.000000e+000	2.435310e-001	2.380144e-001	0.000000e+000	0.000000e+000	0.000000e+000	0.000000e+000
5202040204.020	0.000000e+000	0.000000e+000	2.458481e-001	2.335157e-001	0.000000e+000	0.000000e+000	0.000000e+000	0.000000e+000
5202060206.021	0.000000e+000	0.000000e+000	2.476567e-001	2.286565e-001	0.000000e+000	0.000000e+000	0.000000e+000	0.000000e+000
5202080208.021	0.000000e+000	0.000000e+000	2.496117e-001	2.232420e-001	0.000000e+000	0.000000e+000	0.000000e+000	0.000000e+000
5202100210.021	0.000000e+000	0.000000e+000	2.511961e-001	2.171204e-001	0.000000e+000	0.000000e+000	0.000000e+000	0.000000e+000
5202120212.021	0.000000e+000	0.000000e+000	2.523543e-001	2.102042e-001	0.000000e+000	0.000000e+000	0.000000e+000	0.000000e+000
5202140214.021	0.000000e+000	0.000000e+000	2.530426e-001	2.023037e-001	0.000000e+000	0.000000e+000	0.000000e+000	0.000000e+000
5202160216.022	0.000000e+000	0.000000e+000	2.528117e-001	1.930519e-001	0.000000e+000	0.000000e+000	0.000000e+000	0.000000e+000
5202180218.022	0.000000e+000	0.000000e+000	2.508560e-001	1.820132e-001	0.000000e+000	0.000000e+000	0.000000e+000	0.000000e+000
5202200220.022	0.000000e+000	0.000000e+000	2.463552e-001	1.690749e-001	0.000000e+000	0.000000e+000	0.000000e+000	0.000000e+000
5202220222.022	0.000000e+000	0.000000e+000	2.370026e-001	1.536706e-001	0.000000e+000	0.000000e+000	0.000000e+000	0.000000e+000
5202240224.022	0.000000e+000	0.000000e+000	2.196914e-001	1.378322e-001	0.000000e+000	0.000000e+000	0.000000e+000	0.000000e+000
5202260226.023	0.000000e+000	0.000000e+000	1.896176e-001	1.259740e-001	0.000000e+000	0.000000e+000	0.000000e+000	0.000000e+000
5202280228.023	0.000000e+000	0.000000e+000	1.449257e-001	1.317290e-001	0.000000e+000	0.000000e+000	0.000000e+000	0.000000e+000
5202300230.023	0.000000e+000	0.000000e+000	1.039443e-001	1.726217e-001	0.000000e+000	0.000000e+000	0.000000e+000	0.000000e+000
5202320232.023	0.000000e+000	0.000000e+000	1.016483e-001	2.355171e-001	0.000000e+000	0.000000e+000	0.000000e+000	0.000000e+000
5202340234.023	0.000000e+000	0.000000e+000	1.347788e-001	2.772963e-001	0.000000e+000	0.000000e+000	0.000000e+000	0.000000e+000
5202360236.024	0.000000e+000	0.000000e+000	1.708877e-001	2.906714e-001	0.000000e+000	0.000000e+000	0.000000e+000	0.000000e+000
5202380238.024	0.000000e+000	0.000000e+000	1.976142e-001	2.901485e-001	0.000000e+000	0.000000e+000	0.000000e+000	0.000000e+000
5202400240.024	0.000000e+000	0.000000e+000	2.163356e-001	2.848405e-001	0.000000e+000	0.000000e+000	0.000000e+000	0.000000e+000
5202420242.024	0.000000e+000	0.000000e+000	2.297472e-001	2.786803e-001	0.000000e+000	0.000000e+000	0.000000e+000	0.000000e+000
5202440244.024	0.000000e+000	0.000000e+000	2.397575e-001	2.726137e-001	0.000000e+000	0.000000e+000	0.000000e+000	0.000000e+000
5202460246.025	0.000000e+000	0.000000e+000	2.475756e-001	2.666448e-001	0.000000e+000	0.000000e+000	0.000000e+000	0.000000e+000
5202480248.025	0.000000e+000	0.000000e+000	2.540715e-001	2.611714e-001	0.000000e+000	0.000000e+000	0.000000e+000	0.000000e+000
5202500250.025	0.000000e+000	0.000000e+000	2.594695e-001	2.560652e-001	0.000000e+000	0.000000e+000	0.000000e+000	0.000000e+000
5202520252.025	0.000000e+000	0.000000e+000	2.640709e-001	2.513814e-001	0.000000e+000	0.000000e+000	0.000000e+000	0.000000e+000
5202540254.025	0.000000e+000	0.000000e+000	2.682098e-001	2.468191e-001	0.000000e+000	0.000000e+000	0.000000e+000	0.000000e+000
5202560256.026	0.000000e+000	0.000000e+000	2.718728e-001	2.425651e-001	0.000000e+000	0.000000e+000	0.000000e+000	0.000000e+000
5202580258.026	0.000000e+000	0.000000e+000	2.753041e-001	2.386290e-001	0.000000e+000	0.000000e+000	0.000000e+000	0.000000e+000
5202600260.026	0.000000e+000	0.000000e+000	2.782092e-001	2.347820e-001	0.000000e+000	0.000000e+000	0.000000e+000	0.000000e+000
5202620262.026	0.000000e+000	0.000000e+000	2.813127e-001	2.309852e-001	0.000000e+000	0.000000e+000	0.000000e+000	0.000000e+000
5202640264.026	0.000000e+000	0.000000e+000	2.839485e-001	2.274112e-001	0.000000e+000	0.000000e+000	0.000000e+000	0.000000e+000
5202660266.027	0.000000e+000	0.000000e+000	2.865990e-001	2.239486e-001	0.000000e+000	0.000000e+000	0.000000e+000	0.000000e+000
5202680268.027	0.000000e+000	0.000000e+000	2.891476e-001	2.204586e-001	0.000000e+000	0.000000e+000	0.000000e+000	0.000000e+000
5202700270.027	0.000000e+000	0.000000e+000	2.913296e-001	2.171381e-001	0.000000e+000	0.000000e+000	0.000000e+000	0.000000e+000
5202720272.027	0.000000e+000	0.000000e+000	2.935157e-001	2.139001e-001	0.000000e+000	0.000000e+000	0.000000e+000	0.000000e+000
5202740274.027	0.000000e+000	0.000000e+000	2.958424e-001	2.105782e-001	0.000000e+000	0.000000e+000	0.000000e+000	0.000000e+000
5202760276.028	0.000000e+000	0.000000e+000	2.978664e-001	2.074093e-001	0.000000e+000	0.000000e+000	0.000000e+000	0.000000e+000
5202780278.028	0.000000e+000	0.000000e+000	2.999128e-001	2.043251e-001	0.000000e+000	0.000000e+000	0.000000e+000	0.000000e+000
5202800280.028	0.000000e+000	0.000000e+000	3.018787e-001	2.011794e-001	0.000000e+000	0.000000e+000	0.000000e+000	0.000000e+000
5202820282.028	0.000000e+000	0.000000e+000	3.038193e-001	1.981412e-001	0.000000e+000	0.000000e+000	0.000000e+000	0.000000e+000
5202840284.028	0.000000e+000	0.000000e+000	3.056618e-001	1.951335e-001	0.000000e+000	0.000000e+000	0.000000e+000	0.000000e+000
5202860286.029	0.000000e+000	0.000000e+000	3.075015e-001	1.920851e-001	0.000000e+000	0.000000e+000	0.000000e+000	0.000000e+000
5202880288.029	0.000000e+000	0.000000e+000	3.092875e-001	1.890050e-001	0.000000e+000	0.000000e+000	0.000000e+000	0.000000e+000
5202900290.029	0.000000e+000	0.000000e+000	3.110332e-001	1.860318e-001	0.000000e+000	0.000000e+000	0.000000e+000	0.000000e+000
5202920292.029	0.000000e+000	0.000000e+000	3.128051e-001	1.829202e-001	0.000000e+000	0.000000e+000	0.000000e+000	0.000000e+000
5202940294.029	0.000000e+000	0.000000e+000	3.144565e-001	1.800148e-001	0.000000e+000	0.000000e+000	0.000000e+000	0.000000e+000
5202960296.030	0.000000e+000	0.000000e+000	3.161336e-001	1.770177e-001	0.000000e+000	0.000000e+000	0.000000e+000	0.000000e+000
5202980298.030	0.000000e+000	0.000000e+000	3.176378e-001	1.740239e-001	0.000000e+000	0.000000e+000	0.000000e+000	0.000000e+000
5203000300.030	0.000000e+000	0.000000e+000	3.191704e-001	1.710281e-001	0.000000e+000	0.000000e+000	0.000000e+000	0.000000e+000
5203020302.030	0.000000e+000	0.000000e+000	3.207138e-001	1.681609e-001	0.000000e+000	0.000000e+000	0.000000e+000	0.000000e+000
5203040304.030	0.000000e+000	0.000000e+000	3.222629e-001	1.651257e-001	0.000000e+000	0.000000e+000	0.000000e+000	0.000000e+000
5203060306.031	0.000000e+000	0.000000e+000	3.238401e-001	1.621089e-001	0.000000e+000	0.000000e+000	0.000000e+000	0.000000e+000
