!Keysight Technologies,E5063A,MY54502693,A.05.04
!Date: Sat Feb 27 20:15:24 2021
!Data & Calibration Information:
!Freq	S11:NONE(--)	S21:NONE(--)	S12:NONE(--)	S22:NONE(--)
# Hz S RI R 50
4800000000.000	0.000000e+000	0.000000e+000	-2.457575e-001	2.723151e-001	0.000000e+000	0.000000e+000	0.000000e+000	0.000000e+000
4800020002.000	0.000000e+000	0.000000e+000	-2.409913e-001	2.777645e-001	0.000000e+000	0.000000e+000	0.000000e+000	0.000000e+000
4800040004.000	0.000000e+000	0.000000e+000	-2.362413e-001	2.827932e-001	0.000000e+000	0.000000e+000	0.000000e+000	0.000000e+000
4800060006.001	0.000000e+000	0.000000e+000	-2.315393e-001	2.874755e-001	0.000000e+000	0.000000e+000	0.000000e+000	0.000000e+000
4800080008.001	0.000000e+000	0.000000e+000	-2.270054e-001	2.918045e-001	0.000000e+000	0.000000e+000	0.000000e+000	0.000000e+000
4800100010.001	0.000000e+000	0.000000e+000	-2.223762e-001	2.958718e-001	0.000000e+000	0.000000e+000	0.000000e+000	0.000000e+000
4800120012.001	0.000000e+000	0.000000e+000	-2.178760e-001	2.996271e-001	0.000000e+000	0.000000e+000	0.000000e+000	0.000000e+000
4800140014.001	0.000000e+000	0.000000e+000	-2.134768e-001	3.032697e-001	0.000000e+000	0.000000e+000	0.000000e+000	0.000000e+000
4800160016.002	0.000000e+000	0.000000e+000	-2.090728e-001	3.065744e-001	0.000000e+000	0.000000e+000	0.000000e+000	0.000000e+000
4800180018.002	0.000000e+000	0.000000e+000	-2.048015e-001	3.098151e-001	0.000000e+000	0.000000e+000	0.000000e+000	0.000000e+000
4800200020.002	0.000000e+000	0.000000e+000	-2.004796e-001	3.128826e-001	0.000000e+000	0.000000e+000	0.000000e+000	0.000000e+000
4800220022.002	0.000000e+000	0.000000e+000	-1.961278e-001	3.158327e-001	0.000000e+000	0.000000e+000	0.000000e+000	0.000000e+000
4800240024.002	0.000000e+000	0.000000e+000	-1.918712e-001	3.184516e-001	0.000000e+000	0.000000e+000	0.000000e+000	0.000000e+000
4800260026.003	0.000000e+000	0.000000e+000	-1.879183e-001	3.210546e-001	0.000000e+000	0.000000e+000	0.000000e+000	0.000000e+000
4800280028.003	0.000000e+000	0.000000e+000	-1.836515e-001	3.236291e-001	0.000000e+000	0.000000e+000	0.000000e+000	0.000000e+000
4800300030.003	0.000000e+000	0.000000e+000	-1.795989e-001	3.259932e-001	0.000000e+000	0.000000e+000	0.000000e+000	0.000000e+000
4800320032.003	0.000000e+000	0.000000e+000	-1.754712e-001	3.284067e-001	0.000000e+000	0.000000e+000	0.000000e+000	0.000000e+000
4800340034.003	0.000000e+000	0.000000e+000	-1.714677e-001	3.306954e-001	0.000000e+000	0.000000e+000	0.000000e+000	0.000000e+000
4800360036.004	0.000000e+000	0.000000e+000	-1.673609e-001	3.327021e-001	0.000000e+000	0.000000e+000	0.000000e+000	0.000000e+000
4800380038.004	0.000000e+000	0.000000e+000	-1.633345e-001	3.348394e-001	0.000000e+000	0.000000e+000	0.000000e+000	0.000000e+000
4800400040.004	0.000000e+000	0.000000e+000	-1.593096e-001	3.367921e-001	0.000000e+000	0.000000e+000	0.000000e+000	0.000000e+000
4800420042.004	0.000000e+000	0.000000e+000	-1.552311e-001	3.386535e-001	0.000000e+000	0.000000e+000	0.000000e+000	0.000000e+000
4800440044.004	0.000000e+000	0.000000e+000	-1.512479e-001	3.404097e-001	0.000000e+000	0.000000e+000	0.000000e+000	0.000000e+000
4800460046.005	0.000000e+000	0.000000e+000	-1.472508e-001	3.423367e-001	0.000000e+000	0.000000e+000	0.000000e+000	0.000000e+000
4800480048.005	0.000000e+000	0.000000e+000	-1.432414e-001	3.440355e-001	0.000000e+000	0.000000e+000	0.000000e+000	0.000000e+000
4800500050.005	0.000000e+000	0.000000e+000	-1.392383e-001	3.456070e-001	0.000000e+000	0.000000e+000	0.000000e+000	0.000000e+000
4800520052.005	0.000000e+000	0.000000e+000	-1.353283e-001	3.471890e-001	0.000000e+000	0.000000e+000	0.000000e+000	0.000000e+000
4800540054.005	0.000000e+000	0.000000e+000	-1.313066e-001	3.487095e-001	0.000000e+000	0.000000e+000	0.000000e+000	0.000000e+000
4800560056.006	0.000000e+000	0.000000e+000	-1.273538e-001	3.500529e-001	0.000000e+000	0.000000e+000	0.000000e+000	0.000000e+000
4800580058.006	0.000000e+000	0.000000e+000	-1.232953e-001	3.514276e-001	0.000000e+000	0.000000e+000	0.000000e+000	0.000000e+000
4800600060.006	0.000000e+000	0.000000e+000	-1.193140e-001	3.527960e-001	0.000000e+000	0.000000e+000	0.000000e+000	0.000000e+000
4800620062.006	0.000000e+000	0.000000e+000	-1.153443e-001	3.540649e-001	0.000000e+000	0.000000e+000	0.000000e+000	0.000000e+000
4800640064.006	0.000000e+000	0.000000e+000	-1.112570e-001	3.553351e-001	0.000000e+000	0.000000e+000	0.000000e+000	0.000000e+000
4800660066.007	0.000000e+000	0.000000e+000	-1.072067e-001	3.565433e-001	0.000000e+000	0.000000e+000	0.000000e+000	0.000000e+000
4800680068.007	0.000000e+000	0.000000e+000	-1.031975e-001	3.577293e-001	0.000000e+000	0.000000e+000	0.000000e+000	0.000000e+000
4800700070.007	0.000000e+000	0.000000e+000	-9.906811e-002	3.587519e-001	0.000000e+000	0.000000e+000	0.000000e+000	0.000000e+000
4800720072.007	0.000000e+000	0.000000e+000	-9.501162e-002	3.598067e-001	0.000000e+000	0.000000e+000	0.000000e+000	0.000000e+000
4800740074.007	0.000000e+000	0.000000e+000	-9.090214e-002	3.607655e-001	0.000000e+000	0.000000e+000	0.000000e+000	0.000000e+000
4800760076.008	0.000000e+000	0.000000e+000	-8.674215e-002	3.617393e-001	0.000000e+000	0.000000e+000	0.000000e+000	0.000000e+000
4800780078.008	0.000000e+000	0.000000e+000	-8.263962e-002	3.625277e-001	0.000000e+000	0.000000e+000	0.000000e+000	0.000000e+000
4800800080.008	0.000000e+000	0.000000e+000	-7.846491e-002	3.634476e-001	0.000000e+000	0.000000e+000	0.000000e+000	0.000000e+000
4800820082.008	0.000000e+000	0.000000e+000	-7.428288e-002	3.642017e-001	0.000000e+000	0.000000e+000	0.000000e+000	0.000000e+000
4800840084.008	0.000000e+000	0.000000e+000	-7.005263e-002	3.649292e-001	0.000000e+000	0.000000e+000	0.000000e+000	0.000000e+000
4800860086.009	0.000000e+000	0.000000e+000	-6.576692e-002	3.657120e-001	0.000000e+000	0.000000e+000	0.000000e+000	0.000000e+000
4800880088.009	0.000000e+000	0.000000e+000	-6.146729e-002	3.662188e-001	0.000000e+000	0.000000e+000	0.000000e+000	0.000000e+000
4800900090.009	0.000000e+000	0.000000e+000	-5.718534e-002	3.667751e-001	0.000000e+000	0.000000e+000	0.000000e+000	0.000000e+000
4800920092.009	0.000000e+000	0.000000e+000	-5.281443e-002	3.673283e-001	0.000000e+000	0.000000e+000	0.000000e+000	0.000000e+000
4800940094.009	0.000000e+000	0.000000e+000	-4.842560e-002	3.676969e-001	0.000000e+000	0.000000e+000	0.000000e+000	0.000000e+000
4800960096.010	0.000000e+000	0.000000e+000	-4.394722e-002	3.681084e-001	0.000000e+000	0.000000e+000	0.000000e+000	0.000000e+000
4800980098.010	0.000000e+000	0.000000e+000	-3.934447e-002	3.684612e-001	0.000000e+000	0.000000e+000	0.000000e+000	0.000000e+000
4801000100.010	0.000000e+000	0.000000e+000	-3.474671e-002	3.687072e-001	0.000000e+000	0.000000e+000	0.000000e+000	0.000000e+000
4801020102.010	0.000000e+000	0.000000e+000	-3.011078e-002	3.687715e-001	0.000000e+000	0.000000e+000	0.000000e+000	0.000000e+000
4801040104.010	0.000000e+000	0.000000e+000	-2.542209e-002	3.687940e-001	0.000000e+000	0.000000e+000	0.000000e+000	0.000000e+000
4801060106.011	0.000000e+000	0.000000e+000	-2.059940e-002	3.688546e-001	0.000000e+000	0.000000e+000	0.000000e+000	0.000000e+000
4801080108.011	0.000000e+000	0.000000e+000	-1.570568e-002	3.687310e-001	0.000000e+000	0.000000e+000	0.000000e+000	0.000000e+000
4801100110.011	0.000000e+000	0.000000e+000	-1.073671e-002	3.685363e-001	0.000000e+000	0.000000e+000	0.000000e+000	0.000000e+000
4801120112.011	0.000000e+000	0.000000e+000	-5.643656e-003	3.682774e-001	0.000000e+000	0.000000e+000	0.000000e+000	0.000000e+000
4801140114.011	0.000000e+000	0.000000e+000	-3.695394e-004	3.678077e-001	0.000000e+000	0.000000e+000	0.000000e+000	0.000000e+000
4801160116.012	0.000000e+000	0.000000e+000	5.011225e-003	3.671062e-001	0.000000e+000	0.000000e+000	0.000000e+000	0.000000e+000
4801180118.012	0.000000e+000	0.000000e+000	1.045935e-002	3.665213e-001	0.000000e+000	0.000000e+000	0.000000e+000	0.000000e+000
4801200120.012	0.000000e+000	0.000000e+000	1.614243e-002	3.656416e-001	0.000000e+000	0.000000e+000	0.000000e+000	0.000000e+000
4801220122.012	0.000000e+000	0.000000e+000	2.206228e-002	3.645025e-001	0.000000e+000	0.000000e+000	0.000000e+000	0.000000e+000
4801240124.012	0.000000e+000	0.000000e+000	2.814196e-002	3.632334e-001	0.000000e+000	0.000000e+000	0.000000e+000	0.000000e+000
4801260126.013	0.000000e+000	0.000000e+000	3.453492e-002	3.616193e-001	0.000000e+000	0.000000e+000	0.000000e+000	0.000000e+000
4801280128.013	0.000000e+000	0.000000e+000	4.111631e-002	3.595588e-001	0.000000e+000	0.000000e+000	0.000000e+000	0.000000e+000
4801300130.013	0.000000e+000	0.000000e+000	4.811309e-002	3.571827e-001	0.000000e+000	0.000000e+000	0.000000e+000	0.000000e+000
4801320132.013	0.000000e+000	0.000000e+000	5.537094e-002	3.544111e-001	0.000000e+000	0.000000e+000	0.000000e+000	0.000000e+000
4801340134.013	0.000000e+000	0.000000e+000	6.314884e-002	3.508925e-001	0.000000e+000	0.000000e+000	0.000000e+000	0.000000e+000
4801360136.014	0.000000e+000	0.000000e+000	7.147020e-002	3.464593e-001	0.000000e+000	0.000000e+000	0.000000e+000	0.000000e+000
4801380138.014	0.000000e+000	0.000000e+000	8.022248e-002	3.410694e-001	0.000000e+000	0.000000e+000	0.000000e+000	0.000000e+000
4801400140.014	0.000000e+000	0.000000e+000	8.966490e-002	3.341305e-001	0.000000e+000	0.000000e+000	0.000000e+000	0.000000e+000
4801420142.014	0.000000e+000	0.000000e+000	9.936856e-002	3.250102e-001	0.000000e+000	0.000000e+000	0.000000e+000	0.000000e+000
4801440144.014	0.000000e+000	0.000000e+000	1.099008e-001	3.127794e-001	0.000000e+000	0.000000e+000	0.000000e+000	0.000000e+000
4801460146.015	0.000000e+000	0.000000e+000	1.201008e-001	2.959674e-001	0.000000e+000	0.000000e+000	0.000000e+000	0.000000e+000
4801480148.015	0.000000e+000	0.000000e+000	1.284149e-001	2.724659e-001	0.000000e+000	0.000000e+000	0.000000e+000	0.000000e+000
4801500150.015	0.000000e+000	0.000000e+000	1.313587e-001	2.402753e-001	0.000000e+000	0.000000e+000	0.000000e+000	0.000000e+000
4801520152.015	0.000000e+000	0.000000e+000	1.202051e-001	1.991338e-001	0.000000e+000	0.000000e+000	0.000000e+000	0.000000e+000
4801540154.015	0.000000e+000	0.000000e+000	8.812831e-002	1.590225e-001	0.000000e+000	0.000000e+000	0.000000e+000	0.000000e+000
4801560156.016	0.000000e+000	0.000000e+000	3.744620e-002	1.360319e-001	0.000000e+000	0.000000e+000	0.000000e+000	0.000000e+000
4801580158.016	0.000000e+000	0.000000e+000	-1.523682e-002	1.381788e-001	0.000000e+000	0.000000e+000	0.000000e+000	0.000000e+000
4801600160.016	0.000000e+000	0.000000e+000	-5.661171e-002	1.593269e-001	0.000000e+000	0.000000e+000	0.000000e+000	0.000000e+000
4801620162.016	0.000000e+000	0.000000e+000	-8.323879e-002	1.898951e-001	0.000000e+000	0.000000e+000	0.000000e+000	0.000000e+000
4801640164.016	0.000000e+000	0.000000e+000	-9.599936e-002	2.217828e-001	0.000000e+000	0.000000e+000	0.000000e+000	0.000000e+000
4801660166.017	0.000000e+000	0.000000e+000	-9.866235e-002	2.515537e-001	0.000000e+000	0.000000e+000	0.000000e+000	0.000000e+000
4801680168.017	0.000000e+000	0.000000e+000	-9.450236e-002	2.770474e-001	0.000000e+000	0.000000e+000	0.000000e+000	0.000000e+000
4801700170.017	0.000000e+000	0.000000e+000	-8.628877e-002	2.974976e-001	0.000000e+000	0.000000e+000	0.000000e+000	0.000000e+000
4801720172.017	0.000000e+000	0.000000e+000	-7.584034e-002	3.139520e-001	0.000000e+000	0.000000e+000	0.000000e+000	0.000000e+000
4801740174.017	0.000000e+000	0.000000e+000	-6.473659e-002	3.267519e-001	0.000000e+000	0.000000e+000	0.000000e+000	0.000000e+000
4801760176.018	0.000000e+000	0.000000e+000	-5.327222e-002	3.366957e-001	0.000000e+000	0.000000e+000	0.000000e+000	0.000000e+000
4801780178.018	0.000000e+000	0.000000e+000	-4.233561e-002	3.443068e-001	0.000000e+000	0.000000e+000	0.000000e+000	0.000000e+000
4801800180.018	0.000000e+000	0.000000e+000	-3.167645e-002	3.500524e-001	0.000000e+000	0.000000e+000	0.000000e+000	0.000000e+000
4801820182.018	0.000000e+000	0.000000e+000	-2.166499e-002	3.545234e-001	0.000000e+000	0.000000e+000	0.000000e+000	0.000000e+000
4801840184.018	0.000000e+000	0.000000e+000	-1.208966e-002	3.579772e-001	0.000000e+000	0.000000e+000	0.000000e+000	0.000000e+000
4801860186.019	0.000000e+000	0.000000e+000	-3.381821e-003	3.604076e-001	0.000000e+000	0.000000e+000	0.000000e+000	0.000000e+000
4801880188.019	0.000000e+000	0.000000e+000	4.800123e-003	3.622088e-001	0.000000e+000	0.000000e+000	0.000000e+000	0.000000e+000
4801900190.019	0.000000e+000	0.000000e+000	1.254651e-002	3.635836e-001	0.000000e+000	0.000000e+000	0.000000e+000	0.000000e+000
4801920192.019	0.000000e+000	0.000000e+000	1.979045e-002	3.645262e-001	0.000000e+000	0.000000e+000	0.000000e+000	0.000000e+000
4801940194.019	0.000000e+000	0.000000e+000	2.665983e-002	3.651328e-001	0.000000e+000	0.000000e+000	0.000000e+000	0.000000e+000
4801960196.020	0.000000e+000	0.000000e+000	3.316396e-002	3.654605e-001	0.000000e+000	0.000000e+000	0.000000e+000	0.000000e+000
4801980198.020	0.000000e+000	0.000000e+000	3.941970e-002	3.656353e-001	0.000000e+000	0.000000e+000	0.000000e+000	0.000000e+000
4802000200.020	0.000000e+000	0.000000e+000	4.530572e-002	3.655155e-001	0.000000e+000	0.000000e+000	0.000000e+000	0.000000e+000
4802020202.020	0.000000e+000	0.000000e+000	5.103699e-002	3.653252e-001	0.000000e+000	0.000000e+000	0.000000e+000	0.000000e+000
4802040204.020	0.000000e+000	0.000000e+000	5.656928e-002	3.651546e-001	0.000000e+000	0.000000e+000	0.000000e+000	0.000000e+000
4802060206.021	0.000000e+000	0.000000e+000	6.179379e-002	3.645325e-001	0.000000e+000	0.000000e+000	0.000000e+000	0.000000e+000
4802080208.021	0.000000e+000	0.000000e+000	6.697925e-002	3.640296e-001	0.000000e+000	0.000000e+000	0.000000e+000	0.000000e+000
4802100210.021	0.000000e+000	0.000000e+000	7.204456e-002	3.634311e-001	0.000000e+000	0.000000e+000	0.000000e+000	0.000000e+000
4802120212.021	0.000000e+000	0.000000e+000	7.677614e-002	3.626925e-001	0.000000e+000	0.000000e+000	0.000000e+000	0.000000e+000
4802140214.021	0.000000e+000	0.000000e+000	8.150076e-002	3.618789e-001	0.000000e+000	0.000000e+000	0.000000e+000	0.000000e+000
4802160216.022	0.000000e+000	0.000000e+000	8.622329e-002	3.611146e-001	0.000000e+000	0.000000e+000	0.000000e+000	0.000000e+000
4802180218.022	0.000000e+000	0.000000e+000	9.066152e-002	3.602011e-001	0.000000e+000	0.000000e+000	0.000000e+000	0.000000e+000
4802200220.022	0.000000e+000	0.000000e+000	9.506119e-002	3.592229e-001	0.000000e+000	0.000000e+000	0.000000e+000	0.000000e+000
4802220222.022	0.000000e+000	0.000000e+000	9.933853e-002	3.581094e-001	0.000000e+000	0.000000e+000	0.000000e+000	0.000000e+000
4802240224.022	0.000000e+000	0.000000e+000	1.037702e-001	3.571276e-001	0.000000e+000	0.000000e+000	0.000000e+000	0.000000e+000
4802260226.023	0.000000e+000	0.000000e+000	1.078436e-001	3.560795e-001	0.000000e+000	0.000000e+000	0.000000e+000	0.000000e+000
4802280228.023	0.000000e+000	0.000000e+000	1.119707e-001	3.548147e-001	0.000000e+000	0.000000e+000	0.000000e+000	0.000000e+000
4802300230.023	0.000000e+000	0.000000e+000	1.160270e-001	3.536186e-001	0.000000e+000	0.000000e+000	0.000000e+000	0.000000e+000
4802320232.023	0.000000e+000	0.000000e+000	1.199620e-001	3.523621e-001	0.000000e+000	0.000000e+000	0.000000e+000	0.000000e+000
4802340234.023	0.000000e+000	0.000000e+000	1.239196e-001	3.512034e-001	0.000000e+000	0.000000e+000	0.000000e+000	0.000000e+000
4802360236.024	0.000000e+000	0.000000e+000	1.277546e-001	3.498519e-001	0.000000e+000	0.000000e+000	0.000000e+000	0.000000e+000
4802380238.024	0.000000e+000	0.000000e+000	1.316907e-001	3.485455e-001	0.000000e+000	0.000000e+000	0.000000e+000	0.000000e+000
4802400240.024	0.000000e+000	0.000000e+000	1.353859e-001	3.470690e-001	0.000000e+000	0.000000e+000	0.000000e+000	0.000000e+000
4802420242.024	0.000000e+000	0.000000e+000	1.392813e-001	3.455943e-001	0.000000e+000	0.000000e+000	0.000000e+000	0.000000e+000
4802440244.024	0.000000e+000	0.000000e+000	1.430227e-001	3.442709e-001	0.000000e+000	0.000000e+000	0.000000e+000	0.000000e+000
4802460246.025	0.000000e+000	0.000000e+000	1.465589e-001	3.427220e-001	0.000000e+000	0.000000e+000	0.000000e+000	0.000000e+000
4802480248.025	0.000000e+000	0.000000e+000	1.501721e-001	3.412028e-001	0.000000e+000	0.000000e+000	0.000000e+000	0.000000e+000
4802500250.025	0.000000e+000	0.000000e+000	1.538774e-001	3.396421e-001	0.000000e+000	0.000000e+000	0.000000e+000	0.000000e+000
4802520252.025	0.000000e+000	0.000000e+000	1.572945e-001	3.379968e-001	0.000000e+000	0.000000e+000	0.000000e+000	0.000000e+000
4802540254.025	0.000000e+000	0.000000e+000	1.608535e-001	3.364701e-001	0.000000e+000	0.000000e+000	0.000000e+000	0.000000e+000
4802560256.026	0.000000e+000	0.000000e+000	1.644299e-001	3.348181e-001	0.000000e+000	0.000000e+000	0.000000e+000	0.000000e+000
4802580258.026	0.000000e+000	0.000000e+000	1.677716e-001	3.330555e-001	0.000000e+000	0.000000e+000	0.000000e+000	0.000000e+000
4802600260.026	0.000000e+000	0.000000e+000	1.712267e-001	3.313052e-001	0.000000e+000	0.000000e+000	0.000000e+000	0.000000e+000
4802620262.026	0.000000e+000	0.000000e+000	1.746199e-001	3.295491e-001	0.000000e+000	0.000000e+000	0.000000e+000	0.000000e+000
4802640264.026	0.000000e+000	0.000000e+000	1.780023e-001	3.276990e-001	0.000000e+000	0.000000e+000	0.000000e+000	0.000000e+000
4802660266.027	0.000000e+000	0.000000e+000	1.813161e-001	3.258425e-001	0.000000e+000	0.000000e+000	0.000000e+000	0.000000e+000
4802680268.027	0.000000e+000	0.000000e+000	1.846031e-001	3.240935e-001	0.000000e+000	0.000000e+000	0.000000e+000	0.000000e+000
4802700270.027	0.000000e+000	0.000000e+000	1.879679e-001	3.221835e-001	0.000000e+000	0.000000e+000	0.000000e+000	0.000000e+000
4802720272.027	0.000000e+000	0.000000e+000	1.912691e-001	3.201953e-001	0.000000e+000	0.000000e+000	0.000000e+000	0.000000e+000
4802740274.027	0.000000e+000	0.000000e+000	1.944439e-001	3.182964e-001	0.000000e+000	0.000000e+000	0.000000e+000	0.000000e+000
4802760276.028	0.000000e+000	0.000000e+000	1.978180e-001	3.163414e-001	0.000000e+000	0.000000e+000	0.000000e+000	0.000000e+000
4802780278.028	0.000000e+000	0.000000e+000	2.009472e-001	3.142789e-001	0.000000e+000	0.000000e+000	0.000000e+000	0.000000e+000
4802800280.028	0.000000e+000	0.000000e+000	2.040427e-001	3.122186e-001	0.000000e+000	0.000000e+000	0.000000e+000	0.000000e+000
4802820282.028	0.000000e+000	0.000000e+000	2.073043e-001	3.101846e-001	0.000000e+000	0.000000e+000	0.000000e+000	0.000000e+000
4802840284.028	0.000000e+000	0.000000e+000	2.103926e-001	3.081285e-001	0.000000e+000	0.000000e+000	0.000000e+000	0.000000e+000
4802860286.029	0.000000e+000	0.000000e+000	2.134068e-001	3.058230e-001	0.000000e+000	0.000000e+000	0.000000e+000	0.000000e+000
4802880288.029	0.000000e+000	0.000000e+000	2.166067e-001	3.036845e-001	0.000000e+000	0.000000e+000	0.000000e+000	0.000000e+000
4802900290.029	0.000000e+000	0.000000e+000	2.197698e-001	3.014833e-001	0.000000e+000	0.000000e+000	0.000000e+000	0.000000e+000
4802920292.029	0.000000e+000	0.000000e+000	2.226179e-001	2.991462e-001	0.000000e+000	0.000000e+000	0.000000e+000	0.000000e+000
4802940294.029	0.000000e+000	0.000000e+000	2.257424e-001	2.968694e-001	0.000000e+000	0.000000e+000	0.000000e+000	0.000000e+000
4802960296.030	0.000000e+000	0.000000e+000	2.287656e-001	2.944923e-001	0.000000e+000	0.000000e+000	0.000000e+000	0.000000e+000
4802980298.030	0.000000e+000	0.000000e+000	2.317095e-001	2.921022e-001	0.000000e+000	0.000000e+000	0.000000e+000	0.000000e+000
4803000300.030	0.000000e+000	0.000000e+000	2.347496e-001	2.897455e-001	0.000000e+000	0.000000e+000	0.000000e+000	0.000000e+000
4803020302.030	0.000000e+000	0.000000e+000	2.376983e-001	2.872934e-001	0.000000e+000	0.000000e+000	0.000000e+000	0.000000e+000
4803040304.030	0.000000e+000	0.000000e+000	2.406949e-001	2.847683e-001	0.000000e+000	0.000000e+000	0.000000e+000	0.000000e+000
4803060306.031	0.000000e+000	0.000000e+000	2.435167e-001	2.822084e-001	0.000000e+000	0.000000e+000	0.000000e+000	0.000000e+000
