!Keysight Technologies,E5063A,MY54502693,A.05.04
!Date: Sat Feb 27 20:37:40 2021
!Data & Calibration Information:
!Freq	S11:NONE(--)	S21:NONE(--)	S12:NONE(--)	S22:NONE(--)
# Hz S RI R 50
5800000000.000	0.000000e+000	0.000000e+000	-1.105162e-001	-1.695277e-001	0.000000e+000	0.000000e+000	0.000000e+000	0.000000e+000
5800020002.000	0.000000e+000	0.000000e+000	-1.121853e-001	-1.685761e-001	0.000000e+000	0.000000e+000	0.000000e+000	0.000000e+000
5800040004.000	0.000000e+000	0.000000e+000	-1.138830e-001	-1.675903e-001	0.000000e+000	0.000000e+000	0.000000e+000	0.000000e+000
5800060006.001	0.000000e+000	0.000000e+000	-1.154959e-001	-1.665701e-001	0.000000e+000	0.000000e+000	0.000000e+000	0.000000e+000
5800080008.001	0.000000e+000	0.000000e+000	-1.172634e-001	-1.655086e-001	0.000000e+000	0.000000e+000	0.000000e+000	0.000000e+000
5800100010.001	0.000000e+000	0.000000e+000	-1.189272e-001	-1.644721e-001	0.000000e+000	0.000000e+000	0.000000e+000	0.000000e+000
5800120012.001	0.000000e+000	0.000000e+000	-1.205512e-001	-1.633608e-001	0.000000e+000	0.000000e+000	0.000000e+000	0.000000e+000
5800140014.001	0.000000e+000	0.000000e+000	-1.221854e-001	-1.623761e-001	0.000000e+000	0.000000e+000	0.000000e+000	0.000000e+000
5800160016.002	0.000000e+000	0.000000e+000	-1.238856e-001	-1.612839e-001	0.000000e+000	0.000000e+000	0.000000e+000	0.000000e+000
5800180018.002	0.000000e+000	0.000000e+000	-1.255196e-001	-1.601185e-001	0.000000e+000	0.000000e+000	0.000000e+000	0.000000e+000
5800200020.002	0.000000e+000	0.000000e+000	-1.271676e-001	-1.590135e-001	0.000000e+000	0.000000e+000	0.000000e+000	0.000000e+000
5800220022.002	0.000000e+000	0.000000e+000	-1.288724e-001	-1.579143e-001	0.000000e+000	0.000000e+000	0.000000e+000	0.000000e+000
5800240024.002	0.000000e+000	0.000000e+000	-1.304261e-001	-1.567033e-001	0.000000e+000	0.000000e+000	0.000000e+000	0.000000e+000
5800260026.003	0.000000e+000	0.000000e+000	-1.321490e-001	-1.554815e-001	0.000000e+000	0.000000e+000	0.000000e+000	0.000000e+000
5800280028.003	0.000000e+000	0.000000e+000	-1.337914e-001	-1.542725e-001	0.000000e+000	0.000000e+000	0.000000e+000	0.000000e+000
5800300030.003	0.000000e+000	0.000000e+000	-1.353641e-001	-1.530574e-001	0.000000e+000	0.000000e+000	0.000000e+000	0.000000e+000
5800320032.003	0.000000e+000	0.000000e+000	-1.370594e-001	-1.517566e-001	0.000000e+000	0.000000e+000	0.000000e+000	0.000000e+000
5800340034.003	0.000000e+000	0.000000e+000	-1.388060e-001	-1.503551e-001	0.000000e+000	0.000000e+000	0.000000e+000	0.000000e+000
5800360036.004	0.000000e+000	0.000000e+000	-1.404216e-001	-1.491307e-001	0.000000e+000	0.000000e+000	0.000000e+000	0.000000e+000
5800380038.004	0.000000e+000	0.000000e+000	-1.421066e-001	-1.477519e-001	0.000000e+000	0.000000e+000	0.000000e+000	0.000000e+000
5800400040.004	0.000000e+000	0.000000e+000	-1.438606e-001	-1.464137e-001	0.000000e+000	0.000000e+000	0.000000e+000	0.000000e+000
5800420042.004	0.000000e+000	0.000000e+000	-1.455996e-001	-1.449643e-001	0.000000e+000	0.000000e+000	0.000000e+000	0.000000e+000
5800440044.004	0.000000e+000	0.000000e+000	-1.472023e-001	-1.434442e-001	0.000000e+000	0.000000e+000	0.000000e+000	0.000000e+000
5800460046.005	0.000000e+000	0.000000e+000	-1.489733e-001	-1.419804e-001	0.000000e+000	0.000000e+000	0.000000e+000	0.000000e+000
5800480048.005	0.000000e+000	0.000000e+000	-1.507203e-001	-1.404243e-001	0.000000e+000	0.000000e+000	0.000000e+000	0.000000e+000
5800500050.005	0.000000e+000	0.000000e+000	-1.524797e-001	-1.388478e-001	0.000000e+000	0.000000e+000	0.000000e+000	0.000000e+000
5800520052.005	0.000000e+000	0.000000e+000	-1.542975e-001	-1.372108e-001	0.000000e+000	0.000000e+000	0.000000e+000	0.000000e+000
5800540054.005	0.000000e+000	0.000000e+000	-1.561053e-001	-1.355278e-001	0.000000e+000	0.000000e+000	0.000000e+000	0.000000e+000
5800560056.006	0.000000e+000	0.000000e+000	-1.578743e-001	-1.337692e-001	0.000000e+000	0.000000e+000	0.000000e+000	0.000000e+000
5800580058.006	0.000000e+000	0.000000e+000	-1.597051e-001	-1.320278e-001	0.000000e+000	0.000000e+000	0.000000e+000	0.000000e+000
5800600060.006	0.000000e+000	0.000000e+000	-1.618232e-001	-1.300599e-001	0.000000e+000	0.000000e+000	0.000000e+000	0.000000e+000
5800620062.006	0.000000e+000	0.000000e+000	-1.635994e-001	-1.281203e-001	0.000000e+000	0.000000e+000	0.000000e+000	0.000000e+000
5800640064.006	0.000000e+000	0.000000e+000	-1.656707e-001	-1.259583e-001	0.000000e+000	0.000000e+000	0.000000e+000	0.000000e+000
5800660066.007	0.000000e+000	0.000000e+000	-1.677857e-001	-1.237887e-001	0.000000e+000	0.000000e+000	0.000000e+000	0.000000e+000
5800680068.007	0.000000e+000	0.000000e+000	-1.697814e-001	-1.215993e-001	0.000000e+000	0.000000e+000	0.000000e+000	0.000000e+000
5800700070.007	0.000000e+000	0.000000e+000	-1.718964e-001	-1.190092e-001	0.000000e+000	0.000000e+000	0.000000e+000	0.000000e+000
5800720072.007	0.000000e+000	0.000000e+000	-1.742211e-001	-1.162726e-001	0.000000e+000	0.000000e+000	0.000000e+000	0.000000e+000
5800740074.007	0.000000e+000	0.000000e+000	-1.765033e-001	-1.133131e-001	0.000000e+000	0.000000e+000	0.000000e+000	0.000000e+000
5800760076.008	0.000000e+000	0.000000e+000	-1.789358e-001	-1.101327e-001	0.000000e+000	0.000000e+000	0.000000e+000	0.000000e+000
5800780078.008	0.000000e+000	0.000000e+000	-1.815165e-001	-1.065227e-001	0.000000e+000	0.000000e+000	0.000000e+000	0.000000e+000
5800800080.008	0.000000e+000	0.000000e+000	-1.842112e-001	-1.024009e-001	0.000000e+000	0.000000e+000	0.000000e+000	0.000000e+000
5800820082.008	0.000000e+000	0.000000e+000	-1.868400e-001	-9.782950e-002	0.000000e+000	0.000000e+000	0.000000e+000	0.000000e+000
5800840084.008	0.000000e+000	0.000000e+000	-1.895640e-001	-9.236635e-002	0.000000e+000	0.000000e+000	0.000000e+000	0.000000e+000
5800860086.009	0.000000e+000	0.000000e+000	-1.924845e-001	-8.525237e-002	0.000000e+000	0.000000e+000	0.000000e+000	0.000000e+000
5800880088.009	0.000000e+000	0.000000e+000	-1.948013e-001	-7.649964e-002	0.000000e+000	0.000000e+000	0.000000e+000	0.000000e+000
5800900090.009	0.000000e+000	0.000000e+000	-1.960771e-001	-6.459125e-002	0.000000e+000	0.000000e+000	0.000000e+000	0.000000e+000
5800920092.009	0.000000e+000	0.000000e+000	-1.937364e-001	-4.766153e-002	0.000000e+000	0.000000e+000	0.000000e+000	0.000000e+000
5800940094.009	0.000000e+000	0.000000e+000	-1.821067e-001	-2.629646e-002	0.000000e+000	0.000000e+000	0.000000e+000	0.000000e+000
5800960096.010	0.000000e+000	0.000000e+000	-1.557125e-001	-8.936235e-003	0.000000e+000	0.000000e+000	0.000000e+000	0.000000e+000
5800980098.010	0.000000e+000	0.000000e+000	-1.231217e-001	-7.351643e-003	0.000000e+000	0.000000e+000	0.000000e+000	0.000000e+000
5801000100.010	0.000000e+000	0.000000e+000	-9.763434e-002	-1.980616e-002	0.000000e+000	0.000000e+000	0.000000e+000	0.000000e+000
5801020102.010	0.000000e+000	0.000000e+000	-8.335112e-002	-3.724694e-002	0.000000e+000	0.000000e+000	0.000000e+000	0.000000e+000
5801040104.010	0.000000e+000	0.000000e+000	-7.735464e-002	-5.525699e-002	0.000000e+000	0.000000e+000	0.000000e+000	0.000000e+000
5801060106.011	0.000000e+000	0.000000e+000	-7.749565e-002	-7.084292e-002	0.000000e+000	0.000000e+000	0.000000e+000	0.000000e+000
5801080108.011	0.000000e+000	0.000000e+000	-8.123913e-002	-8.323467e-002	0.000000e+000	0.000000e+000	0.000000e+000	0.000000e+000
5801100110.011	0.000000e+000	0.000000e+000	-8.712735e-002	-9.291669e-002	0.000000e+000	0.000000e+000	0.000000e+000	0.000000e+000
5801120112.011	0.000000e+000	0.000000e+000	-9.459815e-002	-1.002697e-001	0.000000e+000	0.000000e+000	0.000000e+000	0.000000e+000
5801140114.011	0.000000e+000	0.000000e+000	-1.017528e-001	-1.049392e-001	0.000000e+000	0.000000e+000	0.000000e+000	0.000000e+000
5801160116.012	0.000000e+000	0.000000e+000	-1.086955e-001	-1.079046e-001	0.000000e+000	0.000000e+000	0.000000e+000	0.000000e+000
5801180118.012	0.000000e+000	0.000000e+000	-1.156486e-001	-1.098184e-001	0.000000e+000	0.000000e+000	0.000000e+000	0.000000e+000
5801200120.012	0.000000e+000	0.000000e+000	-1.217096e-001	-1.105044e-001	0.000000e+000	0.000000e+000	0.000000e+000	0.000000e+000
5801220122.012	0.000000e+000	0.000000e+000	-1.270852e-001	-1.104869e-001	0.000000e+000	0.000000e+000	0.000000e+000	0.000000e+000
5801240124.012	0.000000e+000	0.000000e+000	-1.322315e-001	-1.098785e-001	0.000000e+000	0.000000e+000	0.000000e+000	0.000000e+000
5801260126.013	0.000000e+000	0.000000e+000	-1.369512e-001	-1.090338e-001	0.000000e+000	0.000000e+000	0.000000e+000	0.000000e+000
5801280128.013	0.000000e+000	0.000000e+000	-1.408874e-001	-1.078851e-001	0.000000e+000	0.000000e+000	0.000000e+000	0.000000e+000
5801300130.013	0.000000e+000	0.000000e+000	-1.446737e-001	-1.064681e-001	0.000000e+000	0.000000e+000	0.000000e+000	0.000000e+000
5801320132.013	0.000000e+000	0.000000e+000	-1.480467e-001	-1.049751e-001	0.000000e+000	0.000000e+000	0.000000e+000	0.000000e+000
5801340134.013	0.000000e+000	0.000000e+000	-1.509361e-001	-1.034325e-001	0.000000e+000	0.000000e+000	0.000000e+000	0.000000e+000
5801360136.014	0.000000e+000	0.000000e+000	-1.536379e-001	-1.017642e-001	0.000000e+000	0.000000e+000	0.000000e+000	0.000000e+000
5801380138.014	0.000000e+000	0.000000e+000	-1.563363e-001	-1.001204e-001	0.000000e+000	0.000000e+000	0.000000e+000	0.000000e+000
5801400140.014	0.000000e+000	0.000000e+000	-1.585756e-001	-9.847651e-002	0.000000e+000	0.000000e+000	0.000000e+000	0.000000e+000
5801420142.014	0.000000e+000	0.000000e+000	-1.607411e-001	-9.662597e-002	0.000000e+000	0.000000e+000	0.000000e+000	0.000000e+000
5801440144.014	0.000000e+000	0.000000e+000	-1.628620e-001	-9.489626e-002	0.000000e+000	0.000000e+000	0.000000e+000	0.000000e+000
5801460146.015	0.000000e+000	0.000000e+000	-1.647055e-001	-9.315689e-002	0.000000e+000	0.000000e+000	0.000000e+000	0.000000e+000
5801480148.015	0.000000e+000	0.000000e+000	-1.664216e-001	-9.143037e-002	0.000000e+000	0.000000e+000	0.000000e+000	0.000000e+000
5801500150.015	0.000000e+000	0.000000e+000	-1.682245e-001	-8.971244e-002	0.000000e+000	0.000000e+000	0.000000e+000	0.000000e+000
5801520152.015	0.000000e+000	0.000000e+000	-1.697942e-001	-8.785431e-002	0.000000e+000	0.000000e+000	0.000000e+000	0.000000e+000
5801540154.015	0.000000e+000	0.000000e+000	-1.713133e-001	-8.612029e-002	0.000000e+000	0.000000e+000	0.000000e+000	0.000000e+000
5801560156.016	0.000000e+000	0.000000e+000	-1.727695e-001	-8.429585e-002	0.000000e+000	0.000000e+000	0.000000e+000	0.000000e+000
5801580158.016	0.000000e+000	0.000000e+000	-1.742424e-001	-8.263049e-002	0.000000e+000	0.000000e+000	0.000000e+000	0.000000e+000
5801600160.016	0.000000e+000	0.000000e+000	-1.754658e-001	-8.083568e-002	0.000000e+000	0.000000e+000	0.000000e+000	0.000000e+000
5801620162.016	0.000000e+000	0.000000e+000	-1.766186e-001	-7.906755e-002	0.000000e+000	0.000000e+000	0.000000e+000	0.000000e+000
5801640164.016	0.000000e+000	0.000000e+000	-1.779506e-001	-7.726683e-002	0.000000e+000	0.000000e+000	0.000000e+000	0.000000e+000
5801660166.017	0.000000e+000	0.000000e+000	-1.790313e-001	-7.559362e-002	0.000000e+000	0.000000e+000	0.000000e+000	0.000000e+000
5801680168.017	0.000000e+000	0.000000e+000	-1.800947e-001	-7.385459e-002	0.000000e+000	0.000000e+000	0.000000e+000	0.000000e+000
5801700170.017	0.000000e+000	0.000000e+000	-1.812519e-001	-7.187969e-002	0.000000e+000	0.000000e+000	0.000000e+000	0.000000e+000
5801720172.017	0.000000e+000	0.000000e+000	-1.822839e-001	-7.028179e-002	0.000000e+000	0.000000e+000	0.000000e+000	0.000000e+000
5801740174.017	0.000000e+000	0.000000e+000	-1.830900e-001	-6.836472e-002	0.000000e+000	0.000000e+000	0.000000e+000	0.000000e+000
5801760176.018	0.000000e+000	0.000000e+000	-1.841242e-001	-6.671480e-002	0.000000e+000	0.000000e+000	0.000000e+000	0.000000e+000
5801780178.018	0.000000e+000	0.000000e+000	-1.850985e-001	-6.483023e-002	0.000000e+000	0.000000e+000	0.000000e+000	0.000000e+000
5801800180.018	0.000000e+000	0.000000e+000	-1.859955e-001	-6.315444e-002	0.000000e+000	0.000000e+000	0.000000e+000	0.000000e+000
5801820182.018	0.000000e+000	0.000000e+000	-1.869016e-001	-6.139492e-002	0.000000e+000	0.000000e+000	0.000000e+000	0.000000e+000
5801840184.018	0.000000e+000	0.000000e+000	-1.877320e-001	-5.954669e-002	0.000000e+000	0.000000e+000	0.000000e+000	0.000000e+000
5801860186.019	0.000000e+000	0.000000e+000	-1.883957e-001	-5.774769e-002	0.000000e+000	0.000000e+000	0.000000e+000	0.000000e+000
5801880188.019	0.000000e+000	0.000000e+000	-1.891717e-001	-5.595302e-002	0.000000e+000	0.000000e+000	0.000000e+000	0.000000e+000
5801900190.019	0.000000e+000	0.000000e+000	-1.899912e-001	-5.421555e-002	0.000000e+000	0.000000e+000	0.000000e+000	0.000000e+000
5801920192.019	0.000000e+000	0.000000e+000	-1.906903e-001	-5.237910e-002	0.000000e+000	0.000000e+000	0.000000e+000	0.000000e+000
5801940194.019	0.000000e+000	0.000000e+000	-1.914049e-001	-5.056977e-002	0.000000e+000	0.000000e+000	0.000000e+000	0.000000e+000
5801960196.020	0.000000e+000	0.000000e+000	-1.921841e-001	-4.875838e-002	0.000000e+000	0.000000e+000	0.000000e+000	0.000000e+000
5801980198.020	0.000000e+000	0.000000e+000	-1.927370e-001	-4.691714e-002	0.000000e+000	0.000000e+000	0.000000e+000	0.000000e+000
5802000200.020	0.000000e+000	0.000000e+000	-1.933141e-001	-4.519202e-002	0.000000e+000	0.000000e+000	0.000000e+000	0.000000e+000
5802020202.020	0.000000e+000	0.000000e+000	-1.940407e-001	-4.342672e-002	0.000000e+000	0.000000e+000	0.000000e+000	0.000000e+000
5802040204.020	0.000000e+000	0.000000e+000	-1.945929e-001	-4.151919e-002	0.000000e+000	0.000000e+000	0.000000e+000	0.000000e+000
5802060206.021	0.000000e+000	0.000000e+000	-1.950646e-001	-3.968963e-002	0.000000e+000	0.000000e+000	0.000000e+000	0.000000e+000
5802080208.021	0.000000e+000	0.000000e+000	-1.956157e-001	-3.791833e-002	0.000000e+000	0.000000e+000	0.000000e+000	0.000000e+000
5802100210.021	0.000000e+000	0.000000e+000	-1.962110e-001	-3.601663e-002	0.000000e+000	0.000000e+000	0.000000e+000	0.000000e+000
5802120212.021	0.000000e+000	0.000000e+000	-1.966404e-001	-3.419043e-002	0.000000e+000	0.000000e+000	0.000000e+000	0.000000e+000
5802140214.021	0.000000e+000	0.000000e+000	-1.971423e-001	-3.232044e-002	0.000000e+000	0.000000e+000	0.000000e+000	0.000000e+000
5802160216.022	0.000000e+000	0.000000e+000	-1.976830e-001	-3.051308e-002	0.000000e+000	0.000000e+000	0.000000e+000	0.000000e+000
5802180218.022	0.000000e+000	0.000000e+000	-1.981226e-001	-2.860953e-002	0.000000e+000	0.000000e+000	0.000000e+000	0.000000e+000
5802200220.022	0.000000e+000	0.000000e+000	-1.984677e-001	-2.683152e-002	0.000000e+000	0.000000e+000	0.000000e+000	0.000000e+000
5802220222.022	0.000000e+000	0.000000e+000	-1.989249e-001	-2.493161e-002	0.000000e+000	0.000000e+000	0.000000e+000	0.000000e+000
5802240224.022	0.000000e+000	0.000000e+000	-1.993825e-001	-2.303272e-002	0.000000e+000	0.000000e+000	0.000000e+000	0.000000e+000
5802260226.023	0.000000e+000	0.000000e+000	-1.996809e-001	-2.123915e-002	0.000000e+000	0.000000e+000	0.000000e+000	0.000000e+000
5802280228.023	0.000000e+000	0.000000e+000	-2.001164e-001	-1.934054e-002	0.000000e+000	0.000000e+000	0.000000e+000	0.000000e+000
5802300230.023	0.000000e+000	0.000000e+000	-2.004206e-001	-1.741602e-002	0.000000e+000	0.000000e+000	0.000000e+000	0.000000e+000
5802320232.023	0.000000e+000	0.000000e+000	-2.006471e-001	-1.555068e-002	0.000000e+000	0.000000e+000	0.000000e+000	0.000000e+000
5802340234.023	0.000000e+000	0.000000e+000	-2.010198e-001	-1.369057e-002	0.000000e+000	0.000000e+000	0.000000e+000	0.000000e+000
5802360236.024	0.000000e+000	0.000000e+000	-2.014108e-001	-1.173825e-002	0.000000e+000	0.000000e+000	0.000000e+000	0.000000e+000
5802380238.024	0.000000e+000	0.000000e+000	-2.016339e-001	-9.865571e-003	0.000000e+000	0.000000e+000	0.000000e+000	0.000000e+000
5802400240.024	0.000000e+000	0.000000e+000	-2.018472e-001	-7.905658e-003	0.000000e+000	0.000000e+000	0.000000e+000	0.000000e+000
5802420242.024	0.000000e+000	0.000000e+000	-2.020442e-001	-5.941192e-003	0.000000e+000	0.000000e+000	0.000000e+000	0.000000e+000
5802440244.024	0.000000e+000	0.000000e+000	-2.023513e-001	-4.003904e-003	0.000000e+000	0.000000e+000	0.000000e+000	0.000000e+000
5802460246.025	0.000000e+000	0.000000e+000	-2.025876e-001	-1.981340e-003	0.000000e+000	0.000000e+000	0.000000e+000	0.000000e+000
5802480248.025	0.000000e+000	0.000000e+000	-2.027443e-001	1.034844e-005	0.000000e+000	0.000000e+000	0.000000e+000	0.000000e+000
5802500250.025	0.000000e+000	0.000000e+000	-2.029911e-001	1.964411e-003	0.000000e+000	0.000000e+000	0.000000e+000	0.000000e+000
5802520252.025	0.000000e+000	0.000000e+000	-2.030708e-001	3.956963e-003	0.000000e+000	0.000000e+000	0.000000e+000	0.000000e+000
5802540254.025	0.000000e+000	0.000000e+000	-2.031536e-001	5.843730e-003	0.000000e+000	0.000000e+000	0.000000e+000	0.000000e+000
5802560256.026	0.000000e+000	0.000000e+000	-2.032760e-001	7.941518e-003	0.000000e+000	0.000000e+000	0.000000e+000	0.000000e+000
5802580258.026	0.000000e+000	0.000000e+000	-2.033638e-001	9.918085e-003	0.000000e+000	0.000000e+000	0.000000e+000	0.000000e+000
5802600260.026	0.000000e+000	0.000000e+000	-2.035432e-001	1.201145e-002	0.000000e+000	0.000000e+000	0.000000e+000	0.000000e+000
5802620262.026	0.000000e+000	0.000000e+000	-2.036676e-001	1.420749e-002	0.000000e+000	0.000000e+000	0.000000e+000	0.000000e+000
5802640264.026	0.000000e+000	0.000000e+000	-2.036423e-001	1.621351e-002	0.000000e+000	0.000000e+000	0.000000e+000	0.000000e+000
5802660266.027	0.000000e+000	0.000000e+000	-2.035468e-001	1.828297e-002	0.000000e+000	0.000000e+000	0.000000e+000	0.000000e+000
5802680268.027	0.000000e+000	0.000000e+000	-2.036462e-001	2.040036e-002	0.000000e+000	0.000000e+000	0.000000e+000	0.000000e+000
5802700270.027	0.000000e+000	0.000000e+000	-2.037207e-001	2.262650e-002	0.000000e+000	0.000000e+000	0.000000e+000	0.000000e+000
5802720272.027	0.000000e+000	0.000000e+000	-2.035616e-001	2.467025e-002	0.000000e+000	0.000000e+000	0.000000e+000	0.000000e+000
5802740274.027	0.000000e+000	0.000000e+000	-2.035960e-001	2.698958e-002	0.000000e+000	0.000000e+000	0.000000e+000	0.000000e+000
5802760276.028	0.000000e+000	0.000000e+000	-2.035417e-001	2.916487e-002	0.000000e+000	0.000000e+000	0.000000e+000	0.000000e+000
5802780278.028	0.000000e+000	0.000000e+000	-2.034540e-001	3.139076e-002	0.000000e+000	0.000000e+000	0.000000e+000	0.000000e+000
5802800280.028	0.000000e+000	0.000000e+000	-2.033228e-001	3.372444e-002	0.000000e+000	0.000000e+000	0.000000e+000	0.000000e+000
5802820282.028	0.000000e+000	0.000000e+000	-2.032407e-001	3.605411e-002	0.000000e+000	0.000000e+000	0.000000e+000	0.000000e+000
5802840284.028	0.000000e+000	0.000000e+000	-2.030658e-001	3.840164e-002	0.000000e+000	0.000000e+000	0.000000e+000	0.000000e+000
5802860286.029	0.000000e+000	0.000000e+000	-2.028962e-001	4.077833e-002	0.000000e+000	0.000000e+000	0.000000e+000	0.000000e+000
5802880288.029	0.000000e+000	0.000000e+000	-2.026905e-001	4.329970e-002	0.000000e+000	0.000000e+000	0.000000e+000	0.000000e+000
5802900290.029	0.000000e+000	0.000000e+000	-2.024462e-001	4.577826e-002	0.000000e+000	0.000000e+000	0.000000e+000	0.000000e+000
5802920292.029	0.000000e+000	0.000000e+000	-2.021539e-001	4.828987e-002	0.000000e+000	0.000000e+000	0.000000e+000	0.000000e+000
5802940294.029	0.000000e+000	0.000000e+000	-2.018728e-001	5.100909e-002	0.000000e+000	0.000000e+000	0.000000e+000	0.000000e+000
5802960296.030	0.000000e+000	0.000000e+000	-2.015634e-001	5.385364e-002	0.000000e+000	0.000000e+000	0.000000e+000	0.000000e+000
5802980298.030	0.000000e+000	0.000000e+000	-2.011120e-001	5.665138e-002	0.000000e+000	0.000000e+000	0.000000e+000	0.000000e+000
5803000300.030	0.000000e+000	0.000000e+000	-2.007324e-001	5.956181e-002	0.000000e+000	0.000000e+000	0.000000e+000	0.000000e+000
5803020302.030	0.000000e+000	0.000000e+000	-2.002423e-001	6.268232e-002	0.000000e+000	0.000000e+000	0.000000e+000	0.000000e+000
