!Keysight Technologies,E5063A,MY54502693,A.05.04
!Date: Sat Feb 27 20:24:18 2021
!Data & Calibration Information:
!Freq	S11:NONE(--)	S21:NONE(--)	S12:NONE(--)	S22:NONE(--)
# Hz S RI R 50
5200000000.000	0.000000e+000	0.000000e+000	1.719295e-001	-2.251866e-001	0.000000e+000	0.000000e+000	0.000000e+000	0.000000e+000
5200020002.000	0.000000e+000	0.000000e+000	1.692340e-001	-2.269166e-001	0.000000e+000	0.000000e+000	0.000000e+000	0.000000e+000
5200040004.000	0.000000e+000	0.000000e+000	1.663364e-001	-2.286295e-001	0.000000e+000	0.000000e+000	0.000000e+000	0.000000e+000
5200060006.001	0.000000e+000	0.000000e+000	1.634919e-001	-2.301847e-001	0.000000e+000	0.000000e+000	0.000000e+000	0.000000e+000
5200080008.001	0.000000e+000	0.000000e+000	1.604425e-001	-2.318237e-001	0.000000e+000	0.000000e+000	0.000000e+000	0.000000e+000
5200100010.001	0.000000e+000	0.000000e+000	1.572907e-001	-2.333961e-001	0.000000e+000	0.000000e+000	0.000000e+000	0.000000e+000
5200120012.001	0.000000e+000	0.000000e+000	1.539502e-001	-2.349819e-001	0.000000e+000	0.000000e+000	0.000000e+000	0.000000e+000
5200140014.001	0.000000e+000	0.000000e+000	1.505634e-001	-2.365825e-001	0.000000e+000	0.000000e+000	0.000000e+000	0.000000e+000
5200160016.002	0.000000e+000	0.000000e+000	1.467922e-001	-2.380161e-001	0.000000e+000	0.000000e+000	0.000000e+000	0.000000e+000
5200180018.002	0.000000e+000	0.000000e+000	1.427123e-001	-2.392905e-001	0.000000e+000	0.000000e+000	0.000000e+000	0.000000e+000
5200200020.002	0.000000e+000	0.000000e+000	1.383875e-001	-2.405657e-001	0.000000e+000	0.000000e+000	0.000000e+000	0.000000e+000
5200220022.002	0.000000e+000	0.000000e+000	1.336739e-001	-2.417594e-001	0.000000e+000	0.000000e+000	0.000000e+000	0.000000e+000
5200240024.002	0.000000e+000	0.000000e+000	1.285522e-001	-2.426988e-001	0.000000e+000	0.000000e+000	0.000000e+000	0.000000e+000
5200260026.003	0.000000e+000	0.000000e+000	1.223089e-001	-2.433432e-001	0.000000e+000	0.000000e+000	0.000000e+000	0.000000e+000
5200280028.003	0.000000e+000	0.000000e+000	1.153911e-001	-2.434254e-001	0.000000e+000	0.000000e+000	0.000000e+000	0.000000e+000
5200300030.003	0.000000e+000	0.000000e+000	1.067588e-001	-2.424122e-001	0.000000e+000	0.000000e+000	0.000000e+000	0.000000e+000
5200320032.003	0.000000e+000	0.000000e+000	9.560638e-002	-2.389858e-001	0.000000e+000	0.000000e+000	0.000000e+000	0.000000e+000
5200340034.003	0.000000e+000	0.000000e+000	7.932589e-002	-2.280945e-001	0.000000e+000	0.000000e+000	0.000000e+000	0.000000e+000
5200360036.004	0.000000e+000	0.000000e+000	6.347864e-002	-1.837593e-001	0.000000e+000	0.000000e+000	0.000000e+000	0.000000e+000
5200380038.004	0.000000e+000	0.000000e+000	9.659359e-002	-1.325389e-001	0.000000e+000	0.000000e+000	0.000000e+000	0.000000e+000
5200400040.004	0.000000e+000	0.000000e+000	1.331573e-001	-1.249349e-001	0.000000e+000	0.000000e+000	0.000000e+000	0.000000e+000
5200420042.004	0.000000e+000	0.000000e+000	1.590701e-001	-1.337436e-001	0.000000e+000	0.000000e+000	0.000000e+000	0.000000e+000
5200440044.004	0.000000e+000	0.000000e+000	1.751313e-001	-1.480608e-001	0.000000e+000	0.000000e+000	0.000000e+000	0.000000e+000
5200460046.005	0.000000e+000	0.000000e+000	1.840349e-001	-1.641929e-001	0.000000e+000	0.000000e+000	0.000000e+000	0.000000e+000
5200480048.005	0.000000e+000	0.000000e+000	1.873212e-001	-1.797225e-001	0.000000e+000	0.000000e+000	0.000000e+000	0.000000e+000
5200500050.005	0.000000e+000	0.000000e+000	1.869431e-001	-1.934739e-001	0.000000e+000	0.000000e+000	0.000000e+000	0.000000e+000
5200520052.005	0.000000e+000	0.000000e+000	1.842238e-001	-2.054749e-001	0.000000e+000	0.000000e+000	0.000000e+000	0.000000e+000
5200540054.005	0.000000e+000	0.000000e+000	1.799267e-001	-2.155520e-001	0.000000e+000	0.000000e+000	0.000000e+000	0.000000e+000
5200560056.006	0.000000e+000	0.000000e+000	1.749752e-001	-2.239344e-001	0.000000e+000	0.000000e+000	0.000000e+000	0.000000e+000
5200580058.006	0.000000e+000	0.000000e+000	1.696194e-001	-2.309179e-001	0.000000e+000	0.000000e+000	0.000000e+000	0.000000e+000
5200600060.006	0.000000e+000	0.000000e+000	1.642754e-001	-2.366845e-001	0.000000e+000	0.000000e+000	0.000000e+000	0.000000e+000
5200620062.006	0.000000e+000	0.000000e+000	1.591411e-001	-2.413546e-001	0.000000e+000	0.000000e+000	0.000000e+000	0.000000e+000
5200640064.006	0.000000e+000	0.000000e+000	1.541425e-001	-2.453649e-001	0.000000e+000	0.000000e+000	0.000000e+000	0.000000e+000
5200660066.007	0.000000e+000	0.000000e+000	1.495932e-001	-2.488765e-001	0.000000e+000	0.000000e+000	0.000000e+000	0.000000e+000
5200680068.007	0.000000e+000	0.000000e+000	1.450869e-001	-2.517852e-001	0.000000e+000	0.000000e+000	0.000000e+000	0.000000e+000
5200700070.007	0.000000e+000	0.000000e+000	1.408814e-001	-2.544118e-001	0.000000e+000	0.000000e+000	0.000000e+000	0.000000e+000
5200720072.007	0.000000e+000	0.000000e+000	1.369381e-001	-2.567447e-001	0.000000e+000	0.000000e+000	0.000000e+000	0.000000e+000
5200740074.007	0.000000e+000	0.000000e+000	1.330028e-001	-2.589005e-001	0.000000e+000	0.000000e+000	0.000000e+000	0.000000e+000
5200760076.008	0.000000e+000	0.000000e+000	1.293836e-001	-2.606915e-001	0.000000e+000	0.000000e+000	0.000000e+000	0.000000e+000
5200780078.008	0.000000e+000	0.000000e+000	1.257857e-001	-2.624112e-001	0.000000e+000	0.000000e+000	0.000000e+000	0.000000e+000
5200800080.008	0.000000e+000	0.000000e+000	1.224117e-001	-2.641154e-001	0.000000e+000	0.000000e+000	0.000000e+000	0.000000e+000
5200820082.008	0.000000e+000	0.000000e+000	1.189926e-001	-2.657262e-001	0.000000e+000	0.000000e+000	0.000000e+000	0.000000e+000
5200840084.008	0.000000e+000	0.000000e+000	1.156982e-001	-2.670096e-001	0.000000e+000	0.000000e+000	0.000000e+000	0.000000e+000
5200860086.009	0.000000e+000	0.000000e+000	1.125902e-001	-2.684600e-001	0.000000e+000	0.000000e+000	0.000000e+000	0.000000e+000
5200880088.009	0.000000e+000	0.000000e+000	1.092843e-001	-2.696743e-001	0.000000e+000	0.000000e+000	0.000000e+000	0.000000e+000
5200900090.009	0.000000e+000	0.000000e+000	1.062069e-001	-2.708559e-001	0.000000e+000	0.000000e+000	0.000000e+000	0.000000e+000
5200920092.009	0.000000e+000	0.000000e+000	1.031551e-001	-2.719994e-001	0.000000e+000	0.000000e+000	0.000000e+000	0.000000e+000
5200940094.009	0.000000e+000	0.000000e+000	1.001361e-001	-2.731636e-001	0.000000e+000	0.000000e+000	0.000000e+000	0.000000e+000
5200960096.010	0.000000e+000	0.000000e+000	9.714422e-002	-2.740915e-001	0.000000e+000	0.000000e+000	0.000000e+000	0.000000e+000
5200980098.010	0.000000e+000	0.000000e+000	9.413263e-002	-2.751546e-001	0.000000e+000	0.000000e+000	0.000000e+000	0.000000e+000
5201000100.010	0.000000e+000	0.000000e+000	9.121191e-002	-2.761231e-001	0.000000e+000	0.000000e+000	0.000000e+000	0.000000e+000
5201020102.010	0.000000e+000	0.000000e+000	8.826429e-002	-2.771365e-001	0.000000e+000	0.000000e+000	0.000000e+000	0.000000e+000
5201040104.010	0.000000e+000	0.000000e+000	8.538118e-002	-2.779924e-001	0.000000e+000	0.000000e+000	0.000000e+000	0.000000e+000
5201060106.011	0.000000e+000	0.000000e+000	8.238804e-002	-2.788165e-001	0.000000e+000	0.000000e+000	0.000000e+000	0.000000e+000
5201080108.011	0.000000e+000	0.000000e+000	7.948634e-002	-2.795896e-001	0.000000e+000	0.000000e+000	0.000000e+000	0.000000e+000
5201100110.011	0.000000e+000	0.000000e+000	7.656418e-002	-2.803483e-001	0.000000e+000	0.000000e+000	0.000000e+000	0.000000e+000
5201120112.011	0.000000e+000	0.000000e+000	7.370281e-002	-2.811106e-001	0.000000e+000	0.000000e+000	0.000000e+000	0.000000e+000
5201140114.011	0.000000e+000	0.000000e+000	7.072353e-002	-2.818297e-001	0.000000e+000	0.000000e+000	0.000000e+000	0.000000e+000
5201160116.012	0.000000e+000	0.000000e+000	6.786786e-002	-2.824598e-001	0.000000e+000	0.000000e+000	0.000000e+000	0.000000e+000
5201180118.012	0.000000e+000	0.000000e+000	6.502979e-002	-2.830330e-001	0.000000e+000	0.000000e+000	0.000000e+000	0.000000e+000
5201200120.012	0.000000e+000	0.000000e+000	6.215392e-002	-2.837171e-001	0.000000e+000	0.000000e+000	0.000000e+000	0.000000e+000
5201220122.012	0.000000e+000	0.000000e+000	5.927825e-002	-2.841536e-001	0.000000e+000	0.000000e+000	0.000000e+000	0.000000e+000
5201240124.012	0.000000e+000	0.000000e+000	5.632019e-002	-2.848407e-001	0.000000e+000	0.000000e+000	0.000000e+000	0.000000e+000
5201260126.013	0.000000e+000	0.000000e+000	5.343683e-002	-2.853349e-001	0.000000e+000	0.000000e+000	0.000000e+000	0.000000e+000
5201280128.013	0.000000e+000	0.000000e+000	5.056043e-002	-2.858362e-001	0.000000e+000	0.000000e+000	0.000000e+000	0.000000e+000
5201300130.013	0.000000e+000	0.000000e+000	4.753796e-002	-2.861437e-001	0.000000e+000	0.000000e+000	0.000000e+000	0.000000e+000
5201320132.013	0.000000e+000	0.000000e+000	4.460210e-002	-2.866797e-001	0.000000e+000	0.000000e+000	0.000000e+000	0.000000e+000
5201340134.013	0.000000e+000	0.000000e+000	4.159994e-002	-2.870203e-001	0.000000e+000	0.000000e+000	0.000000e+000	0.000000e+000
5201360136.014	0.000000e+000	0.000000e+000	3.869606e-002	-2.873902e-001	0.000000e+000	0.000000e+000	0.000000e+000	0.000000e+000
5201380138.014	0.000000e+000	0.000000e+000	3.564323e-002	-2.877596e-001	0.000000e+000	0.000000e+000	0.000000e+000	0.000000e+000
5201400140.014	0.000000e+000	0.000000e+000	3.256335e-002	-2.881035e-001	0.000000e+000	0.000000e+000	0.000000e+000	0.000000e+000
5201420142.014	0.000000e+000	0.000000e+000	2.951749e-002	-2.882144e-001	0.000000e+000	0.000000e+000	0.000000e+000	0.000000e+000
5201440144.014	0.000000e+000	0.000000e+000	2.643348e-002	-2.884155e-001	0.000000e+000	0.000000e+000	0.000000e+000	0.000000e+000
5201460146.015	0.000000e+000	0.000000e+000	2.330032e-002	-2.886349e-001	0.000000e+000	0.000000e+000	0.000000e+000	0.000000e+000
5201480148.015	0.000000e+000	0.000000e+000	2.012797e-002	-2.887707e-001	0.000000e+000	0.000000e+000	0.000000e+000	0.000000e+000
5201500150.015	0.000000e+000	0.000000e+000	1.689816e-002	-2.888286e-001	0.000000e+000	0.000000e+000	0.000000e+000	0.000000e+000
5201520152.015	0.000000e+000	0.000000e+000	1.349652e-002	-2.889231e-001	0.000000e+000	0.000000e+000	0.000000e+000	0.000000e+000
5201540154.015	0.000000e+000	0.000000e+000	1.032014e-002	-2.888600e-001	0.000000e+000	0.000000e+000	0.000000e+000	0.000000e+000
5201560156.016	0.000000e+000	0.000000e+000	6.777318e-003	-2.888596e-001	0.000000e+000	0.000000e+000	0.000000e+000	0.000000e+000
5201580158.016	0.000000e+000	0.000000e+000	3.285046e-003	-2.886388e-001	0.000000e+000	0.000000e+000	0.000000e+000	0.000000e+000
5201600160.016	0.000000e+000	0.000000e+000	-3.964578e-004	-2.883945e-001	0.000000e+000	0.000000e+000	0.000000e+000	0.000000e+000
5201620162.016	0.000000e+000	0.000000e+000	-4.094964e-003	-2.880101e-001	0.000000e+000	0.000000e+000	0.000000e+000	0.000000e+000
5201640164.016	0.000000e+000	0.000000e+000	-7.994009e-003	-2.876057e-001	0.000000e+000	0.000000e+000	0.000000e+000	0.000000e+000
5201660166.017	0.000000e+000	0.000000e+000	-1.201740e-002	-2.870748e-001	0.000000e+000	0.000000e+000	0.000000e+000	0.000000e+000
5201680168.017	0.000000e+000	0.000000e+000	-1.616775e-002	-2.862671e-001	0.000000e+000	0.000000e+000	0.000000e+000	0.000000e+000
5201700170.017	0.000000e+000	0.000000e+000	-2.076020e-002	-2.854555e-001	0.000000e+000	0.000000e+000	0.000000e+000	0.000000e+000
5201720172.017	0.000000e+000	0.000000e+000	-2.563905e-002	-2.840783e-001	0.000000e+000	0.000000e+000	0.000000e+000	0.000000e+000
5201740174.017	0.000000e+000	0.000000e+000	-3.086011e-002	-2.824888e-001	0.000000e+000	0.000000e+000	0.000000e+000	0.000000e+000
5201760176.018	0.000000e+000	0.000000e+000	-3.652650e-002	-2.801904e-001	0.000000e+000	0.000000e+000	0.000000e+000	0.000000e+000
5201780178.018	0.000000e+000	0.000000e+000	-4.317669e-002	-2.770700e-001	0.000000e+000	0.000000e+000	0.000000e+000	0.000000e+000
5201800180.018	0.000000e+000	0.000000e+000	-5.095754e-002	-2.718152e-001	0.000000e+000	0.000000e+000	0.000000e+000	0.000000e+000
5201820182.018	0.000000e+000	0.000000e+000	-5.997179e-002	-2.630649e-001	0.000000e+000	0.000000e+000	0.000000e+000	0.000000e+000
5201840184.018	0.000000e+000	0.000000e+000	-6.988745e-002	-2.425872e-001	0.000000e+000	0.000000e+000	0.000000e+000	0.000000e+000
5201860186.019	0.000000e+000	0.000000e+000	-5.764815e-002	-1.949230e-001	0.000000e+000	0.000000e+000	0.000000e+000	0.000000e+000
5201880188.019	0.000000e+000	0.000000e+000	-1.025199e-002	-1.734154e-001	0.000000e+000	0.000000e+000	0.000000e+000	0.000000e+000
5201900190.019	0.000000e+000	0.000000e+000	2.317697e-002	-1.842262e-001	0.000000e+000	0.000000e+000	0.000000e+000	0.000000e+000
5201920192.019	0.000000e+000	0.000000e+000	4.038608e-002	-2.036699e-001	0.000000e+000	0.000000e+000	0.000000e+000	0.000000e+000
5201940194.019	0.000000e+000	0.000000e+000	4.641517e-002	-2.237519e-001	0.000000e+000	0.000000e+000	0.000000e+000	0.000000e+000
5201960196.020	0.000000e+000	0.000000e+000	4.513085e-002	-2.411643e-001	0.000000e+000	0.000000e+000	0.000000e+000	0.000000e+000
5201980198.020	0.000000e+000	0.000000e+000	3.977142e-002	-2.550053e-001	0.000000e+000	0.000000e+000	0.000000e+000	0.000000e+000
5202000200.020	0.000000e+000	0.000000e+000	3.237350e-002	-2.654521e-001	0.000000e+000	0.000000e+000	0.000000e+000	0.000000e+000
5202020202.020	0.000000e+000	0.000000e+000	2.419555e-002	-2.729403e-001	0.000000e+000	0.000000e+000	0.000000e+000	0.000000e+000
5202040204.020	0.000000e+000	0.000000e+000	1.594501e-002	-2.783732e-001	0.000000e+000	0.000000e+000	0.000000e+000	0.000000e+000
5202060206.021	0.000000e+000	0.000000e+000	7.987239e-003	-2.820883e-001	0.000000e+000	0.000000e+000	0.000000e+000	0.000000e+000
5202080208.021	0.000000e+000	0.000000e+000	8.869845e-004	-2.844469e-001	0.000000e+000	0.000000e+000	0.000000e+000	0.000000e+000
5202100210.021	0.000000e+000	0.000000e+000	-5.889303e-003	-2.861502e-001	0.000000e+000	0.000000e+000	0.000000e+000	0.000000e+000
5202120212.021	0.000000e+000	0.000000e+000	-1.205169e-002	-2.872962e-001	0.000000e+000	0.000000e+000	0.000000e+000	0.000000e+000
5202140214.021	0.000000e+000	0.000000e+000	-1.763608e-002	-2.877866e-001	0.000000e+000	0.000000e+000	0.000000e+000	0.000000e+000
5202160216.022	0.000000e+000	0.000000e+000	-2.286510e-002	-2.881948e-001	0.000000e+000	0.000000e+000	0.000000e+000	0.000000e+000
5202180218.022	0.000000e+000	0.000000e+000	-2.764659e-002	-2.883768e-001	0.000000e+000	0.000000e+000	0.000000e+000	0.000000e+000
5202200220.022	0.000000e+000	0.000000e+000	-3.210570e-002	-2.883080e-001	0.000000e+000	0.000000e+000	0.000000e+000	0.000000e+000
5202220222.022	0.000000e+000	0.000000e+000	-3.634526e-002	-2.881577e-001	0.000000e+000	0.000000e+000	0.000000e+000	0.000000e+000
5202240224.022	0.000000e+000	0.000000e+000	-4.037326e-002	-2.878986e-001	0.000000e+000	0.000000e+000	0.000000e+000	0.000000e+000
5202260226.023	0.000000e+000	0.000000e+000	-4.422682e-002	-2.876123e-001	0.000000e+000	0.000000e+000	0.000000e+000	0.000000e+000
5202280228.023	0.000000e+000	0.000000e+000	-4.781840e-002	-2.872170e-001	0.000000e+000	0.000000e+000	0.000000e+000	0.000000e+000
5202300230.023	0.000000e+000	0.000000e+000	-5.145282e-002	-2.868108e-001	0.000000e+000	0.000000e+000	0.000000e+000	0.000000e+000
5202320232.023	0.000000e+000	0.000000e+000	-5.483770e-002	-2.861784e-001	0.000000e+000	0.000000e+000	0.000000e+000	0.000000e+000
5202340234.023	0.000000e+000	0.000000e+000	-5.811923e-002	-2.855886e-001	0.000000e+000	0.000000e+000	0.000000e+000	0.000000e+000
5202360236.024	0.000000e+000	0.000000e+000	-6.141952e-002	-2.850609e-001	0.000000e+000	0.000000e+000	0.000000e+000	0.000000e+000
5202380238.024	0.000000e+000	0.000000e+000	-6.458076e-002	-2.844694e-001	0.000000e+000	0.000000e+000	0.000000e+000	0.000000e+000
5202400240.024	0.000000e+000	0.000000e+000	-6.768870e-002	-2.838638e-001	0.000000e+000	0.000000e+000	0.000000e+000	0.000000e+000
5202420242.024	0.000000e+000	0.000000e+000	-7.067226e-002	-2.830709e-001	0.000000e+000	0.000000e+000	0.000000e+000	0.000000e+000
5202440244.024	0.000000e+000	0.000000e+000	-7.366032e-002	-2.824533e-001	0.000000e+000	0.000000e+000	0.000000e+000	0.000000e+000
5202460246.025	0.000000e+000	0.000000e+000	-7.658860e-002	-2.816832e-001	0.000000e+000	0.000000e+000	0.000000e+000	0.000000e+000
5202480248.025	0.000000e+000	0.000000e+000	-7.946235e-002	-2.808553e-001	0.000000e+000	0.000000e+000	0.000000e+000	0.000000e+000
5202500250.025	0.000000e+000	0.000000e+000	-8.234936e-002	-2.801095e-001	0.000000e+000	0.000000e+000	0.000000e+000	0.000000e+000
5202520252.025	0.000000e+000	0.000000e+000	-8.517400e-002	-2.794301e-001	0.000000e+000	0.000000e+000	0.000000e+000	0.000000e+000
5202540254.025	0.000000e+000	0.000000e+000	-8.798876e-002	-2.786273e-001	0.000000e+000	0.000000e+000	0.000000e+000	0.000000e+000
5202560256.026	0.000000e+000	0.000000e+000	-9.083974e-002	-2.777854e-001	0.000000e+000	0.000000e+000	0.000000e+000	0.000000e+000
5202580258.026	0.000000e+000	0.000000e+000	-9.349353e-002	-2.767600e-001	0.000000e+000	0.000000e+000	0.000000e+000	0.000000e+000
5202600260.026	0.000000e+000	0.000000e+000	-9.607676e-002	-2.760008e-001	0.000000e+000	0.000000e+000	0.000000e+000	0.000000e+000
5202620262.026	0.000000e+000	0.000000e+000	-9.887449e-002	-2.750557e-001	0.000000e+000	0.000000e+000	0.000000e+000	0.000000e+000
5202640264.026	0.000000e+000	0.000000e+000	-1.014755e-001	-2.741532e-001	0.000000e+000	0.000000e+000	0.000000e+000	0.000000e+000
5202660266.027	0.000000e+000	0.000000e+000	-1.041744e-001	-2.731660e-001	0.000000e+000	0.000000e+000	0.000000e+000	0.000000e+000
5202680268.027	0.000000e+000	0.000000e+000	-1.067623e-001	-2.722203e-001	0.000000e+000	0.000000e+000	0.000000e+000	0.000000e+000
5202700270.027	0.000000e+000	0.000000e+000	-1.093536e-001	-2.712319e-001	0.000000e+000	0.000000e+000	0.000000e+000	0.000000e+000
5202720272.027	0.000000e+000	0.000000e+000	-1.119804e-001	-2.701289e-001	0.000000e+000	0.000000e+000	0.000000e+000	0.000000e+000
5202740274.027	0.000000e+000	0.000000e+000	-1.145065e-001	-2.691427e-001	0.000000e+000	0.000000e+000	0.000000e+000	0.000000e+000
5202760276.028	0.000000e+000	0.000000e+000	-1.170327e-001	-2.681349e-001	0.000000e+000	0.000000e+000	0.000000e+000	0.000000e+000
5202780278.028	0.000000e+000	0.000000e+000	-1.197003e-001	-2.670891e-001	0.000000e+000	0.000000e+000	0.000000e+000	0.000000e+000
5202800280.028	0.000000e+000	0.000000e+000	-1.220272e-001	-2.658909e-001	0.000000e+000	0.000000e+000	0.000000e+000	0.000000e+000
5202820282.028	0.000000e+000	0.000000e+000	-1.245521e-001	-2.647858e-001	0.000000e+000	0.000000e+000	0.000000e+000	0.000000e+000
5202840284.028	0.000000e+000	0.000000e+000	-1.271057e-001	-2.636950e-001	0.000000e+000	0.000000e+000	0.000000e+000	0.000000e+000
5202860286.029	0.000000e+000	0.000000e+000	-1.295306e-001	-2.624549e-001	0.000000e+000	0.000000e+000	0.000000e+000	0.000000e+000
5202880288.029	0.000000e+000	0.000000e+000	-1.319302e-001	-2.612077e-001	0.000000e+000	0.000000e+000	0.000000e+000	0.000000e+000
5202900290.029	0.000000e+000	0.000000e+000	-1.344083e-001	-2.600693e-001	0.000000e+000	0.000000e+000	0.000000e+000	0.000000e+000
5202920292.029	0.000000e+000	0.000000e+000	-1.368116e-001	-2.588270e-001	0.000000e+000	0.000000e+000	0.000000e+000	0.000000e+000
5202940294.029	0.000000e+000	0.000000e+000	-1.392041e-001	-2.576036e-001	0.000000e+000	0.000000e+000	0.000000e+000	0.000000e+000
5202960296.030	0.000000e+000	0.000000e+000	-1.416192e-001	-2.563712e-001	0.000000e+000	0.000000e+000	0.000000e+000	0.000000e+000
5202980298.030	0.000000e+000	0.000000e+000	-1.439998e-001	-2.551476e-001	0.000000e+000	0.000000e+000	0.000000e+000	0.000000e+000
5203000300.030	0.000000e+000	0.000000e+000	-1.462206e-001	-2.538223e-001	0.000000e+000	0.000000e+000	0.000000e+000	0.000000e+000
5203020302.030	0.000000e+000	0.000000e+000	-1.486771e-001	-2.524525e-001	0.000000e+000	0.000000e+000	0.000000e+000	0.000000e+000
5203040304.030	0.000000e+000	0.000000e+000	-1.510242e-001	-2.511257e-001	0.000000e+000	0.000000e+000	0.000000e+000	0.000000e+000
