!Keysight Technologies,E5063A,MY54502693,A.05.04
!Date: Sat Feb 27 20:28:45 2021
!Data & Calibration Information:
!Freq	S11:NONE(--)	S21:NONE(--)	S12:NONE(--)	S22:NONE(--)
# Hz S RI R 50
5400000000.000	0.000000e+000	0.000000e+000	1.361928e-001	2.056984e-001	0.000000e+000	0.000000e+000	0.000000e+000	0.000000e+000
5400020002.000	0.000000e+000	0.000000e+000	1.386860e-001	2.042291e-001	0.000000e+000	0.000000e+000	0.000000e+000	0.000000e+000
5400040004.000	0.000000e+000	0.000000e+000	1.410370e-001	2.026493e-001	0.000000e+000	0.000000e+000	0.000000e+000	0.000000e+000
5400060006.001	0.000000e+000	0.000000e+000	1.432703e-001	2.010962e-001	0.000000e+000	0.000000e+000	0.000000e+000	0.000000e+000
5400080008.001	0.000000e+000	0.000000e+000	1.455620e-001	1.996989e-001	0.000000e+000	0.000000e+000	0.000000e+000	0.000000e+000
5400100010.001	0.000000e+000	0.000000e+000	1.477185e-001	1.981237e-001	0.000000e+000	0.000000e+000	0.000000e+000	0.000000e+000
5400120012.001	0.000000e+000	0.000000e+000	1.498740e-001	1.965614e-001	0.000000e+000	0.000000e+000	0.000000e+000	0.000000e+000
5400140014.001	0.000000e+000	0.000000e+000	1.519257e-001	1.949423e-001	0.000000e+000	0.000000e+000	0.000000e+000	0.000000e+000
5400160016.002	0.000000e+000	0.000000e+000	1.539013e-001	1.933969e-001	0.000000e+000	0.000000e+000	0.000000e+000	0.000000e+000
5400180018.002	0.000000e+000	0.000000e+000	1.558429e-001	1.918276e-001	0.000000e+000	0.000000e+000	0.000000e+000	0.000000e+000
5400200020.002	0.000000e+000	0.000000e+000	1.578720e-001	1.902348e-001	0.000000e+000	0.000000e+000	0.000000e+000	0.000000e+000
5400220022.002	0.000000e+000	0.000000e+000	1.598567e-001	1.887243e-001	0.000000e+000	0.000000e+000	0.000000e+000	0.000000e+000
5400240024.002	0.000000e+000	0.000000e+000	1.617349e-001	1.871280e-001	0.000000e+000	0.000000e+000	0.000000e+000	0.000000e+000
5400260026.003	0.000000e+000	0.000000e+000	1.636659e-001	1.854500e-001	0.000000e+000	0.000000e+000	0.000000e+000	0.000000e+000
5400280028.003	0.000000e+000	0.000000e+000	1.653563e-001	1.838299e-001	0.000000e+000	0.000000e+000	0.000000e+000	0.000000e+000
5400300030.003	0.000000e+000	0.000000e+000	1.671884e-001	1.821947e-001	0.000000e+000	0.000000e+000	0.000000e+000	0.000000e+000
5400320032.003	0.000000e+000	0.000000e+000	1.689548e-001	1.805113e-001	0.000000e+000	0.000000e+000	0.000000e+000	0.000000e+000
5400340034.003	0.000000e+000	0.000000e+000	1.706420e-001	1.788633e-001	0.000000e+000	0.000000e+000	0.000000e+000	0.000000e+000
5400360036.004	0.000000e+000	0.000000e+000	1.723987e-001	1.772420e-001	0.000000e+000	0.000000e+000	0.000000e+000	0.000000e+000
5400380038.004	0.000000e+000	0.000000e+000	1.740562e-001	1.755137e-001	0.000000e+000	0.000000e+000	0.000000e+000	0.000000e+000
5400400040.004	0.000000e+000	0.000000e+000	1.757158e-001	1.737649e-001	0.000000e+000	0.000000e+000	0.000000e+000	0.000000e+000
5400420042.004	0.000000e+000	0.000000e+000	1.772749e-001	1.721414e-001	0.000000e+000	0.000000e+000	0.000000e+000	0.000000e+000
5400440044.004	0.000000e+000	0.000000e+000	1.788542e-001	1.703477e-001	0.000000e+000	0.000000e+000	0.000000e+000	0.000000e+000
5400460046.005	0.000000e+000	0.000000e+000	1.805369e-001	1.686969e-001	0.000000e+000	0.000000e+000	0.000000e+000	0.000000e+000
5400480048.005	0.000000e+000	0.000000e+000	1.820020e-001	1.669512e-001	0.000000e+000	0.000000e+000	0.000000e+000	0.000000e+000
5400500050.005	0.000000e+000	0.000000e+000	1.835300e-001	1.651961e-001	0.000000e+000	0.000000e+000	0.000000e+000	0.000000e+000
5400520052.005	0.000000e+000	0.000000e+000	1.851003e-001	1.633382e-001	0.000000e+000	0.000000e+000	0.000000e+000	0.000000e+000
5400540054.005	0.000000e+000	0.000000e+000	1.864289e-001	1.616037e-001	0.000000e+000	0.000000e+000	0.000000e+000	0.000000e+000
5400560056.006	0.000000e+000	0.000000e+000	1.879403e-001	1.598394e-001	0.000000e+000	0.000000e+000	0.000000e+000	0.000000e+000
5400580058.006	0.000000e+000	0.000000e+000	1.893143e-001	1.580548e-001	0.000000e+000	0.000000e+000	0.000000e+000	0.000000e+000
5400600060.006	0.000000e+000	0.000000e+000	1.907681e-001	1.561801e-001	0.000000e+000	0.000000e+000	0.000000e+000	0.000000e+000
5400620062.006	0.000000e+000	0.000000e+000	1.920702e-001	1.543407e-001	0.000000e+000	0.000000e+000	0.000000e+000	0.000000e+000
5400640064.006	0.000000e+000	0.000000e+000	1.933543e-001	1.524752e-001	0.000000e+000	0.000000e+000	0.000000e+000	0.000000e+000
5400660066.007	0.000000e+000	0.000000e+000	1.947466e-001	1.507138e-001	0.000000e+000	0.000000e+000	0.000000e+000	0.000000e+000
5400680068.007	0.000000e+000	0.000000e+000	1.959189e-001	1.488218e-001	0.000000e+000	0.000000e+000	0.000000e+000	0.000000e+000
5400700070.007	0.000000e+000	0.000000e+000	1.971830e-001	1.469225e-001	0.000000e+000	0.000000e+000	0.000000e+000	0.000000e+000
5400720072.007	0.000000e+000	0.000000e+000	1.985350e-001	1.450186e-001	0.000000e+000	0.000000e+000	0.000000e+000	0.000000e+000
5400740074.007	0.000000e+000	0.000000e+000	1.995941e-001	1.430441e-001	0.000000e+000	0.000000e+000	0.000000e+000	0.000000e+000
5400760076.008	0.000000e+000	0.000000e+000	2.007941e-001	1.411827e-001	0.000000e+000	0.000000e+000	0.000000e+000	0.000000e+000
5400780078.008	0.000000e+000	0.000000e+000	2.019785e-001	1.392552e-001	0.000000e+000	0.000000e+000	0.000000e+000	0.000000e+000
5400800080.008	0.000000e+000	0.000000e+000	2.029227e-001	1.373609e-001	0.000000e+000	0.000000e+000	0.000000e+000	0.000000e+000
5400820082.008	0.000000e+000	0.000000e+000	2.040693e-001	1.354309e-001	0.000000e+000	0.000000e+000	0.000000e+000	0.000000e+000
5400840084.008	0.000000e+000	0.000000e+000	2.051265e-001	1.334906e-001	0.000000e+000	0.000000e+000	0.000000e+000	0.000000e+000
5400860086.009	0.000000e+000	0.000000e+000	2.061508e-001	1.315088e-001	0.000000e+000	0.000000e+000	0.000000e+000	0.000000e+000
5400880088.009	0.000000e+000	0.000000e+000	2.069793e-001	1.296406e-001	0.000000e+000	0.000000e+000	0.000000e+000	0.000000e+000
5400900090.009	0.000000e+000	0.000000e+000	2.079487e-001	1.276689e-001	0.000000e+000	0.000000e+000	0.000000e+000	0.000000e+000
5400920092.009	0.000000e+000	0.000000e+000	2.088721e-001	1.257364e-001	0.000000e+000	0.000000e+000	0.000000e+000	0.000000e+000
5400940094.009	0.000000e+000	0.000000e+000	2.097077e-001	1.236953e-001	0.000000e+000	0.000000e+000	0.000000e+000	0.000000e+000
5400960096.010	0.000000e+000	0.000000e+000	2.104864e-001	1.217587e-001	0.000000e+000	0.000000e+000	0.000000e+000	0.000000e+000
5400980098.010	0.000000e+000	0.000000e+000	2.113038e-001	1.197611e-001	0.000000e+000	0.000000e+000	0.000000e+000	0.000000e+000
5401000100.010	0.000000e+000	0.000000e+000	2.121032e-001	1.179492e-001	0.000000e+000	0.000000e+000	0.000000e+000	0.000000e+000
5401020102.010	0.000000e+000	0.000000e+000	2.127350e-001	1.158975e-001	0.000000e+000	0.000000e+000	0.000000e+000	0.000000e+000
5401040104.010	0.000000e+000	0.000000e+000	2.134125e-001	1.140476e-001	0.000000e+000	0.000000e+000	0.000000e+000	0.000000e+000
5401060106.011	0.000000e+000	0.000000e+000	2.140236e-001	1.121772e-001	0.000000e+000	0.000000e+000	0.000000e+000	0.000000e+000
5401080108.011	0.000000e+000	0.000000e+000	2.144768e-001	1.102239e-001	0.000000e+000	0.000000e+000	0.000000e+000	0.000000e+000
5401100110.011	0.000000e+000	0.000000e+000	2.149998e-001	1.084337e-001	0.000000e+000	0.000000e+000	0.000000e+000	0.000000e+000
5401120112.011	0.000000e+000	0.000000e+000	2.155624e-001	1.067023e-001	0.000000e+000	0.000000e+000	0.000000e+000	0.000000e+000
5401140114.011	0.000000e+000	0.000000e+000	2.159331e-001	1.047228e-001	0.000000e+000	0.000000e+000	0.000000e+000	0.000000e+000
5401160116.012	0.000000e+000	0.000000e+000	2.164280e-001	1.030035e-001	0.000000e+000	0.000000e+000	0.000000e+000	0.000000e+000
5401180118.012	0.000000e+000	0.000000e+000	2.167726e-001	1.012789e-001	0.000000e+000	0.000000e+000	0.000000e+000	0.000000e+000
5401200120.012	0.000000e+000	0.000000e+000	2.171920e-001	9.962272e-002	0.000000e+000	0.000000e+000	0.000000e+000	0.000000e+000
5401220122.012	0.000000e+000	0.000000e+000	2.175669e-001	9.796268e-002	0.000000e+000	0.000000e+000	0.000000e+000	0.000000e+000
5401240124.012	0.000000e+000	0.000000e+000	2.178476e-001	9.636873e-002	0.000000e+000	0.000000e+000	0.000000e+000	0.000000e+000
5401260126.013	0.000000e+000	0.000000e+000	2.181508e-001	9.488222e-002	0.000000e+000	0.000000e+000	0.000000e+000	0.000000e+000
5401280128.013	0.000000e+000	0.000000e+000	2.185994e-001	9.342920e-002	0.000000e+000	0.000000e+000	0.000000e+000	0.000000e+000
5401300130.013	0.000000e+000	0.000000e+000	2.189621e-001	9.200205e-002	0.000000e+000	0.000000e+000	0.000000e+000	0.000000e+000
5401320132.013	0.000000e+000	0.000000e+000	2.193189e-001	9.060007e-002	0.000000e+000	0.000000e+000	0.000000e+000	0.000000e+000
5401340134.013	0.000000e+000	0.000000e+000	2.196820e-001	8.936575e-002	0.000000e+000	0.000000e+000	0.000000e+000	0.000000e+000
5401360136.014	0.000000e+000	0.000000e+000	2.200931e-001	8.817894e-002	0.000000e+000	0.000000e+000	0.000000e+000	0.000000e+000
5401380138.014	0.000000e+000	0.000000e+000	2.206876e-001	8.684271e-002	0.000000e+000	0.000000e+000	0.000000e+000	0.000000e+000
5401400140.014	0.000000e+000	0.000000e+000	2.211002e-001	8.569948e-002	0.000000e+000	0.000000e+000	0.000000e+000	0.000000e+000
5401420142.014	0.000000e+000	0.000000e+000	2.217452e-001	8.446408e-002	0.000000e+000	0.000000e+000	0.000000e+000	0.000000e+000
5401440144.014	0.000000e+000	0.000000e+000	2.224823e-001	8.347340e-002	0.000000e+000	0.000000e+000	0.000000e+000	0.000000e+000
5401460146.015	0.000000e+000	0.000000e+000	2.231558e-001	8.221963e-002	0.000000e+000	0.000000e+000	0.000000e+000	0.000000e+000
5401480148.015	0.000000e+000	0.000000e+000	2.239184e-001	8.105181e-002	0.000000e+000	0.000000e+000	0.000000e+000	0.000000e+000
5401500150.015	0.000000e+000	0.000000e+000	2.248496e-001	7.975867e-002	0.000000e+000	0.000000e+000	0.000000e+000	0.000000e+000
5401520152.015	0.000000e+000	0.000000e+000	2.257045e-001	7.863461e-002	0.000000e+000	0.000000e+000	0.000000e+000	0.000000e+000
5401540154.015	0.000000e+000	0.000000e+000	2.267775e-001	7.735986e-002	0.000000e+000	0.000000e+000	0.000000e+000	0.000000e+000
5401560156.016	0.000000e+000	0.000000e+000	2.277432e-001	7.599211e-002	0.000000e+000	0.000000e+000	0.000000e+000	0.000000e+000
5401580158.016	0.000000e+000	0.000000e+000	2.287959e-001	7.459446e-002	0.000000e+000	0.000000e+000	0.000000e+000	0.000000e+000
5401600160.016	0.000000e+000	0.000000e+000	2.298962e-001	7.321644e-002	0.000000e+000	0.000000e+000	0.000000e+000	0.000000e+000
5401620162.016	0.000000e+000	0.000000e+000	2.311081e-001	7.169338e-002	0.000000e+000	0.000000e+000	0.000000e+000	0.000000e+000
5401640164.016	0.000000e+000	0.000000e+000	2.322056e-001	7.010965e-002	0.000000e+000	0.000000e+000	0.000000e+000	0.000000e+000
5401660166.017	0.000000e+000	0.000000e+000	2.332343e-001	6.842115e-002	0.000000e+000	0.000000e+000	0.000000e+000	0.000000e+000
5401680168.017	0.000000e+000	0.000000e+000	2.343652e-001	6.676549e-002	0.000000e+000	0.000000e+000	0.000000e+000	0.000000e+000
5401700170.017	0.000000e+000	0.000000e+000	2.355126e-001	6.489812e-002	0.000000e+000	0.000000e+000	0.000000e+000	0.000000e+000
5401720172.017	0.000000e+000	0.000000e+000	2.365465e-001	6.316605e-002	0.000000e+000	0.000000e+000	0.000000e+000	0.000000e+000
5401740174.017	0.000000e+000	0.000000e+000	2.376153e-001	6.123282e-002	0.000000e+000	0.000000e+000	0.000000e+000	0.000000e+000
5401760176.018	0.000000e+000	0.000000e+000	2.387134e-001	5.931834e-002	0.000000e+000	0.000000e+000	0.000000e+000	0.000000e+000
5401780178.018	0.000000e+000	0.000000e+000	2.396908e-001	5.735430e-002	0.000000e+000	0.000000e+000	0.000000e+000	0.000000e+000
5401800180.018	0.000000e+000	0.000000e+000	2.406418e-001	5.544791e-002	0.000000e+000	0.000000e+000	0.000000e+000	0.000000e+000
5401820182.018	0.000000e+000	0.000000e+000	2.415563e-001	5.330614e-002	0.000000e+000	0.000000e+000	0.000000e+000	0.000000e+000
5401840184.018	0.000000e+000	0.000000e+000	2.426089e-001	5.117848e-002	0.000000e+000	0.000000e+000	0.000000e+000	0.000000e+000
5401860186.019	0.000000e+000	0.000000e+000	2.433830e-001	4.900674e-002	0.000000e+000	0.000000e+000	0.000000e+000	0.000000e+000
5401880188.019	0.000000e+000	0.000000e+000	2.441754e-001	4.692382e-002	0.000000e+000	0.000000e+000	0.000000e+000	0.000000e+000
5401900190.019	0.000000e+000	0.000000e+000	2.450014e-001	4.468857e-002	0.000000e+000	0.000000e+000	0.000000e+000	0.000000e+000
5401920192.019	0.000000e+000	0.000000e+000	2.456324e-001	4.248303e-002	0.000000e+000	0.000000e+000	0.000000e+000	0.000000e+000
5401940194.019	0.000000e+000	0.000000e+000	2.464271e-001	4.026150e-002	0.000000e+000	0.000000e+000	0.000000e+000	0.000000e+000
5401960196.020	0.000000e+000	0.000000e+000	2.471196e-001	3.802117e-002	0.000000e+000	0.000000e+000	0.000000e+000	0.000000e+000
5401980198.020	0.000000e+000	0.000000e+000	2.476797e-001	3.574468e-002	0.000000e+000	0.000000e+000	0.000000e+000	0.000000e+000
5402000200.020	0.000000e+000	0.000000e+000	2.482998e-001	3.349354e-002	0.000000e+000	0.000000e+000	0.000000e+000	0.000000e+000
5402020202.020	0.000000e+000	0.000000e+000	2.489087e-001	3.124405e-002	0.000000e+000	0.000000e+000	0.000000e+000	0.000000e+000
5402040204.020	0.000000e+000	0.000000e+000	2.493018e-001	2.897394e-002	0.000000e+000	0.000000e+000	0.000000e+000	0.000000e+000
5402060206.021	0.000000e+000	0.000000e+000	2.496973e-001	2.657557e-002	0.000000e+000	0.000000e+000	0.000000e+000	0.000000e+000
5402080208.021	0.000000e+000	0.000000e+000	2.502550e-001	2.430816e-002	0.000000e+000	0.000000e+000	0.000000e+000	0.000000e+000
5402100210.021	0.000000e+000	0.000000e+000	2.506175e-001	2.190604e-002	0.000000e+000	0.000000e+000	0.000000e+000	0.000000e+000
5402120212.021	0.000000e+000	0.000000e+000	2.510464e-001	1.968120e-002	0.000000e+000	0.000000e+000	0.000000e+000	0.000000e+000
5402140214.021	0.000000e+000	0.000000e+000	2.513642e-001	1.727386e-002	0.000000e+000	0.000000e+000	0.000000e+000	0.000000e+000
5402160216.022	0.000000e+000	0.000000e+000	2.517481e-001	1.496034e-002	0.000000e+000	0.000000e+000	0.000000e+000	0.000000e+000
5402180218.022	0.000000e+000	0.000000e+000	2.518745e-001	1.266489e-002	0.000000e+000	0.000000e+000	0.000000e+000	0.000000e+000
5402200220.022	0.000000e+000	0.000000e+000	2.522591e-001	1.032788e-002	0.000000e+000	0.000000e+000	0.000000e+000	0.000000e+000
5402220222.022	0.000000e+000	0.000000e+000	2.523935e-001	7.863024e-003	0.000000e+000	0.000000e+000	0.000000e+000	0.000000e+000
5402240224.022	0.000000e+000	0.000000e+000	2.525579e-001	5.495250e-003	0.000000e+000	0.000000e+000	0.000000e+000	0.000000e+000
5402260226.023	0.000000e+000	0.000000e+000	2.527441e-001	3.155500e-003	0.000000e+000	0.000000e+000	0.000000e+000	0.000000e+000
5402280228.023	0.000000e+000	0.000000e+000	2.527660e-001	7.216229e-004	0.000000e+000	0.000000e+000	0.000000e+000	0.000000e+000
5402300230.023	0.000000e+000	0.000000e+000	2.529612e-001	-1.618806e-003	0.000000e+000	0.000000e+000	0.000000e+000	0.000000e+000
5402320232.023	0.000000e+000	0.000000e+000	2.530508e-001	-4.014946e-003	0.000000e+000	0.000000e+000	0.000000e+000	0.000000e+000
5402340234.023	0.000000e+000	0.000000e+000	2.531197e-001	-6.440713e-003	0.000000e+000	0.000000e+000	0.000000e+000	0.000000e+000
5402360236.024	0.000000e+000	0.000000e+000	2.530843e-001	-8.783435e-003	0.000000e+000	0.000000e+000	0.000000e+000	0.000000e+000
5402380238.024	0.000000e+000	0.000000e+000	2.530742e-001	-1.118039e-002	0.000000e+000	0.000000e+000	0.000000e+000	0.000000e+000
5402400240.024	0.000000e+000	0.000000e+000	2.529396e-001	-1.352741e-002	0.000000e+000	0.000000e+000	0.000000e+000	0.000000e+000
5402420242.024	0.000000e+000	0.000000e+000	2.528868e-001	-1.590794e-002	0.000000e+000	0.000000e+000	0.000000e+000	0.000000e+000
5402440244.024	0.000000e+000	0.000000e+000	2.528497e-001	-1.831870e-002	0.000000e+000	0.000000e+000	0.000000e+000	0.000000e+000
5402460246.025	0.000000e+000	0.000000e+000	2.526133e-001	-2.071526e-002	0.000000e+000	0.000000e+000	0.000000e+000	0.000000e+000
5402480248.025	0.000000e+000	0.000000e+000	2.524333e-001	-2.319879e-002	0.000000e+000	0.000000e+000	0.000000e+000	0.000000e+000
5402500250.025	0.000000e+000	0.000000e+000	2.522903e-001	-2.558167e-002	0.000000e+000	0.000000e+000	0.000000e+000	0.000000e+000
5402520252.025	0.000000e+000	0.000000e+000	2.520795e-001	-2.789485e-002	0.000000e+000	0.000000e+000	0.000000e+000	0.000000e+000
5402540254.025	0.000000e+000	0.000000e+000	2.517969e-001	-3.027544e-002	0.000000e+000	0.000000e+000	0.000000e+000	0.000000e+000
5402560256.026	0.000000e+000	0.000000e+000	2.515170e-001	-3.276926e-002	0.000000e+000	0.000000e+000	0.000000e+000	0.000000e+000
5402580258.026	0.000000e+000	0.000000e+000	2.511338e-001	-3.513829e-002	0.000000e+000	0.000000e+000	0.000000e+000	0.000000e+000
5402600260.026	0.000000e+000	0.000000e+000	2.507353e-001	-3.761448e-002	0.000000e+000	0.000000e+000	0.000000e+000	0.000000e+000
5402620262.026	0.000000e+000	0.000000e+000	2.504726e-001	-4.000310e-002	0.000000e+000	0.000000e+000	0.000000e+000	0.000000e+000
5402640264.026	0.000000e+000	0.000000e+000	2.498467e-001	-4.237444e-002	0.000000e+000	0.000000e+000	0.000000e+000	0.000000e+000
5402660266.027	0.000000e+000	0.000000e+000	2.494410e-001	-4.485719e-002	0.000000e+000	0.000000e+000	0.000000e+000	0.000000e+000
5402680268.027	0.000000e+000	0.000000e+000	2.489995e-001	-4.731967e-002	0.000000e+000	0.000000e+000	0.000000e+000	0.000000e+000
5402700270.027	0.000000e+000	0.000000e+000	2.483656e-001	-4.972129e-002	0.000000e+000	0.000000e+000	0.000000e+000	0.000000e+000
5402720272.027	0.000000e+000	0.000000e+000	2.478047e-001	-5.207383e-002	0.000000e+000	0.000000e+000	0.000000e+000	0.000000e+000
5402740274.027	0.000000e+000	0.000000e+000	2.472937e-001	-5.457406e-002	0.000000e+000	0.000000e+000	0.000000e+000	0.000000e+000
5402760276.028	0.000000e+000	0.000000e+000	2.466902e-001	-5.705543e-002	0.000000e+000	0.000000e+000	0.000000e+000	0.000000e+000
5402780278.028	0.000000e+000	0.000000e+000	2.459141e-001	-5.956443e-002	0.000000e+000	0.000000e+000	0.000000e+000	0.000000e+000
5402800280.028	0.000000e+000	0.000000e+000	2.452040e-001	-6.195340e-002	0.000000e+000	0.000000e+000	0.000000e+000	0.000000e+000
5402820282.028	0.000000e+000	0.000000e+000	2.444518e-001	-6.438906e-002	0.000000e+000	0.000000e+000	0.000000e+000	0.000000e+000
5402840284.028	0.000000e+000	0.000000e+000	2.435814e-001	-6.694047e-002	0.000000e+000	0.000000e+000	0.000000e+000	0.000000e+000
5402860286.029	0.000000e+000	0.000000e+000	2.427422e-001	-6.949231e-002	0.000000e+000	0.000000e+000	0.000000e+000	0.000000e+000
5402880288.029	0.000000e+000	0.000000e+000	2.418154e-001	-7.198618e-002	0.000000e+000	0.000000e+000	0.000000e+000	0.000000e+000
5402900290.029	0.000000e+000	0.000000e+000	2.406935e-001	-7.441204e-002	0.000000e+000	0.000000e+000	0.000000e+000	0.000000e+000
5402920292.029	0.000000e+000	0.000000e+000	2.396618e-001	-7.699038e-002	0.000000e+000	0.000000e+000	0.000000e+000	0.000000e+000
5402940294.029	0.000000e+000	0.000000e+000	2.385723e-001	-7.960327e-002	0.000000e+000	0.000000e+000	0.000000e+000	0.000000e+000
5402960296.030	0.000000e+000	0.000000e+000	2.373831e-001	-8.221752e-002	0.000000e+000	0.000000e+000	0.000000e+000	0.000000e+000
5402980298.030	0.000000e+000	0.000000e+000	2.360189e-001	-8.478701e-002	0.000000e+000	0.000000e+000	0.000000e+000	0.000000e+000
5403000300.030	0.000000e+000	0.000000e+000	2.345814e-001	-8.744446e-002	0.000000e+000	0.000000e+000	0.000000e+000	0.000000e+000
5403020302.030	0.000000e+000	0.000000e+000	2.330795e-001	-9.016533e-002	0.000000e+000	0.000000e+000	0.000000e+000	0.000000e+000
5403040304.030	0.000000e+000	0.000000e+000	2.315028e-001	-9.286621e-002	0.000000e+000	0.000000e+000	0.000000e+000	0.000000e+000
5403060306.031	0.000000e+000	0.000000e+000	2.295796e-001	-9.557608e-002	0.000000e+000	0.000000e+000	0.000000e+000	0.000000e+000
