!Keysight Technologies,E5063A,MY54502693,A.05.04
!Date: Sat Feb 27 19:53:08 2021
!Data & Calibration Information:
!Freq	S11:NONE(--)	S21:NONE(--)	S12:NONE(--)	S22:NONE(--)
# Hz S RI R 50
4000000000.000	0.000000e+000	0.000000e+000	-1.005068e-001	5.470540e-001	0.000000e+000	0.000000e+000	0.000000e+000	0.000000e+000
4000400040.004	0.000000e+000	0.000000e+000	-4.848170e-003	5.560684e-001	0.000000e+000	0.000000e+000	0.000000e+000	0.000000e+000
4000800080.008	0.000000e+000	0.000000e+000	9.424451e-002	5.475182e-001	0.000000e+000	0.000000e+000	0.000000e+000	0.000000e+000
4001200120.012	0.000000e+000	0.000000e+000	1.963888e-001	5.193303e-001	0.000000e+000	0.000000e+000	0.000000e+000	0.000000e+000
4001600160.016	0.000000e+000	0.000000e+000	3.149520e-001	4.470800e-001	0.000000e+000	0.000000e+000	0.000000e+000	0.000000e+000
4002000200.020	0.000000e+000	0.000000e+000	3.998499e-002	1.919092e-001	0.000000e+000	0.000000e+000	0.000000e+000	0.000000e+000
4002400240.024	0.000000e+000	0.000000e+000	3.641235e-001	3.991604e-001	0.000000e+000	0.000000e+000	0.000000e+000	0.000000e+000
4002800280.028	0.000000e+000	0.000000e+000	3.913302e-001	3.757627e-001	0.000000e+000	0.000000e+000	0.000000e+000	0.000000e+000
4003200320.032	0.000000e+000	0.000000e+000	4.769101e-001	2.725255e-001	0.000000e+000	0.000000e+000	0.000000e+000	0.000000e+000
4003600360.036	0.000000e+000	0.000000e+000	5.266165e-001	1.565919e-001	0.000000e+000	0.000000e+000	0.000000e+000	0.000000e+000
4004000400.040	0.000000e+000	0.000000e+000	5.087742e-001	-6.339131e-002	0.000000e+000	0.000000e+000	0.000000e+000	0.000000e+000
4004400440.044	0.000000e+000	0.000000e+000	5.158388e-001	1.150695e-001	0.000000e+000	0.000000e+000	0.000000e+000	0.000000e+000
4004800480.048	0.000000e+000	0.000000e+000	5.442438e-001	-4.681763e-002	0.000000e+000	0.000000e+000	0.000000e+000	0.000000e+000
4005200520.052	0.000000e+000	0.000000e+000	5.185076e-001	-1.740780e-001	0.000000e+000	0.000000e+000	0.000000e+000	0.000000e+000
4005600560.056	0.000000e+000	0.000000e+000	3.961469e-001	-3.339866e-001	0.000000e+000	0.000000e+000	0.000000e+000	0.000000e+000
4006000600.060	0.000000e+000	0.000000e+000	4.886430e-001	-1.800700e-001	0.000000e+000	0.000000e+000	0.000000e+000	0.000000e+000
4006400640.064	0.000000e+000	0.000000e+000	4.203602e-001	-3.473647e-001	0.000000e+000	0.000000e+000	0.000000e+000	0.000000e+000
4006800680.068	0.000000e+000	0.000000e+000	3.286612e-001	-4.363039e-001	0.000000e+000	0.000000e+000	0.000000e+000	0.000000e+000
4007200720.072	0.000000e+000	0.000000e+000	1.769607e-001	-5.015505e-001	0.000000e+000	0.000000e+000	0.000000e+000	0.000000e+000
4007600760.076	0.000000e+000	0.000000e+000	3.203370e-001	-3.670945e-001	0.000000e+000	0.000000e+000	0.000000e+000	0.000000e+000
4008000800.080	0.000000e+000	0.000000e+000	1.549017e-001	-5.219013e-001	0.000000e+000	0.000000e+000	0.000000e+000	0.000000e+000
4008400840.084	0.000000e+000	0.000000e+000	3.567447e-002	-5.462991e-001	0.000000e+000	0.000000e+000	0.000000e+000	0.000000e+000
4008800880.088	0.000000e+000	0.000000e+000	-7.859550e-002	-5.414671e-001	0.000000e+000	0.000000e+000	0.000000e+000	0.000000e+000
4009200920.092	0.000000e+000	0.000000e+000	-2.109529e-001	-4.948393e-001	0.000000e+000	0.000000e+000	0.000000e+000	0.000000e+000
4009600960.096	0.000000e+000	0.000000e+000	4.238105e-002	-4.007157e-001	0.000000e+000	0.000000e+000	0.000000e+000	0.000000e+000
4010001000.100	0.000000e+000	0.000000e+000	-2.557290e-001	-4.825322e-001	0.000000e+000	0.000000e+000	0.000000e+000	0.000000e+000
4010401040.104	0.000000e+000	0.000000e+000	-3.579603e-001	-4.170755e-001	0.000000e+000	0.000000e+000	0.000000e+000	0.000000e+000
4010801080.108	0.000000e+000	0.000000e+000	-4.316101e-001	-3.407490e-001	0.000000e+000	0.000000e+000	0.000000e+000	0.000000e+000
4011201120.112	0.000000e+000	0.000000e+000	-4.879376e-001	-2.533599e-001	0.000000e+000	0.000000e+000	0.000000e+000	0.000000e+000
4011601160.116	0.000000e+000	0.000000e+000	-5.263914e-001	-1.496129e-001	0.000000e+000	0.000000e+000	0.000000e+000	0.000000e+000
4012001200.120	0.000000e+000	0.000000e+000	-5.285335e-001	4.910072e-003	0.000000e+000	0.000000e+000	0.000000e+000	0.000000e+000
4012401240.124	0.000000e+000	0.000000e+000	-4.939559e-001	-1.598946e-001	0.000000e+000	0.000000e+000	0.000000e+000	0.000000e+000
4012801280.128	0.000000e+000	0.000000e+000	-5.504377e-001	4.366857e-002	0.000000e+000	0.000000e+000	0.000000e+000	0.000000e+000
4013201320.132	0.000000e+000	0.000000e+000	-5.272956e-001	1.632540e-001	0.000000e+000	0.000000e+000	0.000000e+000	0.000000e+000
4013601360.136	0.000000e+000	0.000000e+000	-4.612663e-001	2.848312e-001	0.000000e+000	0.000000e+000	0.000000e+000	0.000000e+000
4014001400.140	0.000000e+000	0.000000e+000	-4.889990e-001	2.056698e-001	0.000000e+000	0.000000e+000	0.000000e+000	0.000000e+000
4014401440.144	0.000000e+000	0.000000e+000	-4.159255e-001	3.663392e-001	0.000000e+000	0.000000e+000	0.000000e+000	0.000000e+000
4014801480.148	0.000000e+000	0.000000e+000	-3.376643e-001	4.412965e-001	0.000000e+000	0.000000e+000	0.000000e+000	0.000000e+000
4015201520.152	0.000000e+000	0.000000e+000	-2.529668e-001	4.945880e-001	0.000000e+000	0.000000e+000	0.000000e+000	0.000000e+000
4015601560.156	0.000000e+000	0.000000e+000	-1.619653e-001	5.311184e-001	0.000000e+000	0.000000e+000	0.000000e+000	0.000000e+000
4016001600.160	0.000000e+000	0.000000e+000	-6.645971e-002	5.516172e-001	0.000000e+000	0.000000e+000	0.000000e+000	0.000000e+000
4016401640.164	0.000000e+000	0.000000e+000	3.268607e-002	5.542703e-001	0.000000e+000	0.000000e+000	0.000000e+000	0.000000e+000
4016801680.168	0.000000e+000	0.000000e+000	1.353202e-001	5.371754e-001	0.000000e+000	0.000000e+000	0.000000e+000	0.000000e+000
4017201720.172	0.000000e+000	0.000000e+000	2.474884e-001	4.892585e-001	0.000000e+000	0.000000e+000	0.000000e+000	0.000000e+000
4017601760.176	0.000000e+000	0.000000e+000	6.558128e-002	4.076830e-001	0.000000e+000	0.000000e+000	0.000000e+000	0.000000e+000
4018001800.180	0.000000e+000	0.000000e+000	3.862600e-001	3.732859e-001	0.000000e+000	0.000000e+000	0.000000e+000	0.000000e+000
4018401840.184	0.000000e+000	0.000000e+000	3.574932e-001	4.118470e-001	0.000000e+000	0.000000e+000	0.000000e+000	0.000000e+000
4018801880.188	0.000000e+000	0.000000e+000	4.558073e-001	3.149029e-001	0.000000e+000	0.000000e+000	0.000000e+000	0.000000e+000
4019201920.192	0.000000e+000	0.000000e+000	5.119368e-001	2.145180e-001	0.000000e+000	0.000000e+000	0.000000e+000	0.000000e+000
4019601960.196	0.000000e+000	0.000000e+000	5.430187e-001	7.519535e-002	0.000000e+000	0.000000e+000	0.000000e+000	0.000000e+000
4020002000.200	0.000000e+000	0.000000e+000	5.159959e-001	1.291762e-001	0.000000e+000	0.000000e+000	0.000000e+000	0.000000e+000
4020402040.204	0.000000e+000	0.000000e+000	5.514358e-001	-2.176067e-002	0.000000e+000	0.000000e+000	0.000000e+000	0.000000e+000
4020802080.208	0.000000e+000	0.000000e+000	5.376633e-001	-1.316729e-001	0.000000e+000	0.000000e+000	0.000000e+000	0.000000e+000
4021202120.212	0.000000e+000	0.000000e+000	5.000993e-001	-2.361902e-001	0.000000e+000	0.000000e+000	0.000000e+000	0.000000e+000
4021602160.216	0.000000e+000	0.000000e+000	4.134465e-001	-3.537270e-001	0.000000e+000	0.000000e+000	0.000000e+000	0.000000e+000
4022002200.220	0.000000e+000	0.000000e+000	4.475389e-001	-2.609103e-001	0.000000e+000	0.000000e+000	0.000000e+000	0.000000e+000
4022402240.224	0.000000e+000	0.000000e+000	3.582214e-001	-4.150152e-001	0.000000e+000	0.000000e+000	0.000000e+000	0.000000e+000
4022802280.228	0.000000e+000	0.000000e+000	2.577039e-001	-4.845076e-001	0.000000e+000	0.000000e+000	0.000000e+000	0.000000e+000
4023202320.232	0.000000e+000	0.000000e+000	1.051728e-001	-5.241782e-001	0.000000e+000	0.000000e+000	0.000000e+000	0.000000e+000
4023602360.236	0.000000e+000	0.000000e+000	2.100118e-001	-4.662148e-001	0.000000e+000	0.000000e+000	0.000000e+000	0.000000e+000
4024002400.240	0.000000e+000	0.000000e+000	4.016787e-002	-5.429577e-001	0.000000e+000	0.000000e+000	0.000000e+000	0.000000e+000
4024402440.244	0.000000e+000	0.000000e+000	-8.743291e-002	-5.366465e-001	0.000000e+000	0.000000e+000	0.000000e+000	0.000000e+000
4024802480.248	0.000000e+000	0.000000e+000	-2.360380e-001	-4.690145e-001	0.000000e+000	0.000000e+000	0.000000e+000	0.000000e+000
4025202520.252	0.000000e+000	0.000000e+000	-5.004931e-002	-4.931045e-001	0.000000e+000	0.000000e+000	0.000000e+000	0.000000e+000
4025602560.256	0.000000e+000	0.000000e+000	-2.950085e-001	-4.540968e-001	0.000000e+000	0.000000e+000	0.000000e+000	0.000000e+000
4026002600.260	0.000000e+000	0.000000e+000	-4.158882e-001	-2.942507e-001	0.000000e+000	0.000000e+000	0.000000e+000	0.000000e+000
4026402640.264	0.000000e+000	0.000000e+000	-3.249524e-001	-4.138543e-001	0.000000e+000	0.000000e+000	0.000000e+000	0.000000e+000
4026802680.268	0.000000e+000	0.000000e+000	-4.702176e-001	-2.702524e-001	0.000000e+000	0.000000e+000	0.000000e+000	0.000000e+000
4027202720.272	0.000000e+000	0.000000e+000	-4.812274e-001	-3.854226e-002	0.000000e+000	0.000000e+000	0.000000e+000	0.000000e+000
4027602760.276	0.000000e+000	0.000000e+000	-4.952138e-001	-2.062876e-001	0.000000e+000	0.000000e+000	0.000000e+000	0.000000e+000
4028002800.280	0.000000e+000	0.000000e+000	-5.360922e-001	-7.912758e-005	0.000000e+000	0.000000e+000	0.000000e+000	0.000000e+000
4028402840.284	0.000000e+000	0.000000e+000	-5.283565e-001	-7.075830e-002	0.000000e+000	0.000000e+000	0.000000e+000	0.000000e+000
4028802880.288	0.000000e+000	0.000000e+000	-5.403954e-001	9.360517e-002	0.000000e+000	0.000000e+000	0.000000e+000	0.000000e+000
4029202920.292	0.000000e+000	0.000000e+000	-5.114694e-001	1.995044e-001	0.000000e+000	0.000000e+000	0.000000e+000	0.000000e+000
4029602960.296	0.000000e+000	0.000000e+000	-4.662035e-001	2.890404e-001	0.000000e+000	0.000000e+000	0.000000e+000	0.000000e+000
4030003000.300	0.000000e+000	0.000000e+000	-4.075845e-001	3.661214e-001	0.000000e+000	0.000000e+000	0.000000e+000	0.000000e+000
4030403040.304	0.000000e+000	0.000000e+000	-3.379518e-001	4.305345e-001	0.000000e+000	0.000000e+000	0.000000e+000	0.000000e+000
4030803080.308	0.000000e+000	0.000000e+000	-2.588941e-001	4.817067e-001	0.000000e+000	0.000000e+000	0.000000e+000	0.000000e+000
4031203120.312	0.000000e+000	0.000000e+000	-1.729342e-001	5.175815e-001	0.000000e+000	0.000000e+000	0.000000e+000	0.000000e+000
4031603160.316	0.000000e+000	0.000000e+000	-8.208707e-002	5.384807e-001	0.000000e+000	0.000000e+000	0.000000e+000	0.000000e+000
4032003200.320	0.000000e+000	0.000000e+000	1.124104e-002	5.435889e-001	0.000000e+000	0.000000e+000	0.000000e+000	0.000000e+000
4032403240.324	0.000000e+000	0.000000e+000	1.048723e-001	5.322276e-001	0.000000e+000	0.000000e+000	0.000000e+000	0.000000e+000
4032803280.328	0.000000e+000	0.000000e+000	1.987082e-001	5.030889e-001	0.000000e+000	0.000000e+000	0.000000e+000	0.000000e+000
4033203320.332	0.000000e+000	0.000000e+000	2.944348e-001	4.500604e-001	0.000000e+000	0.000000e+000	0.000000e+000	0.000000e+000
4033603360.336	0.000000e+000	0.000000e+000	4.082209e-001	2.562183e-001	0.000000e+000	0.000000e+000	0.000000e+000	0.000000e+000
4034003400.340	0.000000e+000	0.000000e+000	3.360170e-001	4.084673e-001	0.000000e+000	0.000000e+000	0.000000e+000	0.000000e+000
4034403440.344	0.000000e+000	0.000000e+000	4.313125e-001	3.178932e-001	0.000000e+000	0.000000e+000	0.000000e+000	0.000000e+000
4034803480.348	0.000000e+000	0.000000e+000	4.831547e-001	2.300598e-001	0.000000e+000	0.000000e+000	0.000000e+000	0.000000e+000
4035203520.352	0.000000e+000	0.000000e+000	5.155977e-001	1.396272e-001	0.000000e+000	0.000000e+000	0.000000e+000	0.000000e+000
4035603560.356	0.000000e+000	0.000000e+000	5.306122e-001	4.632346e-002	0.000000e+000	0.000000e+000	0.000000e+000	0.000000e+000
4036003600.360	0.000000e+000	0.000000e+000	5.285842e-001	-4.921685e-002	0.000000e+000	0.000000e+000	0.000000e+000	0.000000e+000
4036403640.364	0.000000e+000	0.000000e+000	5.062669e-001	-1.468736e-001	0.000000e+000	0.000000e+000	0.000000e+000	0.000000e+000
4036803680.368	0.000000e+000	0.000000e+000	4.532796e-001	-2.507607e-001	0.000000e+000	0.000000e+000	0.000000e+000	0.000000e+000
4037203720.372	0.000000e+000	0.000000e+000	1.642932e-001	-3.040108e-001	0.000000e+000	0.000000e+000	0.000000e+000	0.000000e+000
4037603760.376	0.000000e+000	0.000000e+000	4.475296e-001	-2.769391e-001	0.000000e+000	0.000000e+000	0.000000e+000	0.000000e+000
4038003800.380	0.000000e+000	0.000000e+000	3.578834e-001	-3.887696e-001	0.000000e+000	0.000000e+000	0.000000e+000	0.000000e+000
4038403840.384	0.000000e+000	0.000000e+000	2.625805e-001	-4.532625e-001	0.000000e+000	0.000000e+000	0.000000e+000	0.000000e+000
4038803880.388	0.000000e+000	0.000000e+000	1.267193e-001	-4.895384e-001	0.000000e+000	0.000000e+000	0.000000e+000	0.000000e+000
4039203920.392	0.000000e+000	0.000000e+000	2.793692e-001	-3.790194e-001	0.000000e+000	0.000000e+000	0.000000e+000	0.000000e+000
4039603960.396	0.000000e+000	0.000000e+000	8.793546e-002	-5.196521e-001	0.000000e+000	0.000000e+000	0.000000e+000	0.000000e+000
4040004000.400	0.000000e+000	0.000000e+000	-2.910997e-002	-5.247143e-001	0.000000e+000	0.000000e+000	0.000000e+000	0.000000e+000
4040404040.404	0.000000e+000	0.000000e+000	-1.374414e-001	-5.031264e-001	0.000000e+000	0.000000e+000	0.000000e+000	0.000000e+000
4040804080.408	0.000000e+000	0.000000e+000	-2.668220e-001	-4.226753e-001	0.000000e+000	0.000000e+000	0.000000e+000	0.000000e+000
4041204120.412	0.000000e+000	0.000000e+000	-1.544232e-001	-4.869281e-001	0.000000e+000	0.000000e+000	0.000000e+000	0.000000e+000
4041604160.416	0.000000e+000	0.000000e+000	-3.129875e-001	-4.208191e-001	0.000000e+000	0.000000e+000	0.000000e+000	0.000000e+000
4042004200.420	0.000000e+000	0.000000e+000	-3.904807e-001	-3.485973e-001	0.000000e+000	0.000000e+000	0.000000e+000	0.000000e+000
4042404240.424	0.000000e+000	0.000000e+000	-4.475833e-001	-2.686027e-001	0.000000e+000	0.000000e+000	0.000000e+000	0.000000e+000
4042804280.428	0.000000e+000	0.000000e+000	-4.883963e-001	-1.768138e-001	0.000000e+000	0.000000e+000	0.000000e+000	0.000000e+000
4043204320.432	0.000000e+000	0.000000e+000	-5.074024e-001	-5.589493e-002	0.000000e+000	0.000000e+000	0.000000e+000	0.000000e+000
4043604360.436	0.000000e+000	0.000000e+000	-3.808215e-001	-2.065407e-001	0.000000e+000	0.000000e+000	0.000000e+000	0.000000e+000
4044004400.440	0.000000e+000	0.000000e+000	-5.193956e-001	1.001408e-002	0.000000e+000	0.000000e+000	0.000000e+000	0.000000e+000
4044404440.444	0.000000e+000	0.000000e+000	-5.065653e-001	1.195462e-001	0.000000e+000	0.000000e+000	0.000000e+000	0.000000e+000
4044804480.448	0.000000e+000	0.000000e+000	-4.715249e-001	2.167161e-001	0.000000e+000	0.000000e+000	0.000000e+000	0.000000e+000
4045204520.452	0.000000e+000	0.000000e+000	-3.927500e-001	3.234203e-001	0.000000e+000	0.000000e+000	0.000000e+000	0.000000e+000
4045604560.456	0.000000e+000	0.000000e+000	-4.226460e-001	2.648651e-001	0.000000e+000	0.000000e+000	0.000000e+000	0.000000e+000
4046004600.460	0.000000e+000	0.000000e+000	-3.452939e-001	3.840809e-001	0.000000e+000	0.000000e+000	0.000000e+000	0.000000e+000
4046404640.464	0.000000e+000	0.000000e+000	-2.675438e-001	4.431686e-001	0.000000e+000	0.000000e+000	0.000000e+000	0.000000e+000
4046804680.468	0.000000e+000	0.000000e+000	-1.851553e-001	4.832813e-001	0.000000e+000	0.000000e+000	0.000000e+000	0.000000e+000
4047204720.472	0.000000e+000	0.000000e+000	-9.874083e-002	5.080861e-001	0.000000e+000	0.000000e+000	0.000000e+000	0.000000e+000
4047604760.476	0.000000e+000	0.000000e+000	-8.850909e-003	5.172861e-001	0.000000e+000	0.000000e+000	0.000000e+000	0.000000e+000
4048004800.480	0.000000e+000	0.000000e+000	8.495092e-002	5.105356e-001	0.000000e+000	0.000000e+000	0.000000e+000	0.000000e+000
4048404840.484	0.000000e+000	0.000000e+000	1.905646e-001	4.799129e-001	0.000000e+000	0.000000e+000	0.000000e+000	0.000000e+000
4048804880.488	0.000000e+000	0.000000e+000	6.819045e-002	3.932208e-001	0.000000e+000	0.000000e+000	0.000000e+000	0.000000e+000
4049204920.492	0.000000e+000	0.000000e+000	2.757473e-001	4.288432e-001	0.000000e+000	0.000000e+000	0.000000e+000	0.000000e+000
4049604960.496	0.000000e+000	0.000000e+000	3.617500e-001	3.653671e-001	0.000000e+000	0.000000e+000	0.000000e+000	0.000000e+000
4050005000.500	0.000000e+000	0.000000e+000	4.311280e-001	2.827213e-001	0.000000e+000	0.000000e+000	0.000000e+000	0.000000e+000
4050405040.504	0.000000e+000	0.000000e+000	4.785211e-001	1.046086e-001	0.000000e+000	0.000000e+000	0.000000e+000	0.000000e+000
4050805080.508	0.000000e+000	0.000000e+000	4.488830e-001	1.968520e-001	0.000000e+000	0.000000e+000	0.000000e+000	0.000000e+000
4051205120.512	0.000000e+000	0.000000e+000	4.996642e-001	3.943774e-002	0.000000e+000	0.000000e+000	0.000000e+000	0.000000e+000
4051605160.516	0.000000e+000	0.000000e+000	4.818526e-001	6.898512e-002	0.000000e+000	0.000000e+000	0.000000e+000	0.000000e+000
4052005200.520	0.000000e+000	0.000000e+000	5.006584e-001	-5.682132e-002	0.000000e+000	0.000000e+000	0.000000e+000	0.000000e+000
4052405240.524	0.000000e+000	0.000000e+000	4.821130e-001	-1.548076e-001	0.000000e+000	0.000000e+000	0.000000e+000	0.000000e+000
4052805280.528	0.000000e+000	0.000000e+000	4.408838e-001	-2.484492e-001	0.000000e+000	0.000000e+000	0.000000e+000	0.000000e+000
4053205320.532	0.000000e+000	0.000000e+000	3.326922e-001	-3.570958e-001	0.000000e+000	0.000000e+000	0.000000e+000	0.000000e+000
4053605360.536	0.000000e+000	0.000000e+000	3.927188e-001	-3.024910e-001	0.000000e+000	0.000000e+000	0.000000e+000	0.000000e+000
4054005400.540	0.000000e+000	0.000000e+000	3.040583e-001	-4.029592e-001	0.000000e+000	0.000000e+000	0.000000e+000	0.000000e+000
4054405440.544	0.000000e+000	0.000000e+000	2.143296e-001	-4.555270e-001	0.000000e+000	0.000000e+000	0.000000e+000	0.000000e+000
4054805480.548	0.000000e+000	0.000000e+000	1.038527e-001	-4.857707e-001	0.000000e+000	0.000000e+000	0.000000e+000	0.000000e+000
4055205520.552	0.000000e+000	0.000000e+000	2.009016e-001	-2.343093e-001	0.000000e+000	0.000000e+000	0.000000e+000	0.000000e+000
4055605560.556	0.000000e+000	0.000000e+000	2.464771e-002	-5.052242e-001	0.000000e+000	0.000000e+000	0.000000e+000	0.000000e+000
4056005600.560	0.000000e+000	0.000000e+000	-9.439399e-002	-4.942124e-001	0.000000e+000	0.000000e+000	0.000000e+000	0.000000e+000
4056405640.564	0.000000e+000	0.000000e+000	-2.055502e-001	-4.459417e-001	0.000000e+000	0.000000e+000	0.000000e+000	0.000000e+000
4056805680.568	0.000000e+000	0.000000e+000	7.315288e-003	-1.913868e-001	0.000000e+000	0.000000e+000	0.000000e+000	0.000000e+000
4057205720.572	0.000000e+000	0.000000e+000	-2.809475e-001	-4.262357e-001	0.000000e+000	0.000000e+000	0.000000e+000	0.000000e+000
4057605760.576	0.000000e+000	0.000000e+000	-3.770093e-001	-3.270402e-001	0.000000e+000	0.000000e+000	0.000000e+000	0.000000e+000
4058005800.580	0.000000e+000	0.000000e+000	-3.721279e-001	-9.123846e-002	0.000000e+000	0.000000e+000	0.000000e+000	0.000000e+000
4058405840.584	0.000000e+000	0.000000e+000	-4.342835e-001	-2.819330e-001	0.000000e+000	0.000000e+000	0.000000e+000	0.000000e+000
4058805880.588	0.000000e+000	0.000000e+000	-4.833056e-001	-1.069576e-001	0.000000e+000	0.000000e+000	0.000000e+000	0.000000e+000
4059205920.592	0.000000e+000	0.000000e+000	-3.834719e-001	-2.663903e-001	0.000000e+000	0.000000e+000	0.000000e+000	0.000000e+000
4059605960.596	0.000000e+000	0.000000e+000	-5.105019e-001	4.418455e-003	0.000000e+000	0.000000e+000	0.000000e+000	0.000000e+000
4060006000.600	0.000000e+000	0.000000e+000	-5.185016e-001	-2.325600e-002	0.000000e+000	0.000000e+000	0.000000e+000	0.000000e+000
4060406040.604	0.000000e+000	0.000000e+000	-5.109035e-001	1.217242e-001	0.000000e+000	0.000000e+000	0.000000e+000	0.000000e+000
4060806080.608	0.000000e+000	0.000000e+000	-4.766482e-001	2.184469e-001	0.000000e+000	0.000000e+000	0.000000e+000	0.000000e+000
