!Keysight Technologies,E5063A,MY54502693,A.05.04
!Date: Sat Feb 27 20:33:12 2021
!Data & Calibration Information:
!Freq	S11:NONE(--)	S21:NONE(--)	S12:NONE(--)	S22:NONE(--)
# Hz S RI R 50
5600000000.000	0.000000e+000	0.000000e+000	-1.815132e-001	1.372169e-001	0.000000e+000	0.000000e+000	0.000000e+000	0.000000e+000
5600020002.000	0.000000e+000	0.000000e+000	-1.794724e-001	1.405111e-001	0.000000e+000	0.000000e+000	0.000000e+000	0.000000e+000
5600040004.000	0.000000e+000	0.000000e+000	-1.774749e-001	1.435890e-001	0.000000e+000	0.000000e+000	0.000000e+000	0.000000e+000
5600060006.001	0.000000e+000	0.000000e+000	-1.754137e-001	1.462262e-001	0.000000e+000	0.000000e+000	0.000000e+000	0.000000e+000
5600080008.001	0.000000e+000	0.000000e+000	-1.734164e-001	1.490253e-001	0.000000e+000	0.000000e+000	0.000000e+000	0.000000e+000
5600100010.001	0.000000e+000	0.000000e+000	-1.714606e-001	1.515569e-001	0.000000e+000	0.000000e+000	0.000000e+000	0.000000e+000
5600120012.001	0.000000e+000	0.000000e+000	-1.692972e-001	1.540023e-001	0.000000e+000	0.000000e+000	0.000000e+000	0.000000e+000
5600140014.001	0.000000e+000	0.000000e+000	-1.674517e-001	1.562592e-001	0.000000e+000	0.000000e+000	0.000000e+000	0.000000e+000
5600160016.002	0.000000e+000	0.000000e+000	-1.655194e-001	1.583343e-001	0.000000e+000	0.000000e+000	0.000000e+000	0.000000e+000
5600180018.002	0.000000e+000	0.000000e+000	-1.634715e-001	1.605461e-001	0.000000e+000	0.000000e+000	0.000000e+000	0.000000e+000
5600200020.002	0.000000e+000	0.000000e+000	-1.615188e-001	1.625463e-001	0.000000e+000	0.000000e+000	0.000000e+000	0.000000e+000
5600220022.002	0.000000e+000	0.000000e+000	-1.596266e-001	1.645309e-001	0.000000e+000	0.000000e+000	0.000000e+000	0.000000e+000
5600240024.002	0.000000e+000	0.000000e+000	-1.576804e-001	1.664163e-001	0.000000e+000	0.000000e+000	0.000000e+000	0.000000e+000
5600260026.003	0.000000e+000	0.000000e+000	-1.557464e-001	1.682420e-001	0.000000e+000	0.000000e+000	0.000000e+000	0.000000e+000
5600280028.003	0.000000e+000	0.000000e+000	-1.538412e-001	1.699203e-001	0.000000e+000	0.000000e+000	0.000000e+000	0.000000e+000
5600300030.003	0.000000e+000	0.000000e+000	-1.519177e-001	1.717404e-001	0.000000e+000	0.000000e+000	0.000000e+000	0.000000e+000
5600320032.003	0.000000e+000	0.000000e+000	-1.499580e-001	1.732654e-001	0.000000e+000	0.000000e+000	0.000000e+000	0.000000e+000
5600340034.003	0.000000e+000	0.000000e+000	-1.480686e-001	1.749982e-001	0.000000e+000	0.000000e+000	0.000000e+000	0.000000e+000
5600360036.004	0.000000e+000	0.000000e+000	-1.461902e-001	1.766375e-001	0.000000e+000	0.000000e+000	0.000000e+000	0.000000e+000
5600380038.004	0.000000e+000	0.000000e+000	-1.442708e-001	1.781682e-001	0.000000e+000	0.000000e+000	0.000000e+000	0.000000e+000
5600400040.004	0.000000e+000	0.000000e+000	-1.423379e-001	1.797229e-001	0.000000e+000	0.000000e+000	0.000000e+000	0.000000e+000
5600420042.004	0.000000e+000	0.000000e+000	-1.403647e-001	1.811926e-001	0.000000e+000	0.000000e+000	0.000000e+000	0.000000e+000
5600440044.004	0.000000e+000	0.000000e+000	-1.383823e-001	1.827006e-001	0.000000e+000	0.000000e+000	0.000000e+000	0.000000e+000
5600460046.005	0.000000e+000	0.000000e+000	-1.364900e-001	1.840822e-001	0.000000e+000	0.000000e+000	0.000000e+000	0.000000e+000
5600480048.005	0.000000e+000	0.000000e+000	-1.345827e-001	1.855045e-001	0.000000e+000	0.000000e+000	0.000000e+000	0.000000e+000
5600500050.005	0.000000e+000	0.000000e+000	-1.327016e-001	1.868735e-001	0.000000e+000	0.000000e+000	0.000000e+000	0.000000e+000
5600520052.005	0.000000e+000	0.000000e+000	-1.307636e-001	1.880907e-001	0.000000e+000	0.000000e+000	0.000000e+000	0.000000e+000
5600540054.005	0.000000e+000	0.000000e+000	-1.288091e-001	1.895376e-001	0.000000e+000	0.000000e+000	0.000000e+000	0.000000e+000
5600560056.006	0.000000e+000	0.000000e+000	-1.268371e-001	1.907668e-001	0.000000e+000	0.000000e+000	0.000000e+000	0.000000e+000
5600580058.006	0.000000e+000	0.000000e+000	-1.247790e-001	1.921030e-001	0.000000e+000	0.000000e+000	0.000000e+000	0.000000e+000
5600600060.006	0.000000e+000	0.000000e+000	-1.228388e-001	1.933809e-001	0.000000e+000	0.000000e+000	0.000000e+000	0.000000e+000
5600620062.006	0.000000e+000	0.000000e+000	-1.208466e-001	1.945708e-001	0.000000e+000	0.000000e+000	0.000000e+000	0.000000e+000
5600640064.006	0.000000e+000	0.000000e+000	-1.189181e-001	1.956475e-001	0.000000e+000	0.000000e+000	0.000000e+000	0.000000e+000
5600660066.007	0.000000e+000	0.000000e+000	-1.167745e-001	1.968108e-001	0.000000e+000	0.000000e+000	0.000000e+000	0.000000e+000
5600680068.007	0.000000e+000	0.000000e+000	-1.148564e-001	1.979379e-001	0.000000e+000	0.000000e+000	0.000000e+000	0.000000e+000
5600700070.007	0.000000e+000	0.000000e+000	-1.127660e-001	1.991282e-001	0.000000e+000	0.000000e+000	0.000000e+000	0.000000e+000
5600720072.007	0.000000e+000	0.000000e+000	-1.107868e-001	2.002225e-001	0.000000e+000	0.000000e+000	0.000000e+000	0.000000e+000
5600740074.007	0.000000e+000	0.000000e+000	-1.086861e-001	2.013729e-001	0.000000e+000	0.000000e+000	0.000000e+000	0.000000e+000
5600760076.008	0.000000e+000	0.000000e+000	-1.066045e-001	2.024220e-001	0.000000e+000	0.000000e+000	0.000000e+000	0.000000e+000
5600780078.008	0.000000e+000	0.000000e+000	-1.045429e-001	2.034288e-001	0.000000e+000	0.000000e+000	0.000000e+000	0.000000e+000
5600800080.008	0.000000e+000	0.000000e+000	-1.024588e-001	2.045256e-001	0.000000e+000	0.000000e+000	0.000000e+000	0.000000e+000
5600820082.008	0.000000e+000	0.000000e+000	-1.003032e-001	2.055731e-001	0.000000e+000	0.000000e+000	0.000000e+000	0.000000e+000
5600840084.008	0.000000e+000	0.000000e+000	-9.815986e-002	2.065426e-001	0.000000e+000	0.000000e+000	0.000000e+000	0.000000e+000
5600860086.009	0.000000e+000	0.000000e+000	-9.601791e-002	2.074890e-001	0.000000e+000	0.000000e+000	0.000000e+000	0.000000e+000
5600880088.009	0.000000e+000	0.000000e+000	-9.374198e-002	2.085712e-001	0.000000e+000	0.000000e+000	0.000000e+000	0.000000e+000
5600900090.009	0.000000e+000	0.000000e+000	-9.153642e-002	2.094159e-001	0.000000e+000	0.000000e+000	0.000000e+000	0.000000e+000
5600920092.009	0.000000e+000	0.000000e+000	-8.928638e-002	2.104609e-001	0.000000e+000	0.000000e+000	0.000000e+000	0.000000e+000
5600940094.009	0.000000e+000	0.000000e+000	-8.702651e-002	2.114445e-001	0.000000e+000	0.000000e+000	0.000000e+000	0.000000e+000
5600960096.010	0.000000e+000	0.000000e+000	-8.470999e-002	2.121712e-001	0.000000e+000	0.000000e+000	0.000000e+000	0.000000e+000
5600980098.010	0.000000e+000	0.000000e+000	-8.234336e-002	2.130633e-001	0.000000e+000	0.000000e+000	0.000000e+000	0.000000e+000
5601000100.010	0.000000e+000	0.000000e+000	-7.991793e-002	2.139345e-001	0.000000e+000	0.000000e+000	0.000000e+000	0.000000e+000
5601020102.010	0.000000e+000	0.000000e+000	-7.738167e-002	2.148720e-001	0.000000e+000	0.000000e+000	0.000000e+000	0.000000e+000
5601040104.010	0.000000e+000	0.000000e+000	-7.489753e-002	2.156309e-001	0.000000e+000	0.000000e+000	0.000000e+000	0.000000e+000
5601060106.011	0.000000e+000	0.000000e+000	-7.233537e-002	2.164707e-001	0.000000e+000	0.000000e+000	0.000000e+000	0.000000e+000
5601080108.011	0.000000e+000	0.000000e+000	-6.967548e-002	2.173044e-001	0.000000e+000	0.000000e+000	0.000000e+000	0.000000e+000
5601100110.011	0.000000e+000	0.000000e+000	-6.697950e-002	2.180690e-001	0.000000e+000	0.000000e+000	0.000000e+000	0.000000e+000
5601120112.011	0.000000e+000	0.000000e+000	-6.413136e-002	2.187389e-001	0.000000e+000	0.000000e+000	0.000000e+000	0.000000e+000
5601140114.011	0.000000e+000	0.000000e+000	-6.111992e-002	2.194923e-001	0.000000e+000	0.000000e+000	0.000000e+000	0.000000e+000
5601160116.012	0.000000e+000	0.000000e+000	-5.804693e-002	2.201593e-001	0.000000e+000	0.000000e+000	0.000000e+000	0.000000e+000
5601180118.012	0.000000e+000	0.000000e+000	-5.478182e-002	2.207336e-001	0.000000e+000	0.000000e+000	0.000000e+000	0.000000e+000
5601200120.012	0.000000e+000	0.000000e+000	-5.127570e-002	2.213193e-001	0.000000e+000	0.000000e+000	0.000000e+000	0.000000e+000
5601220122.012	0.000000e+000	0.000000e+000	-4.752488e-002	2.218312e-001	0.000000e+000	0.000000e+000	0.000000e+000	0.000000e+000
5601240124.012	0.000000e+000	0.000000e+000	-4.343048e-002	2.221468e-001	0.000000e+000	0.000000e+000	0.000000e+000	0.000000e+000
5601260126.013	0.000000e+000	0.000000e+000	-3.885623e-002	2.221750e-001	0.000000e+000	0.000000e+000	0.000000e+000	0.000000e+000
5601280128.013	0.000000e+000	0.000000e+000	-3.370933e-002	2.220426e-001	0.000000e+000	0.000000e+000	0.000000e+000	0.000000e+000
5601300130.013	0.000000e+000	0.000000e+000	-2.795135e-002	2.212797e-001	0.000000e+000	0.000000e+000	0.000000e+000	0.000000e+000
5601320132.013	0.000000e+000	0.000000e+000	-2.094528e-002	2.195442e-001	0.000000e+000	0.000000e+000	0.000000e+000	0.000000e+000
5601340134.013	0.000000e+000	0.000000e+000	-1.187485e-002	2.149828e-001	0.000000e+000	0.000000e+000	0.000000e+000	0.000000e+000
5601360136.014	0.000000e+000	0.000000e+000	-1.399801e-003	2.043444e-001	0.000000e+000	0.000000e+000	0.000000e+000	0.000000e+000
5601380138.014	0.000000e+000	0.000000e+000	4.819674e-003	1.815527e-001	0.000000e+000	0.000000e+000	0.000000e+000	0.000000e+000
5601400140.014	0.000000e+000	0.000000e+000	-5.892137e-003	1.561171e-001	0.000000e+000	0.000000e+000	0.000000e+000	0.000000e+000
5601420142.014	0.000000e+000	0.000000e+000	-2.448551e-002	1.446709e-001	0.000000e+000	0.000000e+000	0.000000e+000	0.000000e+000
5601440144.014	0.000000e+000	0.000000e+000	-4.114426e-002	1.438928e-001	0.000000e+000	0.000000e+000	0.000000e+000	0.000000e+000
5601460146.015	0.000000e+000	0.000000e+000	-5.384555e-002	1.489947e-001	0.000000e+000	0.000000e+000	0.000000e+000	0.000000e+000
5601480148.015	0.000000e+000	0.000000e+000	-6.221318e-002	1.569010e-001	0.000000e+000	0.000000e+000	0.000000e+000	0.000000e+000
5601500150.015	0.000000e+000	0.000000e+000	-6.670893e-002	1.653305e-001	0.000000e+000	0.000000e+000	0.000000e+000	0.000000e+000
5601520152.015	0.000000e+000	0.000000e+000	-6.844025e-002	1.737110e-001	0.000000e+000	0.000000e+000	0.000000e+000	0.000000e+000
5601540154.015	0.000000e+000	0.000000e+000	-6.819564e-002	1.812767e-001	0.000000e+000	0.000000e+000	0.000000e+000	0.000000e+000
5601560156.016	0.000000e+000	0.000000e+000	-6.655887e-002	1.877387e-001	0.000000e+000	0.000000e+000	0.000000e+000	0.000000e+000
5601580158.016	0.000000e+000	0.000000e+000	-6.396787e-002	1.932162e-001	0.000000e+000	0.000000e+000	0.000000e+000	0.000000e+000
5601600160.016	0.000000e+000	0.000000e+000	-6.089918e-002	1.980785e-001	0.000000e+000	0.000000e+000	0.000000e+000	0.000000e+000
5601620162.016	0.000000e+000	0.000000e+000	-5.774402e-002	2.019376e-001	0.000000e+000	0.000000e+000	0.000000e+000	0.000000e+000
5601640164.016	0.000000e+000	0.000000e+000	-5.438757e-002	2.051168e-001	0.000000e+000	0.000000e+000	0.000000e+000	0.000000e+000
5601660166.017	0.000000e+000	0.000000e+000	-5.098743e-002	2.080219e-001	0.000000e+000	0.000000e+000	0.000000e+000	0.000000e+000
5601680168.017	0.000000e+000	0.000000e+000	-4.769931e-002	2.100873e-001	0.000000e+000	0.000000e+000	0.000000e+000	0.000000e+000
5601700170.017	0.000000e+000	0.000000e+000	-4.458393e-002	2.119397e-001	0.000000e+000	0.000000e+000	0.000000e+000	0.000000e+000
5601720172.017	0.000000e+000	0.000000e+000	-4.153184e-002	2.135332e-001	0.000000e+000	0.000000e+000	0.000000e+000	0.000000e+000
5601740174.017	0.000000e+000	0.000000e+000	-3.841794e-002	2.149439e-001	0.000000e+000	0.000000e+000	0.000000e+000	0.000000e+000
5601760176.018	0.000000e+000	0.000000e+000	-3.568905e-002	2.159909e-001	0.000000e+000	0.000000e+000	0.000000e+000	0.000000e+000
5601780178.018	0.000000e+000	0.000000e+000	-3.277508e-002	2.170451e-001	0.000000e+000	0.000000e+000	0.000000e+000	0.000000e+000
5601800180.018	0.000000e+000	0.000000e+000	-3.011247e-002	2.180218e-001	0.000000e+000	0.000000e+000	0.000000e+000	0.000000e+000
5601820182.018	0.000000e+000	0.000000e+000	-2.740960e-002	2.186917e-001	0.000000e+000	0.000000e+000	0.000000e+000	0.000000e+000
5601840184.018	0.000000e+000	0.000000e+000	-2.483320e-002	2.193033e-001	0.000000e+000	0.000000e+000	0.000000e+000	0.000000e+000
5601860186.019	0.000000e+000	0.000000e+000	-2.224153e-002	2.199429e-001	0.000000e+000	0.000000e+000	0.000000e+000	0.000000e+000
5601880188.019	0.000000e+000	0.000000e+000	-1.977428e-002	2.205000e-001	0.000000e+000	0.000000e+000	0.000000e+000	0.000000e+000
5601900190.019	0.000000e+000	0.000000e+000	-1.731210e-002	2.208510e-001	0.000000e+000	0.000000e+000	0.000000e+000	0.000000e+000
5601920192.019	0.000000e+000	0.000000e+000	-1.484124e-002	2.212720e-001	0.000000e+000	0.000000e+000	0.000000e+000	0.000000e+000
5601940194.019	0.000000e+000	0.000000e+000	-1.248347e-002	2.215549e-001	0.000000e+000	0.000000e+000	0.000000e+000	0.000000e+000
5601960196.020	0.000000e+000	0.000000e+000	-1.016906e-002	2.218534e-001	0.000000e+000	0.000000e+000	0.000000e+000	0.000000e+000
5601980198.020	0.000000e+000	0.000000e+000	-7.831820e-003	2.221497e-001	0.000000e+000	0.000000e+000	0.000000e+000	0.000000e+000
5602000200.020	0.000000e+000	0.000000e+000	-5.521745e-003	2.223859e-001	0.000000e+000	0.000000e+000	0.000000e+000	0.000000e+000
5602020202.020	0.000000e+000	0.000000e+000	-3.272613e-003	2.224243e-001	0.000000e+000	0.000000e+000	0.000000e+000	0.000000e+000
5602040204.020	0.000000e+000	0.000000e+000	-9.854873e-004	2.225597e-001	0.000000e+000	0.000000e+000	0.000000e+000	0.000000e+000
5602060206.021	0.000000e+000	0.000000e+000	1.308371e-003	2.226473e-001	0.000000e+000	0.000000e+000	0.000000e+000	0.000000e+000
5602080208.021	0.000000e+000	0.000000e+000	3.452873e-003	2.227230e-001	0.000000e+000	0.000000e+000	0.000000e+000	0.000000e+000
5602100210.021	0.000000e+000	0.000000e+000	5.706327e-003	2.227542e-001	0.000000e+000	0.000000e+000	0.000000e+000	0.000000e+000
5602120212.021	0.000000e+000	0.000000e+000	7.877368e-003	2.228412e-001	0.000000e+000	0.000000e+000	0.000000e+000	0.000000e+000
5602140214.021	0.000000e+000	0.000000e+000	1.005521e-002	2.227505e-001	0.000000e+000	0.000000e+000	0.000000e+000	0.000000e+000
5602160216.022	0.000000e+000	0.000000e+000	1.218557e-002	2.227989e-001	0.000000e+000	0.000000e+000	0.000000e+000	0.000000e+000
5602180218.022	0.000000e+000	0.000000e+000	1.435518e-002	2.227628e-001	0.000000e+000	0.000000e+000	0.000000e+000	0.000000e+000
5602200220.022	0.000000e+000	0.000000e+000	1.647937e-002	2.225772e-001	0.000000e+000	0.000000e+000	0.000000e+000	0.000000e+000
5602220222.022	0.000000e+000	0.000000e+000	1.852476e-002	2.224663e-001	0.000000e+000	0.000000e+000	0.000000e+000	0.000000e+000
5602240224.022	0.000000e+000	0.000000e+000	2.068165e-002	2.222997e-001	0.000000e+000	0.000000e+000	0.000000e+000	0.000000e+000
5602260226.023	0.000000e+000	0.000000e+000	2.278456e-002	2.222148e-001	0.000000e+000	0.000000e+000	0.000000e+000	0.000000e+000
5602280228.023	0.000000e+000	0.000000e+000	2.488000e-002	2.219385e-001	0.000000e+000	0.000000e+000	0.000000e+000	0.000000e+000
5602300230.023	0.000000e+000	0.000000e+000	2.703743e-002	2.217485e-001	0.000000e+000	0.000000e+000	0.000000e+000	0.000000e+000
5602320232.023	0.000000e+000	0.000000e+000	2.908247e-002	2.215711e-001	0.000000e+000	0.000000e+000	0.000000e+000	0.000000e+000
5602340234.023	0.000000e+000	0.000000e+000	3.117271e-002	2.212588e-001	0.000000e+000	0.000000e+000	0.000000e+000	0.000000e+000
5602360236.024	0.000000e+000	0.000000e+000	3.317237e-002	2.208967e-001	0.000000e+000	0.000000e+000	0.000000e+000	0.000000e+000
5602380238.024	0.000000e+000	0.000000e+000	3.528518e-002	2.205490e-001	0.000000e+000	0.000000e+000	0.000000e+000	0.000000e+000
5602400240.024	0.000000e+000	0.000000e+000	3.739775e-002	2.203776e-001	0.000000e+000	0.000000e+000	0.000000e+000	0.000000e+000
5602420242.024	0.000000e+000	0.000000e+000	3.942663e-002	2.199955e-001	0.000000e+000	0.000000e+000	0.000000e+000	0.000000e+000
5602440244.024	0.000000e+000	0.000000e+000	4.149323e-002	2.196460e-001	0.000000e+000	0.000000e+000	0.000000e+000	0.000000e+000
5602460246.025	0.000000e+000	0.000000e+000	4.349074e-002	2.192980e-001	0.000000e+000	0.000000e+000	0.000000e+000	0.000000e+000
5602480248.025	0.000000e+000	0.000000e+000	4.557369e-002	2.189691e-001	0.000000e+000	0.000000e+000	0.000000e+000	0.000000e+000
5602500250.025	0.000000e+000	0.000000e+000	4.755096e-002	2.185435e-001	0.000000e+000	0.000000e+000	0.000000e+000	0.000000e+000
5602520252.025	0.000000e+000	0.000000e+000	4.960127e-002	2.180859e-001	0.000000e+000	0.000000e+000	0.000000e+000	0.000000e+000
5602540254.025	0.000000e+000	0.000000e+000	5.156182e-002	2.176500e-001	0.000000e+000	0.000000e+000	0.000000e+000	0.000000e+000
5602560256.026	0.000000e+000	0.000000e+000	5.366257e-002	2.172216e-001	0.000000e+000	0.000000e+000	0.000000e+000	0.000000e+000
5602580258.026	0.000000e+000	0.000000e+000	5.578434e-002	2.166913e-001	0.000000e+000	0.000000e+000	0.000000e+000	0.000000e+000
5602600260.026	0.000000e+000	0.000000e+000	5.767391e-002	2.162363e-001	0.000000e+000	0.000000e+000	0.000000e+000	0.000000e+000
5602620262.026	0.000000e+000	0.000000e+000	5.970108e-002	2.156730e-001	0.000000e+000	0.000000e+000	0.000000e+000	0.000000e+000
5602640264.026	0.000000e+000	0.000000e+000	6.168905e-002	2.151316e-001	0.000000e+000	0.000000e+000	0.000000e+000	0.000000e+000
5602660266.027	0.000000e+000	0.000000e+000	6.371142e-002	2.146057e-001	0.000000e+000	0.000000e+000	0.000000e+000	0.000000e+000
5602680268.027	0.000000e+000	0.000000e+000	6.568361e-002	2.140530e-001	0.000000e+000	0.000000e+000	0.000000e+000	0.000000e+000
5602700270.027	0.000000e+000	0.000000e+000	6.774704e-002	2.134863e-001	0.000000e+000	0.000000e+000	0.000000e+000	0.000000e+000
5602720272.027	0.000000e+000	0.000000e+000	6.977282e-002	2.127685e-001	0.000000e+000	0.000000e+000	0.000000e+000	0.000000e+000
5602740274.027	0.000000e+000	0.000000e+000	7.176677e-002	2.121300e-001	0.000000e+000	0.000000e+000	0.000000e+000	0.000000e+000
5602760276.028	0.000000e+000	0.000000e+000	7.378105e-002	2.116387e-001	0.000000e+000	0.000000e+000	0.000000e+000	0.000000e+000
5602780278.028	0.000000e+000	0.000000e+000	7.582381e-002	2.109010e-001	0.000000e+000	0.000000e+000	0.000000e+000	0.000000e+000
5602800280.028	0.000000e+000	0.000000e+000	7.768584e-002	2.101316e-001	0.000000e+000	0.000000e+000	0.000000e+000	0.000000e+000
5602820282.028	0.000000e+000	0.000000e+000	7.982087e-002	2.094716e-001	0.000000e+000	0.000000e+000	0.000000e+000	0.000000e+000
5602840284.028	0.000000e+000	0.000000e+000	8.186059e-002	2.086863e-001	0.000000e+000	0.000000e+000	0.000000e+000	0.000000e+000
5602860286.029	0.000000e+000	0.000000e+000	8.383351e-002	2.079183e-001	0.000000e+000	0.000000e+000	0.000000e+000	0.000000e+000
5602880288.029	0.000000e+000	0.000000e+000	8.583396e-002	2.071094e-001	0.000000e+000	0.000000e+000	0.000000e+000	0.000000e+000
5602900290.029	0.000000e+000	0.000000e+000	8.787499e-002	2.063494e-001	0.000000e+000	0.000000e+000	0.000000e+000	0.000000e+000
5602920292.029	0.000000e+000	0.000000e+000	8.996083e-002	2.055491e-001	0.000000e+000	0.000000e+000	0.000000e+000	0.000000e+000
5602940294.029	0.000000e+000	0.000000e+000	9.207857e-002	2.046709e-001	0.000000e+000	0.000000e+000	0.000000e+000	0.000000e+000
5602960296.030	0.000000e+000	0.000000e+000	9.410070e-002	2.037593e-001	0.000000e+000	0.000000e+000	0.000000e+000	0.000000e+000
5602980298.030	0.000000e+000	0.000000e+000	9.624246e-002	2.027925e-001	0.000000e+000	0.000000e+000	0.000000e+000	0.000000e+000
5603000300.030	0.000000e+000	0.000000e+000	9.831505e-002	2.019606e-001	0.000000e+000	0.000000e+000	0.000000e+000	0.000000e+000
5603020302.030	0.000000e+000	0.000000e+000	1.005255e-001	2.010136e-001	0.000000e+000	0.000000e+000	0.000000e+000	0.000000e+000
5603040304.030	0.000000e+000	0.000000e+000	1.026930e-001	1.999968e-001	0.000000e+000	0.000000e+000	0.000000e+000	0.000000e+000
