"# Channel 1"
"# Trace 1"
Frequency, Formatted Data, Formatted Data
+5.80000000000E+009, -1.10516229534E-001, -1.69527744383E-001
+5.80002000200E+009, -1.12185327249E-001, -1.68576147677E-001
+5.80004000400E+009, -1.13882975784E-001, -1.67590316745E-001
+5.80006000600E+009, -1.15495899203E-001, -1.66570121791E-001
+5.80008000800E+009, -1.17263419266E-001, -1.65508618983E-001
+5.80010001000E+009, -1.18927231942E-001, -1.64472062667E-001
+5.80012001200E+009, -1.20551234341E-001, -1.63360840404E-001
+5.80014001400E+009, -1.22185395749E-001, -1.62376148333E-001
+5.80016001600E+009, -1.23885618608E-001, -1.61283862171E-001
+5.80018001800E+009, -1.25519603066E-001, -1.60118493990E-001
+5.80020002000E+009, -1.27167582316E-001, -1.59013489636E-001
+5.80022002200E+009, -1.28872371721E-001, -1.57914266981E-001
+5.80024002400E+009, -1.30426065465E-001, -1.56703313116E-001
+5.80026002600E+009, -1.32148966067E-001, -1.55481463299E-001
+5.80028002800E+009, -1.33791351999E-001, -1.54272495890E-001
+5.80030003000E+009, -1.35364141639E-001, -1.53057426458E-001
+5.80032003200E+009, -1.37059353960E-001, -1.51756588436E-001
+5.80034003400E+009, -1.38806015014E-001, -1.50355125083E-001
+5.80036003600E+009, -1.40421642878E-001, -1.49130694293E-001
+5.80038003800E+009, -1.42106574859E-001, -1.47751890725E-001
+5.80040004000E+009, -1.43860610359E-001, -1.46413660066E-001
+5.80042004200E+009, -1.45599610012E-001, -1.44964331746E-001
+5.80044004400E+009, -1.47202280266E-001, -1.43444185051E-001
+5.80046004600E+009, -1.48973287159E-001, -1.41980374733E-001
+5.80048004800E+009, -1.50720275453E-001, -1.40424254498E-001
+5.80050005001E+009, -1.52479728512E-001, -1.38847816726E-001
+5.80052005201E+009, -1.54297527774E-001, -1.37210818699E-001
+5.80054005401E+009, -1.56105301907E-001, -1.35527818125E-001
+5.80056005601E+009, -1.57874290438E-001, -1.33769207032E-001
+5.80058005801E+009, -1.59705145470E-001, -1.32027766780E-001
+5.80060006001E+009, -1.61823240889E-001, -1.30059891801E-001
+5.80062006201E+009, -1.63599421564E-001, -1.28120310672E-001
+5.80064006401E+009, -1.65670746426E-001, -1.25958349388E-001
+5.80066006601E+009, -1.67785703936E-001, -1.23788690063E-001
+5.80068006801E+009, -1.69781449262E-001, -1.21599272905E-001
+5.80070007001E+009, -1.71896368123E-001, -1.19009155776E-001
+5.80072007201E+009, -1.74221066486E-001, -1.16272569948E-001
+5.80074007401E+009, -1.76503333166E-001, -1.13313093962E-001
+5.80076007601E+009, -1.78935823264E-001, -1.10132667147E-001
+5.80078007801E+009, -1.81516502867E-001, -1.06522738439E-001
+5.80080008001E+009, -1.84211228560E-001, -1.02400904972E-001
+5.80082008201E+009, -1.86839972429E-001, -9.78295007629E-002
+5.80084008401E+009, -1.89564039792E-001, -9.23663490305E-002
+5.80086008601E+009, -1.92484497168E-001, -8.52523730381E-002
+5.80088008801E+009, -1.94801258631E-001, -7.64996387005E-002
+5.80090009001E+009, -1.96077076444E-001, -6.45912515593E-002
+5.80092009201E+009, -1.93736423210E-001, -4.76615333851E-002
+5.80094009401E+009, -1.82106745538E-001, -2.62964633279E-002
+5.80096009601E+009, -1.55712491378E-001, -8.93623453356E-003
+5.80098009801E+009, -1.23121670937E-001, -7.35164256112E-003
+5.80100010001E+009, -9.76343401743E-002, -1.98061583554E-002
+5.80102010201E+009, -8.33511174767E-002, -3.72469439148E-002
+5.80104010401E+009, -7.73546380484E-002, -5.52569876881E-002
+5.80106010601E+009, -7.74956508212E-002, -7.08429175295E-002
+5.80108010801E+009, -8.12391317484E-002, -8.32346670841E-002
+5.80110011001E+009, -8.71273526680E-002, -9.29166898115E-002
+5.80112011201E+009, -9.45981476039E-002, -1.00269741958E-001
+5.80114011401E+009, -1.01752821704E-001, -1.04939224574E-001
+5.80116011601E+009, -1.08695484492E-001, -1.07904585991E-001
+5.80118011801E+009, -1.15648598008E-001, -1.09818418530E-001
+5.80120012001E+009, -1.21709607556E-001, -1.10504352477E-001
+5.80122012201E+009, -1.27085248123E-001, -1.10486945717E-001
+5.80124012401E+009, -1.32231536210E-001, -1.09878531409E-001
+5.80126012601E+009, -1.36951174249E-001, -1.09033774199E-001
+5.80128012801E+009, -1.40887385065E-001, -1.07885121595E-001
+5.80130013001E+009, -1.44673654080E-001, -1.06468070050E-001
+5.80132013201E+009, -1.48046684453E-001, -1.04975132027E-001
+5.80134013401E+009, -1.50936144329E-001, -1.03432481050E-001
+5.80136013601E+009, -1.53637929128E-001, -1.01764184292E-001
+5.80138013801E+009, -1.56336329650E-001, -1.00120414721E-001
+5.80140014001E+009, -1.58575593639E-001, -9.84765110771E-002
+5.80142014201E+009, -1.60741120754E-001, -9.66259745660E-002
+5.80144014401E+009, -1.62861953263E-001, -9.48962556608E-002
+5.80146014601E+009, -1.64705541756E-001, -9.31568920617E-002
+5.80148014801E+009, -1.66421623918E-001, -9.14303746865E-002
+5.80150015002E+009, -1.68224510732E-001, -8.97124381712E-002
+5.80152015202E+009, -1.69794151219E-001, -8.78543073248E-002
+5.80154015402E+009, -1.71313253156E-001, -8.61202933218E-002
+5.80156015602E+009, -1.72769515401E-001, -8.42958547641E-002
+5.80158015802E+009, -1.74242365619E-001, -8.26304873624E-002
+5.80160016002E+009, -1.75465751733E-001, -8.08356775992E-002
+5.80162016202E+009, -1.76618559435E-001, -7.90675503190E-002
+5.80164016402E+009, -1.77950595576E-001, -7.72668329618E-002
+5.80166016602E+009, -1.79031334241E-001, -7.55936220215E-002
+5.80168016802E+009, -1.80094717770E-001, -7.38545893036E-002
+5.80170017002E+009, -1.81251850271E-001, -7.18796855485E-002
+5.80172017202E+009, -1.82283871352E-001, -7.02817894304E-002
+5.80174017402E+009, -1.83089980337E-001, -6.83647241417E-002
+5.80176017602E+009, -1.84124224840E-001, -6.67148009226E-002
+5.80178017802E+009, -1.85098534583E-001, -6.48302285715E-002
+5.80180018002E+009, -1.85995454507E-001, -6.31544404112E-002
+5.80182018202E+009, -1.86901614469E-001, -6.13949249947E-002
+5.80184018402E+009, -1.87732022181E-001, -5.95466877555E-002
+5.80186018602E+009, -1.88395662843E-001, -5.77476887834E-002
+5.80188018802E+009, -1.89171704202E-001, -5.59530210872E-002
+5.80190019002E+009, -1.89991179952E-001, -5.42155487664E-002
+5.80192019202E+009, -1.90690317841E-001, -5.23790965464E-002
+5.80194019402E+009, -1.91404877864E-001, -5.05697702088E-002
+5.80196019602E+009, -1.92184056513E-001, -4.87583812076E-002
+5.80198019802E+009, -1.92736977081E-001, -4.69171383881E-002
+5.80200020002E+009, -1.93314144375E-001, -4.51920193053E-002
+5.80202020202E+009, -1.94040733647E-001, -4.34267186016E-002
+5.80204020402E+009, -1.94592878549E-001, -4.15191854942E-002
+5.80206020602E+009, -1.95064575231E-001, -3.96896316965E-002
+5.80208020802E+009, -1.95615658529E-001, -3.79183284083E-002
+5.80210021002E+009, -1.96210993219E-001, -3.60166335788E-002
+5.80212021202E+009, -1.96640394138E-001, -3.41904259907E-002
+5.80214021402E+009, -1.97142342547E-001, -3.23204437783E-002
+5.80216021602E+009, -1.97683013195E-001, -3.05130792663E-002
+5.80218021802E+009, -1.98122635830E-001, -2.86095344036E-002
+5.80220022002E+009, -1.98467693873E-001, -2.68315233080E-002
+5.80222022202E+009, -1.98924904187E-001, -2.49316077610E-002
+5.80224022402E+009, -1.99382459419E-001, -2.30327233727E-002
+5.80226022602E+009, -1.99680866321E-001, -2.12391548338E-002
+5.80228022802E+009, -2.00116365107E-001, -1.93405379339E-002
+5.80230023002E+009, -2.00420632421E-001, -1.74160177709E-002
+5.80232023202E+009, -2.00647066961E-001, -1.55506788135E-002
+5.80234023402E+009, -2.01019784482E-001, -1.36905666302E-002
+5.80236023602E+009, -2.01410792573E-001, -1.17382450687E-002
+5.80238023802E+009, -2.01633858215E-001, -9.86557084073E-003
+5.80240024002E+009, -2.01847221357E-001, -7.90565775335E-003
+5.80242024202E+009, -2.02044192705E-001, -5.94119154339E-003
+5.80244024402E+009, -2.02351275206E-001, -4.00390446252E-003
+5.80246024602E+009, -2.02587582569E-001, -1.98134000270E-003
+5.80248024802E+009, -2.02744291501E-001, +1.03484432359E-005
+5.80250025003E+009, -2.02991069549E-001, +1.96441091813E-003
+5.80252025203E+009, -2.03070799596E-001, +3.95696324326E-003
+5.80254025403E+009, -2.03153552024E-001, +5.84373043590E-003
+5.80256025603E+009, -2.03276008243E-001, +7.94151782402E-003
+5.80258025803E+009, -2.03363828624E-001, +9.91808469819E-003
+5.80260026003E+009, -2.03543243672E-001, +1.20114519772E-002
+5.80262026203E+009, -2.03667613141E-001, +1.42074906079E-002
+5.80264026403E+009, -2.03642256155E-001, +1.62135124354E-002
+5.80266026603E+009, -2.03546766151E-001, +1.82829685317E-002
+5.80268026803E+009, -2.03646186013E-001, +2.04003643518E-002
+5.80270027003E+009, -2.03720710466E-001, +2.26264985253E-002
+5.80272027203E+009, -2.03561603224E-001, +2.46702531981E-002
+5.80274027403E+009, -2.03595991220E-001, +2.69895762286E-002
+5.80276027603E+009, -2.03541676669E-001, +2.91648674802E-002
+5.80278027803E+009, -2.03454039373E-001, +3.13907603932E-002
+5.80280028003E+009, -2.03322833014E-001, +3.37244398773E-002
+5.80282028203E+009, -2.03240703046E-001, +3.60541133899E-002
+5.80284028403E+009, -2.03065837276E-001, +3.84016423890E-002
+5.80286028603E+009, -2.02896158208E-001, +4.07783276187E-002
+5.80288028803E+009, -2.02690454063E-001, +4.32996980731E-002
+5.80290029003E+009, -2.02446238104E-001, +4.57782602309E-002
+5.80292029203E+009, -2.02153865509E-001, +4.82898682504E-002
+5.80294029403E+009, -2.01872804629E-001, +5.10090867060E-002
+5.80296029603E+009, -2.01563448443E-001, +5.38536442687E-002
+5.80298029803E+009, -2.01112019117E-001, +5.66513827880E-002
+5.80300030003E+009, -2.00732384436E-001, +5.95618086367E-002
+5.80302030203E+009, -2.00242296823E-001, +6.26823160196E-002
+5.80304030403E+009, -1.99654980519E-001, +6.57330431932E-002
+5.80306030603E+009, -1.98985921837E-001, +6.89914511049E-002
+5.80308030803E+009, -1.98183077798E-001, +7.26306245816E-002
+5.80310031003E+009, -1.97232318789E-001, +7.62846162996E-002
+5.80312031203E+009, -1.96286188646E-001, +8.02463394338E-002
+5.80314031403E+009, -1.94813235665E-001, +8.45956326280E-002
+5.80316031603E+009, -1.93202152605E-001, +8.91992367931E-002
+5.80318031803E+009, -1.91187578788E-001, +9.41336503697E-002
+5.80320032003E+009, -1.88679413938E-001, +9.97314501450E-002
+5.80322032203E+009, -1.85074853198E-001, +1.06163681912E-001
+5.80324032403E+009, -1.80350123324E-001, +1.12707377953E-001
+5.80326032603E+009, -1.73333068192E-001, +1.20609169060E-001
+5.80328032803E+009, -1.62271440758E-001, +1.29009661509E-001
+5.80330033003E+009, -1.45945392296E-001, +1.35924573957E-001
+5.80332033203E+009, -1.22998277754E-001, +1.37268833716E-001
+5.80334033403E+009, -9.51020120798E-002, +1.26099123636E-001
+5.80336033603E+009, -7.54307838180E-002, +1.03490646637E-001
+5.80338033803E+009, -6.85432504527E-002, +7.77283437312E-002
+5.80340034003E+009, -7.20310044625E-002, +5.43249421395E-002
+5.80342034203E+009, -8.16846746559E-002, +3.74934079190E-002
+5.80344034403E+009, -9.37049564825E-002, +2.69491489524E-002
+5.80346034603E+009, -1.06406391590E-001, +2.09867378974E-002
+5.80348034803E+009, -1.18697025223E-001, +1.89261616435E-002
+5.80350035004E+009, -1.28655058064E-001, +1.94947689092E-002
+5.80352035204E+009, -1.37440786724E-001, +2.18468048893E-002
+5.80354035404E+009, -1.44689082154E-001, +2.52331357388E-002
+5.80356035604E+009, -1.50305427518E-001, +2.89750277638E-002
+5.80358035804E+009, -1.54899818265E-001, +3.31326724838E-002
+5.80360036004E+009, -1.58685590674E-001, +3.74666611451E-002
+5.80362036204E+009, -1.61587013152E-001, +4.15505322338E-002
+5.80364036404E+009, -1.63930412504E-001, +4.55332773175E-002
+5.80366036604E+009, -1.65813962370E-001, +4.95074936323E-002
+5.80368036804E+009, -1.67124197841E-001, +5.30220230388E-002
+5.80370037004E+009, -1.68006203443E-001, +5.65123122439E-002
+5.80372037204E+009, -1.68707343723E-001, +5.97014072517E-002
+5.80374037404E+009, -1.69400156851E-001, +6.29339457388E-002
+5.80376037604E+009, -1.69595477318E-001, +6.58026951444E-002
+5.80378037804E+009, -1.69853302195E-001, +6.87335539841E-002
+5.80380038004E+009, -1.69988503634E-001, +7.16292351600E-002
+5.80382038204E+009, -1.69906192913E-001, +7.41358556919E-002
+5.80384038404E+009, -1.69672330913E-001, +7.66815727123E-002
+5.80386038604E+009, -1.69518953784E-001, +7.92251220636E-002
+5.80388038804E+009, -1.69181146975E-001, +8.16612971857E-002
+5.80390039004E+009, -1.68764270216E-001, +8.38811292414E-002
+5.80392039204E+009, -1.68388763154E-001, +8.62815221592E-002
+5.80394039404E+009, -1.67966004735E-001, +8.84688889499E-002
+5.80396039604E+009, -1.67383359952E-001, +9.04499723819E-002
+5.80398039804E+009, -1.66753513695E-001, +9.25797902708E-002
+5.80400040004E+009, -1.66232856243E-001, +9.47974933695E-002
+5.80402040204E+009, -1.65534571949E-001, +9.67740092284E-002
+5.80404040404E+009, -1.64840819586E-001, +9.87430811501E-002
+5.80406040604E+009, -1.64064119825E-001, +1.00828442952E-001
+5.80408040804E+009, -1.63397619202E-001, +1.02697635755E-001
+5.80410041004E+009, -1.62605105347E-001, +1.04517154584E-001
+5.80412041204E+009, -1.61756249125E-001, +1.06440132083E-001
+5.80414041404E+009, -1.60928019749E-001, +1.08349222419E-001
+5.80416041604E+009, -1.60068048840E-001, +1.10169116723E-001
+5.80418041804E+009, -1.59226734399E-001, +1.11911595889E-001
+5.80420042004E+009, -1.58349118228E-001, +1.13689398442E-001
+5.80422042204E+009, -1.57389043976E-001, +1.15376748040E-001
+5.80424042404E+009, -1.56436913178E-001, +1.17092881309E-001
+5.80426042604E+009, -1.55502320681E-001, +1.18862736333E-001
+5.80428042804E+009, -1.54572552828E-001, +1.20519200072E-001
+5.80430043004E+009, -1.53482621321E-001, +1.22211855103E-001
+5.80432043204E+009, -1.52598588046E-001, +1.23976353612E-001
+5.80434043404E+009, -1.51503098019E-001, +1.25489866720E-001
+5.80436043604E+009, -1.50416187784E-001, +1.27088819322E-001
+5.80438043804E+009, -1.49358562269E-001, +1.28700074161E-001
+5.80440044004E+009, -1.48285307934E-001, +1.30337562426E-001
+5.80442044204E+009, -1.47108302021E-001, +1.31832846203E-001
+5.80444044404E+009, -1.45931932932E-001, +1.33480387373E-001
+5.80446044604E+009, -1.44795882885E-001, +1.34963976334E-001
+5.80448044804E+009, -1.43636034963E-001, +1.36461512877E-001
+5.80450045005E+009, -1.42477439391E-001, +1.38010969137E-001
+5.80452045205E+009, -1.41299604866E-001, +1.39549912080E-001
+5.80454045405E+009, -1.40046343920E-001, +1.41055820104E-001
+5.80456045605E+009, -1.38844129371E-001, +1.42582220168E-001
+5.80458045805E+009, -1.37553770782E-001, +1.44074786757E-001
+5.80460046005E+009, -1.36223633326E-001, +1.45539987064E-001
+5.80462046205E+009, -1.34954823907E-001, +1.46898486369E-001
+5.80464046405E+009, -1.33728406172E-001, +1.48476845543E-001
+5.80466046605E+009, -1.32380271704E-001, +1.49868166216E-001
+5.80468046805E+009, -1.30972552451E-001, +1.51328108347E-001
+5.80470047005E+009, -1.29601564122E-001, +1.52701851475E-001
+5.80472047205E+009, -1.28277080307E-001, +1.54156823451E-001
+5.80474047405E+009, -1.26862126354E-001, +1.55508631040E-001
+5.80476047605E+009, -1.25457146612E-001, +1.56882336579E-001
+5.80478047805E+009, -1.24024612991E-001, +1.58311519298E-001
+5.80480048005E+009, -1.22521825113E-001, +1.59718839584E-001
+5.80482048205E+009, -1.21009662786E-001, +1.61111869322E-001
+5.80484048405E+009, -1.19473073088E-001, +1.62497680814E-001
+5.80486048605E+009, -1.17906881062E-001, +1.63849897897E-001
+5.80488048805E+009, -1.16350238372E-001, +1.65177863602E-001
+5.80490049005E+009, -1.14758704971E-001, +1.66526430029E-001
+5.80492049205E+009, -1.13070916583E-001, +1.67914041197E-001
+5.80494049405E+009, -1.11409486143E-001, +1.69307919100E-001
+5.80496049605E+009, -1.09785870372E-001, +1.70741124974E-001
+5.80498049805E+009, -1.07974093653E-001, +1.72119966619E-001
+5.80500050005E+009, -1.06250245226E-001, +1.73419543521E-001
+5.80502050205E+009, -1.04409562977E-001, +1.74856519203E-001
+5.80504050405E+009, -1.02530126046E-001, +1.76267999439E-001
+5.80506050605E+009, -1.00624051958E-001, +1.77496385539E-001
+5.80508050805E+009, -9.87254649115E-002, +1.79006503306E-001
+5.80510051005E+009, -9.66778436993E-002, +1.80374081698E-001
+5.80512051205E+009, -9.46440558113E-002, +1.81796887306E-001
+5.80514051405E+009, -9.25020929032E-002, +1.83226842398E-001
+5.80516051605E+009, -9.01938844182E-002, +1.84705456401E-001
+5.80518051805E+009, -8.78180258840E-002, +1.86272704822E-001
+5.80520052005E+009, -8.54303764870E-002, +1.87598923253E-001
+5.80522052205E+009, -8.27345381210E-002, +1.89222020581E-001
+5.80524052405E+009, -7.99922418259E-002, +1.90757415874E-001
+5.80526052605E+009, -7.71848914938E-002, +1.92264457372E-001
+5.80528052805E+009, -7.41716600408E-002, +1.93803503033E-001
+5.80530053005E+009, -7.06245928715E-002, +1.95621419354E-001
+5.80532053205E+009, -6.69385356109E-002, +1.97221318970E-001
+5.80534053405E+009, -6.29281425901E-002, +1.98912871203E-001
+5.80536053605E+009, -5.82719064052E-002, +2.00663317522E-001
+5.80538053805E+009, -5.30282457902E-002, +2.02294979878E-001
+5.80540054005E+009, -4.71745028805E-002, +2.03629626080E-001
+5.80542054205E+009, -4.01615819998E-002, +2.04774696732E-001
+5.80544054405E+009, -3.10361729360E-002, +2.05353119426E-001
+5.80546054605E+009, -2.02728704804E-002, +2.04261956676E-001
+5.80548054805E+009, -5.86533249586E-003, +1.99735868996E-001
+5.80550055006E+009, +1.19580902979E-002, +1.86709900012E-001
+5.80552055206E+009, +2.57190193878E-002, +1.60631264726E-001
+5.80554055406E+009, +2.41489965821E-002, +1.28257648785E-001
+5.80556055606E+009, +7.18618266089E-003, +1.02386591969E-001
+5.80558055806E+009, -1.53173156268E-002, +9.00259664176E-002
+5.80560056006E+009, -3.57832867024E-002, +8.81049182210E-002
+5.80562056206E+009, -5.23445517674E-002, +9.26475122376E-002
+5.80564056406E+009, -6.43514923217E-002, +1.00863328500E-001
+5.80566056606E+009, -7.20048799115E-002, +1.09648398289E-001
+5.80568056806E+009, -7.66375227893E-002, +1.18858525696E-001
+5.80570057006E+009, -7.91045516261E-002, +1.27953153255E-001
+5.80572057206E+009, -7.96620477958E-002, +1.35393541971E-001
+5.80574057406E+009, -7.91581621583E-002, +1.42444224592E-001
+5.80576057606E+009, -7.79346594300E-002, +1.48425784222E-001
+5.80578057806E+009, -7.62963962486E-002, +1.53481646174E-001
+5.80580058006E+009, -7.44497369281E-002, +1.57684935230E-001
+5.80582058206E+009, -7.23743507776E-002, +1.61513432801E-001
+5.80584058406E+009, -7.01123377272E-002, +1.64889236335E-001
+5.80586058606E+009, -6.79926645584E-002, +1.67582210408E-001
+5.80588058806E+009, -6.58870465766E-002, +1.70266034911E-001
+5.80590059006E+009, -6.36117491055E-002, +1.72662502265E-001
+5.80592059206E+009, -6.14785068454E-002, +1.74619996673E-001
+5.80594059406E+009, -5.93401688353E-002, +1.76370933415E-001
+5.80596059606E+009, -5.71382183289E-002, +1.78226468472E-001
+5.80598059806E+009, -5.50521651155E-002, +1.79700612911E-001
+5.80600060006E+009, -5.28275615530E-002, +1.81166140937E-001
+5.80602060206E+009, -5.07157164985E-002, +1.82445442039E-001
+5.80604060406E+009, -4.87096499625E-002, +1.83657535656E-001
+5.80606060606E+009, -4.66022585762E-002, +1.84798113228E-001
+5.80608060806E+009, -4.45882519872E-002, +1.85790018618E-001
+5.80610061006E+009, -4.25275193789E-002, +1.86879624791E-001
+5.80612061206E+009, -4.04925641703E-002, +1.87728621538E-001
+5.80614061406E+009, -3.84730441267E-002, +1.88632049659E-001
+5.80616061606E+009, -3.63968131219E-002, +1.89439475656E-001
+5.80618061806E+009, -3.44352455840E-002, +1.90125936918E-001
+5.80620062006E+009, -3.24999358009E-002, +1.90820184785E-001
+5.80622062206E+009, -3.04614924069E-002, +1.91512322382E-001
+5.80624062406E+009, -2.85756494452E-002, +1.92064728775E-001
+5.80626062606E+009, -2.64973016952E-002, +1.92576128093E-001
+5.80628062806E+009, -2.45232840868E-002, +1.93212740497E-001
+5.80630063006E+009, -2.26334085657E-002, +1.93720297594E-001
