!Keysight Technologies,E5063A,MY54502693,A.05.04
!Date: Sat Feb 27 20:42:07 2021
!Data & Calibration Information:
!Freq	S11:NONE(--)	S21:NONE(--)	S12:NONE(--)	S22:NONE(--)
# Hz S RI R 50
6000000000.000	0.000000e+000	0.000000e+000	1.765436e-001	-1.031557e-001	0.000000e+000	0.000000e+000	0.000000e+000	0.000000e+000
6000020002.000	0.000000e+000	0.000000e+000	1.755997e-001	-1.045908e-001	0.000000e+000	0.000000e+000	0.000000e+000	0.000000e+000
6000040004.000	0.000000e+000	0.000000e+000	1.748599e-001	-1.060787e-001	0.000000e+000	0.000000e+000	0.000000e+000	0.000000e+000
6000060006.001	0.000000e+000	0.000000e+000	1.740332e-001	-1.075359e-001	0.000000e+000	0.000000e+000	0.000000e+000	0.000000e+000
6000080008.001	0.000000e+000	0.000000e+000	1.730764e-001	-1.088252e-001	0.000000e+000	0.000000e+000	0.000000e+000	0.000000e+000
6000100010.001	0.000000e+000	0.000000e+000	1.722222e-001	-1.102751e-001	0.000000e+000	0.000000e+000	0.000000e+000	0.000000e+000
6000120012.001	0.000000e+000	0.000000e+000	1.712844e-001	-1.117707e-001	0.000000e+000	0.000000e+000	0.000000e+000	0.000000e+000
6000140014.001	0.000000e+000	0.000000e+000	1.704589e-001	-1.131045e-001	0.000000e+000	0.000000e+000	0.000000e+000	0.000000e+000
6000160016.002	0.000000e+000	0.000000e+000	1.695147e-001	-1.145128e-001	0.000000e+000	0.000000e+000	0.000000e+000	0.000000e+000
6000180018.002	0.000000e+000	0.000000e+000	1.685104e-001	-1.158989e-001	0.000000e+000	0.000000e+000	0.000000e+000	0.000000e+000
6000200020.002	0.000000e+000	0.000000e+000	1.676372e-001	-1.173377e-001	0.000000e+000	0.000000e+000	0.000000e+000	0.000000e+000
6000220022.002	0.000000e+000	0.000000e+000	1.666822e-001	-1.186424e-001	0.000000e+000	0.000000e+000	0.000000e+000	0.000000e+000
6000240024.002	0.000000e+000	0.000000e+000	1.657183e-001	-1.200336e-001	0.000000e+000	0.000000e+000	0.000000e+000	0.000000e+000
6000260026.003	0.000000e+000	0.000000e+000	1.647455e-001	-1.213904e-001	0.000000e+000	0.000000e+000	0.000000e+000	0.000000e+000
6000280028.003	0.000000e+000	0.000000e+000	1.638135e-001	-1.227205e-001	0.000000e+000	0.000000e+000	0.000000e+000	0.000000e+000
6000300030.003	0.000000e+000	0.000000e+000	1.628218e-001	-1.240834e-001	0.000000e+000	0.000000e+000	0.000000e+000	0.000000e+000
6000320032.003	0.000000e+000	0.000000e+000	1.617846e-001	-1.254243e-001	0.000000e+000	0.000000e+000	0.000000e+000	0.000000e+000
6000340034.003	0.000000e+000	0.000000e+000	1.607467e-001	-1.267733e-001	0.000000e+000	0.000000e+000	0.000000e+000	0.000000e+000
6000360036.004	0.000000e+000	0.000000e+000	1.597611e-001	-1.280073e-001	0.000000e+000	0.000000e+000	0.000000e+000	0.000000e+000
6000380038.004	0.000000e+000	0.000000e+000	1.587296e-001	-1.294334e-001	0.000000e+000	0.000000e+000	0.000000e+000	0.000000e+000
6000400040.004	0.000000e+000	0.000000e+000	1.576608e-001	-1.307545e-001	0.000000e+000	0.000000e+000	0.000000e+000	0.000000e+000
6000420042.004	0.000000e+000	0.000000e+000	1.565658e-001	-1.319168e-001	0.000000e+000	0.000000e+000	0.000000e+000	0.000000e+000
6000440044.004	0.000000e+000	0.000000e+000	1.556205e-001	-1.332758e-001	0.000000e+000	0.000000e+000	0.000000e+000	0.000000e+000
6000460046.005	0.000000e+000	0.000000e+000	1.544145e-001	-1.345663e-001	0.000000e+000	0.000000e+000	0.000000e+000	0.000000e+000
6000480048.005	0.000000e+000	0.000000e+000	1.533359e-001	-1.358344e-001	0.000000e+000	0.000000e+000	0.000000e+000	0.000000e+000
6000500050.005	0.000000e+000	0.000000e+000	1.522445e-001	-1.371383e-001	0.000000e+000	0.000000e+000	0.000000e+000	0.000000e+000
6000520052.005	0.000000e+000	0.000000e+000	1.512076e-001	-1.384375e-001	0.000000e+000	0.000000e+000	0.000000e+000	0.000000e+000
6000540054.005	0.000000e+000	0.000000e+000	1.499767e-001	-1.395174e-001	0.000000e+000	0.000000e+000	0.000000e+000	0.000000e+000
6000560056.006	0.000000e+000	0.000000e+000	1.488317e-001	-1.408105e-001	0.000000e+000	0.000000e+000	0.000000e+000	0.000000e+000
6000580058.006	0.000000e+000	0.000000e+000	1.478014e-001	-1.421571e-001	0.000000e+000	0.000000e+000	0.000000e+000	0.000000e+000
6000600060.006	0.000000e+000	0.000000e+000	1.465710e-001	-1.432154e-001	0.000000e+000	0.000000e+000	0.000000e+000	0.000000e+000
6000620062.006	0.000000e+000	0.000000e+000	1.454491e-001	-1.443973e-001	0.000000e+000	0.000000e+000	0.000000e+000	0.000000e+000
6000640064.006	0.000000e+000	0.000000e+000	1.443068e-001	-1.456680e-001	0.000000e+000	0.000000e+000	0.000000e+000	0.000000e+000
6000660066.007	0.000000e+000	0.000000e+000	1.429300e-001	-1.468196e-001	0.000000e+000	0.000000e+000	0.000000e+000	0.000000e+000
6000680068.007	0.000000e+000	0.000000e+000	1.419188e-001	-1.479957e-001	0.000000e+000	0.000000e+000	0.000000e+000	0.000000e+000
6000700070.007	0.000000e+000	0.000000e+000	1.407089e-001	-1.491604e-001	0.000000e+000	0.000000e+000	0.000000e+000	0.000000e+000
6000720072.007	0.000000e+000	0.000000e+000	1.394410e-001	-1.502694e-001	0.000000e+000	0.000000e+000	0.000000e+000	0.000000e+000
6000740074.007	0.000000e+000	0.000000e+000	1.382739e-001	-1.514390e-001	0.000000e+000	0.000000e+000	0.000000e+000	0.000000e+000
6000760076.008	0.000000e+000	0.000000e+000	1.369826e-001	-1.526330e-001	0.000000e+000	0.000000e+000	0.000000e+000	0.000000e+000
6000780078.008	0.000000e+000	0.000000e+000	1.357650e-001	-1.537223e-001	0.000000e+000	0.000000e+000	0.000000e+000	0.000000e+000
6000800080.008	0.000000e+000	0.000000e+000	1.344311e-001	-1.547288e-001	0.000000e+000	0.000000e+000	0.000000e+000	0.000000e+000
6000820082.008	0.000000e+000	0.000000e+000	1.332479e-001	-1.558967e-001	0.000000e+000	0.000000e+000	0.000000e+000	0.000000e+000
6000840084.008	0.000000e+000	0.000000e+000	1.319278e-001	-1.570039e-001	0.000000e+000	0.000000e+000	0.000000e+000	0.000000e+000
6000860086.009	0.000000e+000	0.000000e+000	1.307566e-001	-1.580922e-001	0.000000e+000	0.000000e+000	0.000000e+000	0.000000e+000
6000880088.009	0.000000e+000	0.000000e+000	1.294360e-001	-1.591840e-001	0.000000e+000	0.000000e+000	0.000000e+000	0.000000e+000
6000900090.009	0.000000e+000	0.000000e+000	1.280726e-001	-1.603056e-001	0.000000e+000	0.000000e+000	0.000000e+000	0.000000e+000
6000920092.009	0.000000e+000	0.000000e+000	1.268046e-001	-1.614196e-001	0.000000e+000	0.000000e+000	0.000000e+000	0.000000e+000
6000940094.009	0.000000e+000	0.000000e+000	1.254838e-001	-1.623963e-001	0.000000e+000	0.000000e+000	0.000000e+000	0.000000e+000
6000960096.010	0.000000e+000	0.000000e+000	1.241979e-001	-1.634940e-001	0.000000e+000	0.000000e+000	0.000000e+000	0.000000e+000
6000980098.010	0.000000e+000	0.000000e+000	1.228806e-001	-1.644358e-001	0.000000e+000	0.000000e+000	0.000000e+000	0.000000e+000
6001000100.010	0.000000e+000	0.000000e+000	1.215235e-001	-1.654443e-001	0.000000e+000	0.000000e+000	0.000000e+000	0.000000e+000
6001020102.010	0.000000e+000	0.000000e+000	1.200780e-001	-1.664245e-001	0.000000e+000	0.000000e+000	0.000000e+000	0.000000e+000
6001040104.010	0.000000e+000	0.000000e+000	1.188327e-001	-1.674561e-001	0.000000e+000	0.000000e+000	0.000000e+000	0.000000e+000
6001060106.011	0.000000e+000	0.000000e+000	1.174162e-001	-1.684687e-001	0.000000e+000	0.000000e+000	0.000000e+000	0.000000e+000
6001080108.011	0.000000e+000	0.000000e+000	1.160978e-001	-1.693649e-001	0.000000e+000	0.000000e+000	0.000000e+000	0.000000e+000
6001100110.011	0.000000e+000	0.000000e+000	1.147355e-001	-1.704019e-001	0.000000e+000	0.000000e+000	0.000000e+000	0.000000e+000
6001120112.011	0.000000e+000	0.000000e+000	1.133034e-001	-1.713757e-001	0.000000e+000	0.000000e+000	0.000000e+000	0.000000e+000
6001140114.011	0.000000e+000	0.000000e+000	1.118379e-001	-1.721840e-001	0.000000e+000	0.000000e+000	0.000000e+000	0.000000e+000
6001160116.012	0.000000e+000	0.000000e+000	1.105328e-001	-1.731512e-001	0.000000e+000	0.000000e+000	0.000000e+000	0.000000e+000
6001180118.012	0.000000e+000	0.000000e+000	1.090001e-001	-1.741017e-001	0.000000e+000	0.000000e+000	0.000000e+000	0.000000e+000
6001200120.012	0.000000e+000	0.000000e+000	1.075773e-001	-1.748864e-001	0.000000e+000	0.000000e+000	0.000000e+000	0.000000e+000
6001220122.012	0.000000e+000	0.000000e+000	1.061967e-001	-1.758204e-001	0.000000e+000	0.000000e+000	0.000000e+000	0.000000e+000
6001240124.012	0.000000e+000	0.000000e+000	1.048030e-001	-1.768084e-001	0.000000e+000	0.000000e+000	0.000000e+000	0.000000e+000
6001260126.013	0.000000e+000	0.000000e+000	1.032910e-001	-1.776382e-001	0.000000e+000	0.000000e+000	0.000000e+000	0.000000e+000
6001280128.013	0.000000e+000	0.000000e+000	1.019309e-001	-1.783929e-001	0.000000e+000	0.000000e+000	0.000000e+000	0.000000e+000
6001300130.013	0.000000e+000	0.000000e+000	1.004440e-001	-1.792835e-001	0.000000e+000	0.000000e+000	0.000000e+000	0.000000e+000
6001320132.013	0.000000e+000	0.000000e+000	9.896836e-002	-1.801192e-001	0.000000e+000	0.000000e+000	0.000000e+000	0.000000e+000
6001340134.013	0.000000e+000	0.000000e+000	9.752581e-002	-1.809229e-001	0.000000e+000	0.000000e+000	0.000000e+000	0.000000e+000
6001360136.014	0.000000e+000	0.000000e+000	9.596749e-002	-1.817297e-001	0.000000e+000	0.000000e+000	0.000000e+000	0.000000e+000
6001380138.014	0.000000e+000	0.000000e+000	9.453944e-002	-1.825510e-001	0.000000e+000	0.000000e+000	0.000000e+000	0.000000e+000
6001400140.014	0.000000e+000	0.000000e+000	9.308549e-002	-1.832571e-001	0.000000e+000	0.000000e+000	0.000000e+000	0.000000e+000
6001420142.014	0.000000e+000	0.000000e+000	9.157279e-002	-1.841157e-001	0.000000e+000	0.000000e+000	0.000000e+000	0.000000e+000
6001440144.014	0.000000e+000	0.000000e+000	9.005592e-002	-1.848884e-001	0.000000e+000	0.000000e+000	0.000000e+000	0.000000e+000
6001460146.015	0.000000e+000	0.000000e+000	8.855743e-002	-1.855560e-001	0.000000e+000	0.000000e+000	0.000000e+000	0.000000e+000
6001480148.015	0.000000e+000	0.000000e+000	8.707170e-002	-1.862624e-001	0.000000e+000	0.000000e+000	0.000000e+000	0.000000e+000
6001500150.015	0.000000e+000	0.000000e+000	8.552741e-002	-1.870723e-001	0.000000e+000	0.000000e+000	0.000000e+000	0.000000e+000
6001520152.015	0.000000e+000	0.000000e+000	8.402425e-002	-1.877403e-001	0.000000e+000	0.000000e+000	0.000000e+000	0.000000e+000
6001540154.015	0.000000e+000	0.000000e+000	8.240615e-002	-1.884630e-001	0.000000e+000	0.000000e+000	0.000000e+000	0.000000e+000
6001560156.016	0.000000e+000	0.000000e+000	8.088653e-002	-1.890625e-001	0.000000e+000	0.000000e+000	0.000000e+000	0.000000e+000
6001580158.016	0.000000e+000	0.000000e+000	7.934969e-002	-1.897342e-001	0.000000e+000	0.000000e+000	0.000000e+000	0.000000e+000
6001600160.016	0.000000e+000	0.000000e+000	7.780423e-002	-1.904392e-001	0.000000e+000	0.000000e+000	0.000000e+000	0.000000e+000
6001620162.016	0.000000e+000	0.000000e+000	7.620617e-002	-1.911040e-001	0.000000e+000	0.000000e+000	0.000000e+000	0.000000e+000
6001640164.016	0.000000e+000	0.000000e+000	7.459218e-002	-1.917613e-001	0.000000e+000	0.000000e+000	0.000000e+000	0.000000e+000
6001660166.017	0.000000e+000	0.000000e+000	7.316566e-002	-1.923208e-001	0.000000e+000	0.000000e+000	0.000000e+000	0.000000e+000
6001680168.017	0.000000e+000	0.000000e+000	7.147580e-002	-1.928641e-001	0.000000e+000	0.000000e+000	0.000000e+000	0.000000e+000
6001700170.017	0.000000e+000	0.000000e+000	6.998210e-002	-1.935366e-001	0.000000e+000	0.000000e+000	0.000000e+000	0.000000e+000
6001720172.017	0.000000e+000	0.000000e+000	6.843068e-002	-1.940604e-001	0.000000e+000	0.000000e+000	0.000000e+000	0.000000e+000
6001740174.017	0.000000e+000	0.000000e+000	6.680651e-002	-1.946966e-001	0.000000e+000	0.000000e+000	0.000000e+000	0.000000e+000
6001760176.018	0.000000e+000	0.000000e+000	6.522509e-002	-1.952517e-001	0.000000e+000	0.000000e+000	0.000000e+000	0.000000e+000
6001780178.018	0.000000e+000	0.000000e+000	6.365598e-002	-1.957541e-001	0.000000e+000	0.000000e+000	0.000000e+000	0.000000e+000
6001800180.018	0.000000e+000	0.000000e+000	6.199959e-002	-1.963113e-001	0.000000e+000	0.000000e+000	0.000000e+000	0.000000e+000
6001820182.018	0.000000e+000	0.000000e+000	6.043772e-002	-1.968043e-001	0.000000e+000	0.000000e+000	0.000000e+000	0.000000e+000
6001840184.018	0.000000e+000	0.000000e+000	5.882274e-002	-1.973327e-001	0.000000e+000	0.000000e+000	0.000000e+000	0.000000e+000
6001860186.019	0.000000e+000	0.000000e+000	5.723084e-002	-1.977349e-001	0.000000e+000	0.000000e+000	0.000000e+000	0.000000e+000
6001880188.019	0.000000e+000	0.000000e+000	5.550370e-002	-1.982654e-001	0.000000e+000	0.000000e+000	0.000000e+000	0.000000e+000
6001900190.019	0.000000e+000	0.000000e+000	5.393381e-002	-1.987490e-001	0.000000e+000	0.000000e+000	0.000000e+000	0.000000e+000
6001920192.019	0.000000e+000	0.000000e+000	5.231510e-002	-1.990921e-001	0.000000e+000	0.000000e+000	0.000000e+000	0.000000e+000
6001940194.019	0.000000e+000	0.000000e+000	5.074651e-002	-1.996215e-001	0.000000e+000	0.000000e+000	0.000000e+000	0.000000e+000
6001960196.020	0.000000e+000	0.000000e+000	4.898671e-002	-2.000443e-001	0.000000e+000	0.000000e+000	0.000000e+000	0.000000e+000
6001980198.020	0.000000e+000	0.000000e+000	4.742815e-002	-2.003368e-001	0.000000e+000	0.000000e+000	0.000000e+000	0.000000e+000
6002000200.020	0.000000e+000	0.000000e+000	4.574358e-002	-2.007944e-001	0.000000e+000	0.000000e+000	0.000000e+000	0.000000e+000
6002020202.020	0.000000e+000	0.000000e+000	4.414290e-002	-2.012301e-001	0.000000e+000	0.000000e+000	0.000000e+000	0.000000e+000
6002040204.020	0.000000e+000	0.000000e+000	4.242545e-002	-2.016241e-001	0.000000e+000	0.000000e+000	0.000000e+000	0.000000e+000
6002060206.021	0.000000e+000	0.000000e+000	4.083156e-002	-2.019091e-001	0.000000e+000	0.000000e+000	0.000000e+000	0.000000e+000
6002080208.021	0.000000e+000	0.000000e+000	3.917606e-002	-2.022493e-001	0.000000e+000	0.000000e+000	0.000000e+000	0.000000e+000
6002100210.021	0.000000e+000	0.000000e+000	3.750176e-002	-2.025766e-001	0.000000e+000	0.000000e+000	0.000000e+000	0.000000e+000
6002120212.021	0.000000e+000	0.000000e+000	3.584258e-002	-2.028818e-001	0.000000e+000	0.000000e+000	0.000000e+000	0.000000e+000
6002140214.021	0.000000e+000	0.000000e+000	3.423176e-002	-2.031436e-001	0.000000e+000	0.000000e+000	0.000000e+000	0.000000e+000
6002160216.022	0.000000e+000	0.000000e+000	3.253468e-002	-2.034914e-001	0.000000e+000	0.000000e+000	0.000000e+000	0.000000e+000
6002180218.022	0.000000e+000	0.000000e+000	3.095352e-002	-2.037129e-001	0.000000e+000	0.000000e+000	0.000000e+000	0.000000e+000
6002200220.022	0.000000e+000	0.000000e+000	2.921431e-002	-2.040136e-001	0.000000e+000	0.000000e+000	0.000000e+000	0.000000e+000
6002220222.022	0.000000e+000	0.000000e+000	2.749929e-002	-2.042603e-001	0.000000e+000	0.000000e+000	0.000000e+000	0.000000e+000
6002240224.022	0.000000e+000	0.000000e+000	2.587175e-002	-2.045367e-001	0.000000e+000	0.000000e+000	0.000000e+000	0.000000e+000
6002260226.023	0.000000e+000	0.000000e+000	2.415634e-002	-2.047410e-001	0.000000e+000	0.000000e+000	0.000000e+000	0.000000e+000
6002280228.023	0.000000e+000	0.000000e+000	2.247824e-002	-2.049523e-001	0.000000e+000	0.000000e+000	0.000000e+000	0.000000e+000
6002300230.023	0.000000e+000	0.000000e+000	2.081824e-002	-2.050834e-001	0.000000e+000	0.000000e+000	0.000000e+000	0.000000e+000
6002320232.023	0.000000e+000	0.000000e+000	1.915193e-002	-2.053009e-001	0.000000e+000	0.000000e+000	0.000000e+000	0.000000e+000
6002340234.023	0.000000e+000	0.000000e+000	1.746476e-002	-2.053933e-001	0.000000e+000	0.000000e+000	0.000000e+000	0.000000e+000
6002360236.024	0.000000e+000	0.000000e+000	1.580636e-002	-2.055618e-001	0.000000e+000	0.000000e+000	0.000000e+000	0.000000e+000
6002380238.024	0.000000e+000	0.000000e+000	1.416826e-002	-2.056826e-001	0.000000e+000	0.000000e+000	0.000000e+000	0.000000e+000
6002400240.024	0.000000e+000	0.000000e+000	1.235632e-002	-2.057603e-001	0.000000e+000	0.000000e+000	0.000000e+000	0.000000e+000
6002420242.024	0.000000e+000	0.000000e+000	1.071721e-002	-2.058639e-001	0.000000e+000	0.000000e+000	0.000000e+000	0.000000e+000
6002440244.024	0.000000e+000	0.000000e+000	9.078140e-003	-2.059900e-001	0.000000e+000	0.000000e+000	0.000000e+000	0.000000e+000
6002460246.025	0.000000e+000	0.000000e+000	7.374460e-003	-2.060588e-001	0.000000e+000	0.000000e+000	0.000000e+000	0.000000e+000
6002480248.025	0.000000e+000	0.000000e+000	5.742693e-003	-2.061165e-001	0.000000e+000	0.000000e+000	0.000000e+000	0.000000e+000
6002500250.025	0.000000e+000	0.000000e+000	3.991043e-003	-2.062020e-001	0.000000e+000	0.000000e+000	0.000000e+000	0.000000e+000
6002520252.025	0.000000e+000	0.000000e+000	2.260844e-003	-2.062816e-001	0.000000e+000	0.000000e+000	0.000000e+000	0.000000e+000
6002540254.025	0.000000e+000	0.000000e+000	6.637707e-004	-2.063031e-001	0.000000e+000	0.000000e+000	0.000000e+000	0.000000e+000
6002560256.026	0.000000e+000	0.000000e+000	-1.133808e-003	-2.062550e-001	0.000000e+000	0.000000e+000	0.000000e+000	0.000000e+000
6002580258.026	0.000000e+000	0.000000e+000	-2.824884e-003	-2.063471e-001	0.000000e+000	0.000000e+000	0.000000e+000	0.000000e+000
6002600260.026	0.000000e+000	0.000000e+000	-4.547816e-003	-2.062600e-001	0.000000e+000	0.000000e+000	0.000000e+000	0.000000e+000
6002620262.026	0.000000e+000	0.000000e+000	-6.157653e-003	-2.062340e-001	0.000000e+000	0.000000e+000	0.000000e+000	0.000000e+000
6002640264.026	0.000000e+000	0.000000e+000	-7.880956e-003	-2.061606e-001	0.000000e+000	0.000000e+000	0.000000e+000	0.000000e+000
6002660266.027	0.000000e+000	0.000000e+000	-9.594249e-003	-2.061903e-001	0.000000e+000	0.000000e+000	0.000000e+000	0.000000e+000
6002680268.027	0.000000e+000	0.000000e+000	-1.124335e-002	-2.060897e-001	0.000000e+000	0.000000e+000	0.000000e+000	0.000000e+000
6002700270.027	0.000000e+000	0.000000e+000	-1.290554e-002	-2.059897e-001	0.000000e+000	0.000000e+000	0.000000e+000	0.000000e+000
6002720272.027	0.000000e+000	0.000000e+000	-1.468353e-002	-2.059259e-001	0.000000e+000	0.000000e+000	0.000000e+000	0.000000e+000
6002740274.027	0.000000e+000	0.000000e+000	-1.639750e-002	-2.058364e-001	0.000000e+000	0.000000e+000	0.000000e+000	0.000000e+000
6002760276.028	0.000000e+000	0.000000e+000	-1.799506e-002	-2.055398e-001	0.000000e+000	0.000000e+000	0.000000e+000	0.000000e+000
6002780278.028	0.000000e+000	0.000000e+000	-1.973759e-002	-2.055444e-001	0.000000e+000	0.000000e+000	0.000000e+000	0.000000e+000
6002800280.028	0.000000e+000	0.000000e+000	-2.142924e-002	-2.053461e-001	0.000000e+000	0.000000e+000	0.000000e+000	0.000000e+000
6002820282.028	0.000000e+000	0.000000e+000	-2.306766e-002	-2.051556e-001	0.000000e+000	0.000000e+000	0.000000e+000	0.000000e+000
6002840284.028	0.000000e+000	0.000000e+000	-2.473852e-002	-2.050416e-001	0.000000e+000	0.000000e+000	0.000000e+000	0.000000e+000
6002860286.029	0.000000e+000	0.000000e+000	-2.639311e-002	-2.047887e-001	0.000000e+000	0.000000e+000	0.000000e+000	0.000000e+000
6002880288.029	0.000000e+000	0.000000e+000	-2.817481e-002	-2.046444e-001	0.000000e+000	0.000000e+000	0.000000e+000	0.000000e+000
6002900290.029	0.000000e+000	0.000000e+000	-2.986521e-002	-2.043080e-001	0.000000e+000	0.000000e+000	0.000000e+000	0.000000e+000
6002920292.029	0.000000e+000	0.000000e+000	-3.146629e-002	-2.040920e-001	0.000000e+000	0.000000e+000	0.000000e+000	0.000000e+000
6002940294.029	0.000000e+000	0.000000e+000	-3.322153e-002	-2.038676e-001	0.000000e+000	0.000000e+000	0.000000e+000	0.000000e+000
6002960296.030	0.000000e+000	0.000000e+000	-3.485426e-002	-2.035413e-001	0.000000e+000	0.000000e+000	0.000000e+000	0.000000e+000
6002980298.030	0.000000e+000	0.000000e+000	-3.649253e-002	-2.032944e-001	0.000000e+000	0.000000e+000	0.000000e+000	0.000000e+000
6003000300.030	0.000000e+000	0.000000e+000	-3.817845e-002	-2.029642e-001	0.000000e+000	0.000000e+000	0.000000e+000	0.000000e+000
6003020302.030	0.000000e+000	0.000000e+000	-3.984440e-002	-2.027114e-001	0.000000e+000	0.000000e+000	0.000000e+000	0.000000e+000
6003040304.030	0.000000e+000	0.000000e+000	-4.156563e-002	-2.023376e-001	0.000000e+000	0.000000e+000	0.000000e+000	0.000000e+000
