"# Channel 1"
"# Trace 1"
Frequency, Formatted Data, Formatted Data
+5.40000000000E+009, +1.36192838693E-001, +2.05698375358E-001
+5.40002000200E+009, +1.38686028592E-001, +2.04229082986E-001
+5.40004000400E+009, +1.41037006821E-001, +2.02649321717E-001
+5.40006000600E+009, +1.43270284838E-001, +2.01096233726E-001
+5.40008000800E+009, +1.45561970102E-001, +1.99698922821E-001
+5.40010001000E+009, +1.47718523800E-001, +1.98123689444E-001
+5.40012001200E+009, +1.49874022478E-001, +1.96561387350E-001
+5.40014001400E+009, +1.51925668558E-001, +1.94942253475E-001
+5.40016001600E+009, +1.53901344876E-001, +1.93396861149E-001
+5.40018001800E+009, +1.55842900959E-001, +1.91827607177E-001
+5.40020002000E+009, +1.57871996756E-001, +1.90234833737E-001
+5.40022002200E+009, +1.59856693862E-001, +1.88724340630E-001
+5.40024002400E+009, +1.61734936204E-001, +1.87128015609E-001
+5.40026002600E+009, +1.63665894848E-001, +1.85450026276E-001
+5.40028002800E+009, +1.65356336465E-001, +1.83829928456E-001
+5.40030003000E+009, +1.67188409624E-001, +1.82194714249E-001
+5.40032003200E+009, +1.68954764340E-001, +1.80511288895E-001
+5.40034003400E+009, +1.70642000571E-001, +1.78863334994E-001
+5.40036003600E+009, +1.72398701042E-001, +1.77241995065E-001
+5.40038003800E+009, +1.74056174966E-001, +1.75513736246E-001
+5.40040004000E+009, +1.75715767580E-001, +1.73764882397E-001
+5.40042004200E+009, +1.77274921554E-001, +1.72141418108E-001
+5.40044004400E+009, +1.78854193076E-001, +1.70347656088E-001
+5.40046004600E+009, +1.80536873090E-001, +1.68696915611E-001
+5.40048004800E+009, +1.82002005453E-001, +1.66951236650E-001
+5.40050005001E+009, +1.83530046362E-001, +1.65196113444E-001
+5.40052005201E+009, +1.85100286873E-001, +1.63338214068E-001
+5.40054005401E+009, +1.86428924802E-001, +1.61603701628E-001
+5.40056005601E+009, +1.87940276400E-001, +1.59839440299E-001
+5.40058005801E+009, +1.89314282794E-001, +1.58054785423E-001
+5.40060006001E+009, +1.90768087674E-001, +1.56180128831E-001
+5.40062006201E+009, +1.92070159288E-001, +1.54340697517E-001
+5.40064006401E+009, +1.93354255375E-001, +1.52475162361E-001
+5.40066006601E+009, +1.94746558105E-001, +1.50713800467E-001
+5.40068006801E+009, +1.95918946375E-001, +1.48821788591E-001
+5.40070007001E+009, +1.97183036257E-001, +1.46922513577E-001
+5.40072007201E+009, +1.98534979548E-001, +1.45018561680E-001
+5.40074007401E+009, +1.99594093428E-001, +1.43044058089E-001
+5.40076007601E+009, +2.00794138635E-001, +1.41182692279E-001
+5.40078007801E+009, +2.01978494229E-001, +1.39255170532E-001
+5.40080008001E+009, +2.02922658967E-001, +1.37360894749E-001
+5.40082008201E+009, +2.04069345747E-001, +1.35430909764E-001
+5.40084008401E+009, +2.05126458262E-001, +1.33490636555E-001
+5.40086008601E+009, +2.06150779145E-001, +1.31508803905E-001
+5.40088008801E+009, +2.06979263577E-001, +1.29640598469E-001
+5.40090009001E+009, +2.07948663345E-001, +1.27668881020E-001
+5.40092009201E+009, +2.08872104220E-001, +1.25736407309E-001
+5.40094009401E+009, +2.09707657610E-001, +1.23695327473E-001
+5.40096009601E+009, +2.10486414915E-001, +1.21758655947E-001
+5.40098009801E+009, +2.11303751775E-001, +1.19761137933E-001
+5.40100010001E+009, +2.12103225355E-001, +1.17949236067E-001
+5.40102010201E+009, +2.12735025493E-001, +1.15897488729E-001
+5.40104010401E+009, +2.13412507000E-001, +1.14047556524E-001
+5.40106010601E+009, +2.14023596327E-001, +1.12177216804E-001
+5.40108010801E+009, +2.14476826429E-001, +1.10223932066E-001
+5.40110011001E+009, +2.14999762396E-001, +1.08433742865E-001
+5.40112011201E+009, +2.15562387306E-001, +1.06702297733E-001
+5.40114011401E+009, +2.15933060584E-001, +1.04722806841E-001
+5.40116011601E+009, +2.16427956195E-001, +1.03003524696E-001
+5.40118011801E+009, +2.16772603359E-001, +1.01278939405E-001
+5.40120012001E+009, +2.17191988986E-001, +9.96227203550E-002
+5.40122012201E+009, +2.17566947991E-001, +9.79626837128E-002
+5.40124012401E+009, +2.17847618100E-001, +9.63687344299E-002
+5.40126012601E+009, +2.18150797123E-001, +9.48822203583E-002
+5.40128012801E+009, +2.18599410463E-001, +9.34291970169E-002
+5.40130013001E+009, +2.18962062182E-001, +9.20020490265E-002
+5.40132013201E+009, +2.19318935432E-001, +9.06000716246E-002
+5.40134013401E+009, +2.19682008402E-001, +8.93657524313E-002
+5.40136013601E+009, +2.20093089089E-001, +8.81789402965E-002
+5.40138013801E+009, +2.20687624893E-001, +8.68427117390E-002
+5.40140014001E+009, +2.21100201617E-001, +8.56994757260E-002
+5.40142014201E+009, +2.21745214849E-001, +8.44640799088E-002
+5.40144014401E+009, +2.22482265093E-001, +8.34734031630E-002
+5.40146014601E+009, +2.23155836454E-001, +8.22196265313E-002
+5.40148014801E+009, +2.23918386737E-001, +8.10518101095E-002
+5.40150015002E+009, +2.24849616692E-001, +7.97586695886E-002
+5.40152015202E+009, +2.25704512104E-001, +7.86346052831E-002
+5.40154015402E+009, +2.26777463203E-001, +7.73598634232E-002
+5.40156015602E+009, +2.27743240872E-001, +7.59921148376E-002
+5.40158015802E+009, +2.28795916883E-001, +7.45944550128E-002
+5.40160016002E+009, +2.29896197547E-001, +7.32164369806E-002
+5.40162016202E+009, +2.31108078143E-001, +7.16933834069E-002
+5.40164016402E+009, +2.32205589323E-001, +7.01096502751E-002
+5.40166016602E+009, +2.33234274652E-001, +6.84211451322E-002
+5.40168016802E+009, +2.34365239101E-001, +6.67654897339E-002
+5.40170017002E+009, +2.35512638713E-001, +6.48981222344E-002
+5.40172017202E+009, +2.36546493849E-001, +6.31660460280E-002
+5.40174017402E+009, +2.37615284183E-001, +6.12328150427E-002
+5.40176017602E+009, +2.38713382261E-001, +5.93183388043E-002
+5.40178017802E+009, +2.39690836473E-001, +5.73542986271E-002
+5.40180018002E+009, +2.40641783501E-001, +5.54479057824E-002
+5.40182018202E+009, +2.41556257592E-001, +5.33061395840E-002
+5.40184018402E+009, +2.42608883452E-001, +5.11784771836E-002
+5.40186018602E+009, +2.43382962115E-001, +4.90067352308E-002
+5.40188018802E+009, +2.44175440700E-001, +4.69238218363E-002
+5.40190019002E+009, +2.45001425472E-001, +4.46885673912E-002
+5.40192019202E+009, +2.45632384353E-001, +4.24830330496E-002
+5.40194019402E+009, +2.46427117956E-001, +4.02614977753E-002
+5.40196019602E+009, +2.47119572853E-001, +3.80211657628E-002
+5.40198019802E+009, +2.47679732417E-001, +3.57446764254E-002
+5.40200020002E+009, +2.48299768430E-001, +3.34935439422E-002
+5.40202020202E+009, +2.48908710253E-001, +3.12440472462E-002
+5.40204020402E+009, +2.49301845263E-001, +2.89739413885E-002
+5.40206020602E+009, +2.49697319334E-001, +2.65755654695E-002
+5.40208020802E+009, +2.50254983205E-001, +2.43081588525E-002
+5.40210021002E+009, +2.50617503277E-001, +2.19060392687E-002
+5.40212021202E+009, +2.51046436371E-001, +1.96811974356E-002
+5.40214021402E+009, +2.51364249758E-001, +1.72738580061E-002
+5.40216021602E+009, +2.51748108688E-001, +1.49603375179E-002
+5.40218021802E+009, +2.51874490283E-001, +1.26648865056E-002
+5.40220022002E+009, +2.52259071192E-001, +1.03278818279E-002
+5.40222022202E+009, +2.52393526722E-001, +7.86302438088E-003
+5.40224022402E+009, +2.52557945516E-001, +5.49524956682E-003
+5.40226022602E+009, +2.52744076638E-001, +3.15549970251E-003
+5.40228022802E+009, +2.52766013256E-001, +7.21622914160E-004
+5.40230023002E+009, +2.52961195346E-001, -1.61880649038E-003
+5.40232023202E+009, +2.53050818018E-001, -4.01494599348E-003
+5.40234023402E+009, +2.53119741863E-001, -6.44071289569E-003
+5.40236023602E+009, +2.53084295549E-001, -8.78343453393E-003
+5.40238023802E+009, +2.53074226022E-001, -1.11803919035E-002
+5.40240024002E+009, +2.52939629762E-001, -1.35274071885E-002
+5.40242024202E+009, +2.52886761914E-001, -1.59079426414E-002
+5.40244024402E+009, +2.52849712218E-001, -1.83187033062E-002
+5.40246024602E+009, +2.52613288946E-001, -2.07152591611E-002
+5.40248024802E+009, +2.52433336337E-001, -2.31987931146E-002
+5.40250025003E+009, +2.52290269318E-001, -2.55816688696E-002
+5.40252025203E+009, +2.52079474177E-001, -2.78948470614E-002
+5.40254025403E+009, +2.51796877595E-001, -3.02754441938E-002
+5.40256025603E+009, +2.51517007419E-001, -3.27692620386E-002
+5.40258025803E+009, +2.51133791228E-001, -3.51382935221E-002
+5.40260026003E+009, +2.50735262338E-001, -3.76144766017E-002
+5.40262026203E+009, +2.50472626792E-001, -4.00031032022E-002
+5.40264026403E+009, +2.49846651028E-001, -4.23744418641E-002
+5.40266026603E+009, +2.49440995356E-001, -4.48571856313E-002
+5.40268026803E+009, +2.48999514741E-001, -4.73196743759E-002
+5.40270027003E+009, +2.48365645982E-001, -4.97212925436E-002
+5.40272027203E+009, +2.47804706969E-001, -5.20738306349E-002
+5.40274027403E+009, +2.47293705126E-001, -5.45740630684E-002
+5.40276027603E+009, +2.46690210548E-001, -5.70554324341E-002
+5.40278027803E+009, +2.45914107318E-001, -5.95644296283E-002
+5.40280028003E+009, +2.45203968727E-001, -6.19534018188E-002
+5.40282028203E+009, +2.44451788798E-001, -6.43890559583E-002
+5.40284028403E+009, +2.43581417435E-001, -6.69404678768E-002
+5.40286028603E+009, +2.42742186713E-001, -6.94923128958E-002
+5.40288028803E+009, +2.41815400543E-001, -7.19861822368E-002
+5.40290029003E+009, +2.40693530721E-001, -7.44120394446E-002
+5.40292029203E+009, +2.39661755796E-001, -7.69903765162E-002
+5.40294029403E+009, +2.38572275013E-001, -7.96032727964E-002
+5.40296029603E+009, +2.37383134555E-001, -8.22175191175E-002
+5.40298029803E+009, +2.36018921900E-001, -8.47870140235E-002
+5.40300030003E+009, +2.34581443212E-001, -8.74444640171E-002
+5.40302030203E+009, +2.33079456079E-001, -9.01653273110E-002
+5.40304030403E+009, +2.31502750172E-001, -9.28662054965E-002
+5.40306030603E+009, +2.29579573039E-001, -9.55760822794E-002
+5.40308030803E+009, +2.27505115288E-001, -9.84904118850E-002
+5.40310031003E+009, +2.25327508239E-001, -1.01339253081E-001
+5.40312031203E+009, +2.22737694990E-001, -1.04239450183E-001
+5.40314031403E+009, +2.19998856071E-001, -1.07256731288E-001
+5.40316031603E+009, +2.16732379870E-001, -1.10226138787E-001
+5.40318031803E+009, +2.12899931334E-001, -1.13320864443E-001
+5.40320032003E+009, +2.08114303250E-001, -1.16468517643E-001
+5.40322032203E+009, +2.02209979845E-001, -1.19470719836E-001
+5.40324032403E+009, +1.94665614583E-001, -1.22018701763E-001
+5.40326032603E+009, +1.83610668883E-001, -1.23448472997E-001
+5.40328032803E+009, +1.66814055560E-001, -1.20316096244E-001
+5.40330033003E+009, +1.42579879044E-001, -1.00538238610E-001
+5.40332033203E+009, +1.35689101690E-001, -5.47917887262E-002
+5.40334033403E+009, +1.58887373286E-001, -2.15255475752E-002
+5.40336033603E+009, +1.88019064783E-001, -1.06788832144E-002
+5.40338033803E+009, +2.12728246234E-001, -1.40061537687E-002
+5.40340034003E+009, +2.30521978475E-001, -2.41549364513E-002
+5.40342034203E+009, +2.41821088098E-001, -3.69603517388E-002
+5.40344034403E+009, +2.48128674523E-001, -4.98616260878E-002
+5.40346034603E+009, +2.51027268507E-001, -6.19315574742E-002
+5.40348034803E+009, +2.51615736970E-001, -7.27720683422E-002
+5.40350035004E+009, +2.50952198889E-001, -8.19907731847E-002
+5.40352035204E+009, +2.49416115884E-001, -9.02450290621E-002
+5.40354035404E+009, +2.47440886486E-001, -9.74056535887E-002
+5.40356035604E+009, +2.45185540641E-001, -1.03415412169E-001
+5.40358035804E+009, +2.43004038483E-001, -1.08573644249E-001
+5.40360036004E+009, +2.40779055243E-001, -1.13535591869E-001
+5.40362036204E+009, +2.38680444424E-001, -1.17778089612E-001
+5.40364036404E+009, +2.36445678858E-001, -1.21647010567E-001
+5.40366036604E+009, +2.34363859165E-001, -1.25473834941E-001
+5.40368036804E+009, +2.32331572050E-001, -1.28905105023E-001
+5.40370037004E+009, +2.30325745185E-001, -1.32074783042E-001
+5.40372037204E+009, +2.28469937865E-001, -1.35067465200E-001
+5.40374037404E+009, +2.26498314891E-001, -1.38051213756E-001
+5.40376037604E+009, +2.24509516214E-001, -1.40755986482E-001
+5.40378037804E+009, +2.22706271782E-001, -1.43470438512E-001
+5.40380038004E+009, +2.20829310274E-001, -1.46191483726E-001
+5.40382038204E+009, +2.19020620159E-001, -1.48582865528E-001
+5.40384038404E+009, +2.17158667511E-001, -1.50954925834E-001
+5.40386038604E+009, +2.15338411648E-001, -1.53473845944E-001
+5.40388038804E+009, +2.13552926438E-001, -1.55898896390E-001
+5.40390039004E+009, +2.11761917143E-001, -1.58056807133E-001
+5.40392039204E+009, +2.09807455617E-001, -1.60426569561E-001
+5.40394039404E+009, +2.08084307129E-001, -1.62653954379E-001
+5.40396039604E+009, +2.06273041350E-001, -1.64793135715E-001
+5.40398039804E+009, +2.04406899198E-001, -1.66929913926E-001
+5.40400040004E+009, +2.02605362706E-001, -1.69048580209E-001
+5.40402040204E+009, +2.00777253534E-001, -1.71089742726E-001
+5.40404040404E+009, +1.98863280023E-001, -1.73124383506E-001
+5.40406040604E+009, +1.97025709359E-001, -1.75226425977E-001
+5.40408040804E+009, +1.95154907798E-001, -1.77146442666E-001
+5.40410041004E+009, +1.93200031684E-001, -1.79044635086E-001
+5.40412041204E+009, +1.91268459945E-001, -1.81087097878E-001
+5.40414041404E+009, +1.89399732516E-001, -1.83084158489E-001
+5.40416041604E+009, +1.87321515489E-001, -1.84997305689E-001
+5.40418041804E+009, +1.85471331867E-001, -1.86914302100E-001
+5.40420042004E+009, +1.83387016906E-001, -1.88804020573E-001
+5.40422042204E+009, +1.81406129208E-001, -1.90555569009E-001
+5.40424042404E+009, +1.79318525561E-001, -1.92325988290E-001
+5.40426042604E+009, +1.77193266349E-001, -1.94252584116E-001
+5.40428042804E+009, +1.75113394533E-001, -1.96143583251E-001
+5.40430043004E+009, +1.72992948778E-001, -1.97766375036E-001
+5.40432043204E+009, +1.70703126987E-001, -1.99677069080E-001
+5.40434043404E+009, +1.68467486882E-001, -2.01422747710E-001
+5.40436043604E+009, +1.66268895384E-001, -2.03093653077E-001
+5.40438043804E+009, +1.63910320110E-001, -2.04889686472E-001
+5.40440044004E+009, +1.61613285999E-001, -2.06493926300E-001
+5.40442044204E+009, +1.59166686626E-001, -2.08209907864E-001
+5.40444044404E+009, +1.56721499500E-001, -2.09853618560E-001
+5.40446044604E+009, +1.54163203301E-001, -2.11568344374E-001
+5.40448044804E+009, +1.51592521583E-001, -2.13239277492E-001
+5.40450045005E+009, +1.48783163730E-001, -2.14892820935E-001
+5.40452045205E+009, +1.45964701053E-001, -2.16505447033E-001
+5.40454045405E+009, +1.43206941186E-001, -2.18071098457E-001
+5.40456045605E+009, +1.40156679458E-001, -2.19645936516E-001
+5.40458045805E+009, +1.36990007678E-001, -2.21159423249E-001
+5.40460046005E+009, +1.33742021605E-001, -2.22693584593E-001
+5.40462046205E+009, +1.30139828645E-001, -2.24096859856E-001
+5.40464046405E+009, +1.26478462682E-001, -2.25605531461E-001
+5.40466046605E+009, +1.22452132126E-001, -2.26922210583E-001
+5.40468046805E+009, +1.18060420615E-001, -2.28086159237E-001
+5.40470047005E+009, +1.13200388720E-001, -2.29248343581E-001
+5.40472047205E+009, +1.07789124438E-001, -2.30213636125E-001
+5.40474047405E+009, +1.01807474843E-001, -2.30615729539E-001
+5.40476047605E+009, +9.44746449198E-002, -2.30592822531E-001
+5.40478047805E+009, +8.54693186427E-002, -2.29101779629E-001
+5.40480048005E+009, +7.42206050163E-002, -2.24801658242E-001
+5.40482048205E+009, +6.00709879885E-002, -2.14178480906E-001
+5.40484048405E+009, +4.74518902851E-002, -1.88098205938E-001
+5.40486048605E+009, +5.51910613590E-002, -1.49199854659E-001
+5.40488048805E+009, +8.33749626459E-002, -1.25796087769E-001
+5.40490049005E+009, +1.12745934912E-001, -1.22986286432E-001
+5.40492049205E+009, +1.34526493250E-001, -1.31784143837E-001
+5.40494049405E+009, +1.48359181909E-001, -1.45521692173E-001
+5.40496049605E+009, +1.55520928730E-001, -1.60489806277E-001
+5.40498049805E+009, +1.57718450443E-001, -1.74379772991E-001
+5.40500050005E+009, +1.56684466688E-001, -1.86072069416E-001
+5.40502050205E+009, +1.53671395415E-001, -1.96411294945E-001
+5.40504050405E+009, +1.49818721948E-001, -2.04768616845E-001
+5.40506050605E+009, +1.45455724553E-001, -2.11630709298E-001
+5.40508050805E+009, +1.40886106251E-001, -2.17220790841E-001
+5.40510051005E+009, +1.36395017798E-001, -2.22099848900E-001
+5.40512051205E+009, +1.32002273149E-001, -2.26172520825E-001
+5.40514051405E+009, +1.27712988454E-001, -2.29495412739E-001
+5.40516051605E+009, +1.23686695849E-001, -2.32477623877E-001
+5.40518051805E+009, +1.19691420061E-001, -2.35190952057E-001
+5.40520052005E+009, +1.16047425600E-001, -2.37390923642E-001
+5.40522052205E+009, +1.12448030406E-001, -2.39443602782E-001
+5.40524052405E+009, +1.08897670892E-001, -2.41445987060E-001
+5.40526052605E+009, +1.05597490404E-001, -2.43034777697E-001
+5.40528052805E+009, +1.02249122007E-001, -2.44559115402E-001
+5.40530053005E+009, +9.90273420026E-002, -2.46089353227E-001
+5.40532053205E+009, +9.58648643474E-002, -2.47451473317E-001
+5.40534053405E+009, +9.28227074364E-002, -2.48664496201E-001
+5.40536053605E+009, +8.97116412277E-002, -2.49952505639E-001
+5.40538053805E+009, +8.67016916667E-002, -2.51053044021E-001
+5.40540054005E+009, +8.36623560283E-002, -2.52083368510E-001
+5.40542054205E+009, +8.07849558895E-002, -2.53109188816E-001
+5.40544054405E+009, +7.77162170170E-002, -2.54044561904E-001
+5.40546054605E+009, +7.48930530439E-002, -2.54832096446E-001
+5.40548054805E+009, +7.19654449912E-002, -2.55819538603E-001
+5.40550055006E+009, +6.90896267910E-002, -2.56671159363E-001
+5.40552055206E+009, +6.62488626447E-002, -2.57443577098E-001
+5.40554055406E+009, +6.32923258841E-002, -2.58112986915E-001
+5.40556055606E+009, +6.04213653477E-002, -2.58830419517E-001
+5.40558055806E+009, +5.74648964368E-002, -2.59520709131E-001
+5.40560056006E+009, +5.46280667221E-002, -2.59977157007E-001
+5.40562056206E+009, +5.18192005480E-002, -2.60583147963E-001
+5.40564056406E+009, +4.87682936806E-002, -2.61197749914E-001
+5.40566056606E+009, +4.59947888849E-002, -2.61591468418E-001
+5.40568056806E+009, +4.30557964975E-002, -2.62101346910E-001
+5.40570057006E+009, +4.00974268101E-002, -2.62537730961E-001
+5.40572057206E+009, +3.72661801575E-002, -2.62866622336E-001
+5.40574057406E+009, +3.42531927459E-002, -2.63249468511E-001
+5.40576057606E+009, +3.12448244193E-002, -2.63605980258E-001
+5.40578057806E+009, +2.82978329222E-002, -2.63757593502E-001
+5.40580058006E+009, +2.52703845649E-002, -2.64040300023E-001
+5.40582058206E+009, +2.22092391444E-002, -2.64194529100E-001
+5.40584058406E+009, +1.91531253844E-002, -2.64353867791E-001
+5.40586058606E+009, +1.60936798127E-002, -2.64352176091E-001
+5.40588058806E+009, +1.29218748556E-002, -2.64479153786E-001
+5.40590059006E+009, +9.75469724720E-003, -2.64419769561E-001
+5.40592059206E+009, +6.64761662578E-003, -2.64355765686E-001
+5.40594059406E+009, +3.34060498493E-003, -2.64208836839E-001
+5.40596059606E+009, +2.40445519115E-005, -2.64006350242E-001
+5.40598059806E+009, -3.29974169235E-003, -2.63715521515E-001
+5.40600060006E+009, -6.71213947879E-003, -2.63362743690E-001
+5.40602060206E+009, -1.02595997230E-002, -2.62900861410E-001
+5.40604060406E+009, -1.38668917925E-002, -2.62490092700E-001
+5.40606060606E+009, -1.75055992809E-002, -2.61826914709E-001
+5.40608060806E+009, -2.13323819753E-002, -2.61072228608E-001
+5.40610061006E+009, -2.53080722816E-002, -2.60265488408E-001
+5.40612061206E+009, -2.92772466874E-002, -2.59034250476E-001
+5.40614061406E+009, -3.35755705594E-002, -2.57928226697E-001
+5.40616061606E+009, -3.79546827735E-002, -2.56382095005E-001
+5.40618061806E+009, -4.24091900696E-002, -2.54504745057E-001
+5.40620062006E+009, -4.72660741128E-002, -2.52394972706E-001
+5.40622062206E+009, -5.23810656063E-002, -2.49813497490E-001
+5.40624062406E+009, -5.76842223483E-002, -2.46442032515E-001
+5.40626062606E+009, -6.34848644695E-002, -2.42240776581E-001
+5.40628062806E+009, -6.96427780324E-002, -2.36602384239E-001
+5.40630063006E+009, -7.61987471156E-002, -2.28761604279E-001
