!Keysight Technologies,E5063A,MY54502693,A.05.04
!Date: Sat Feb 27 20:06:29 2021
!Data & Calibration Information:
!Freq	S11:NONE(--)	S21:NONE(--)	S12:NONE(--)	S22:NONE(--)
# Hz S RI R 50
4400000000.000	0.000000e+000	0.000000e+000	1.328535e-001	-4.294963e-001	0.000000e+000	0.000000e+000	0.000000e+000	0.000000e+000
4400020002.000	0.000000e+000	0.000000e+000	1.281375e-001	-4.310570e-001	0.000000e+000	0.000000e+000	0.000000e+000	0.000000e+000
4400040004.000	0.000000e+000	0.000000e+000	1.234440e-001	-4.324570e-001	0.000000e+000	0.000000e+000	0.000000e+000	0.000000e+000
4400060006.001	0.000000e+000	0.000000e+000	1.187833e-001	-4.338747e-001	0.000000e+000	0.000000e+000	0.000000e+000	0.000000e+000
4400080008.001	0.000000e+000	0.000000e+000	1.139909e-001	-4.352337e-001	0.000000e+000	0.000000e+000	0.000000e+000	0.000000e+000
4400100010.001	0.000000e+000	0.000000e+000	1.092336e-001	-4.364980e-001	0.000000e+000	0.000000e+000	0.000000e+000	0.000000e+000
4400120012.001	0.000000e+000	0.000000e+000	1.044128e-001	-4.375725e-001	0.000000e+000	0.000000e+000	0.000000e+000	0.000000e+000
4400140014.001	0.000000e+000	0.000000e+000	9.949437e-002	-4.387110e-001	0.000000e+000	0.000000e+000	0.000000e+000	0.000000e+000
4400160016.002	0.000000e+000	0.000000e+000	9.466767e-002	-4.398108e-001	0.000000e+000	0.000000e+000	0.000000e+000	0.000000e+000
4400180018.002	0.000000e+000	0.000000e+000	8.976602e-002	-4.408785e-001	0.000000e+000	0.000000e+000	0.000000e+000	0.000000e+000
4400200020.002	0.000000e+000	0.000000e+000	8.472785e-002	-4.417847e-001	0.000000e+000	0.000000e+000	0.000000e+000	0.000000e+000
4400220022.002	0.000000e+000	0.000000e+000	7.969617e-002	-4.426856e-001	0.000000e+000	0.000000e+000	0.000000e+000	0.000000e+000
4400240024.002	0.000000e+000	0.000000e+000	7.451534e-002	-4.435186e-001	0.000000e+000	0.000000e+000	0.000000e+000	0.000000e+000
4400260026.003	0.000000e+000	0.000000e+000	6.934904e-002	-4.442918e-001	0.000000e+000	0.000000e+000	0.000000e+000	0.000000e+000
4400280028.003	0.000000e+000	0.000000e+000	6.405263e-002	-4.449961e-001	0.000000e+000	0.000000e+000	0.000000e+000	0.000000e+000
4400300030.003	0.000000e+000	0.000000e+000	5.874219e-002	-4.456704e-001	0.000000e+000	0.000000e+000	0.000000e+000	0.000000e+000
4400320032.003	0.000000e+000	0.000000e+000	5.334937e-002	-4.461395e-001	0.000000e+000	0.000000e+000	0.000000e+000	0.000000e+000
4400340034.003	0.000000e+000	0.000000e+000	4.789379e-002	-4.468014e-001	0.000000e+000	0.000000e+000	0.000000e+000	0.000000e+000
4400360036.004	0.000000e+000	0.000000e+000	4.226832e-002	-4.471085e-001	0.000000e+000	0.000000e+000	0.000000e+000	0.000000e+000
4400380038.004	0.000000e+000	0.000000e+000	3.668518e-002	-4.473393e-001	0.000000e+000	0.000000e+000	0.000000e+000	0.000000e+000
4400400040.004	0.000000e+000	0.000000e+000	3.076958e-002	-4.475490e-001	0.000000e+000	0.000000e+000	0.000000e+000	0.000000e+000
4400420042.004	0.000000e+000	0.000000e+000	2.487756e-002	-4.477324e-001	0.000000e+000	0.000000e+000	0.000000e+000	0.000000e+000
4400440044.004	0.000000e+000	0.000000e+000	1.876377e-002	-4.476177e-001	0.000000e+000	0.000000e+000	0.000000e+000	0.000000e+000
4400460046.005	0.000000e+000	0.000000e+000	1.244816e-002	-4.474411e-001	0.000000e+000	0.000000e+000	0.000000e+000	0.000000e+000
4400480048.005	0.000000e+000	0.000000e+000	5.964521e-003	-4.470753e-001	0.000000e+000	0.000000e+000	0.000000e+000	0.000000e+000
4400500050.005	0.000000e+000	0.000000e+000	-5.574227e-004	-4.464834e-001	0.000000e+000	0.000000e+000	0.000000e+000	0.000000e+000
4400520052.005	0.000000e+000	0.000000e+000	-7.425828e-003	-4.457352e-001	0.000000e+000	0.000000e+000	0.000000e+000	0.000000e+000
4400540054.005	0.000000e+000	0.000000e+000	-1.450579e-002	-4.446577e-001	0.000000e+000	0.000000e+000	0.000000e+000	0.000000e+000
4400560056.006	0.000000e+000	0.000000e+000	-2.203570e-002	-4.434189e-001	0.000000e+000	0.000000e+000	0.000000e+000	0.000000e+000
4400580058.006	0.000000e+000	0.000000e+000	-2.965350e-002	-4.414615e-001	0.000000e+000	0.000000e+000	0.000000e+000	0.000000e+000
4400600060.006	0.000000e+000	0.000000e+000	-3.788704e-002	-4.392426e-001	0.000000e+000	0.000000e+000	0.000000e+000	0.000000e+000
4400620062.006	0.000000e+000	0.000000e+000	-4.651568e-002	-4.362957e-001	0.000000e+000	0.000000e+000	0.000000e+000	0.000000e+000
4400640064.006	0.000000e+000	0.000000e+000	-5.561962e-002	-4.325724e-001	0.000000e+000	0.000000e+000	0.000000e+000	0.000000e+000
4400660066.007	0.000000e+000	0.000000e+000	-6.505556e-002	-4.276912e-001	0.000000e+000	0.000000e+000	0.000000e+000	0.000000e+000
4400680068.007	0.000000e+000	0.000000e+000	-7.537446e-002	-4.214799e-001	0.000000e+000	0.000000e+000	0.000000e+000	0.000000e+000
4400700070.007	0.000000e+000	0.000000e+000	-8.564525e-002	-4.130562e-001	0.000000e+000	0.000000e+000	0.000000e+000	0.000000e+000
4400720072.007	0.000000e+000	0.000000e+000	-9.658090e-002	-4.022330e-001	0.000000e+000	0.000000e+000	0.000000e+000	0.000000e+000
4400740074.007	0.000000e+000	0.000000e+000	-1.063793e-001	-3.875426e-001	0.000000e+000	0.000000e+000	0.000000e+000	0.000000e+000
4400760076.008	0.000000e+000	0.000000e+000	-1.152499e-001	-3.682353e-001	0.000000e+000	0.000000e+000	0.000000e+000	0.000000e+000
4400780078.008	0.000000e+000	0.000000e+000	-1.183819e-001	-3.430930e-001	0.000000e+000	0.000000e+000	0.000000e+000	0.000000e+000
4400800080.008	0.000000e+000	0.000000e+000	-1.140114e-001	-3.118276e-001	0.000000e+000	0.000000e+000	0.000000e+000	0.000000e+000
4400820082.008	0.000000e+000	0.000000e+000	-9.322012e-002	-2.819091e-001	0.000000e+000	0.000000e+000	0.000000e+000	0.000000e+000
4400840084.008	0.000000e+000	0.000000e+000	-5.912161e-002	-2.588461e-001	0.000000e+000	0.000000e+000	0.000000e+000	0.000000e+000
4400860086.009	0.000000e+000	0.000000e+000	-1.870408e-002	-2.588834e-001	0.000000e+000	0.000000e+000	0.000000e+000	0.000000e+000
4400880088.009	0.000000e+000	0.000000e+000	1.641086e-002	-2.723485e-001	0.000000e+000	0.000000e+000	0.000000e+000	0.000000e+000
4400900090.009	0.000000e+000	0.000000e+000	3.633585e-002	-2.986252e-001	0.000000e+000	0.000000e+000	0.000000e+000	0.000000e+000
4400920092.009	0.000000e+000	0.000000e+000	4.707183e-002	-3.243759e-001	0.000000e+000	0.000000e+000	0.000000e+000	0.000000e+000
4400940094.009	0.000000e+000	0.000000e+000	4.596600e-002	-3.486950e-001	0.000000e+000	0.000000e+000	0.000000e+000	0.000000e+000
4400960096.010	0.000000e+000	0.000000e+000	4.191805e-002	-3.686694e-001	0.000000e+000	0.000000e+000	0.000000e+000	0.000000e+000
4400980098.010	0.000000e+000	0.000000e+000	3.296164e-002	-3.840455e-001	0.000000e+000	0.000000e+000	0.000000e+000	0.000000e+000
4401000100.010	0.000000e+000	0.000000e+000	2.431882e-002	-3.961851e-001	0.000000e+000	0.000000e+000	0.000000e+000	0.000000e+000
4401020102.010	0.000000e+000	0.000000e+000	1.422598e-002	-4.051355e-001	0.000000e+000	0.000000e+000	0.000000e+000	0.000000e+000
4401040104.010	0.000000e+000	0.000000e+000	4.997226e-003	-4.121548e-001	0.000000e+000	0.000000e+000	0.000000e+000	0.000000e+000
4401060106.011	0.000000e+000	0.000000e+000	-4.398012e-003	-4.173746e-001	0.000000e+000	0.000000e+000	0.000000e+000	0.000000e+000
4401080108.011	0.000000e+000	0.000000e+000	-1.326294e-002	-4.217288e-001	0.000000e+000	0.000000e+000	0.000000e+000	0.000000e+000
4401100110.011	0.000000e+000	0.000000e+000	-2.187734e-002	-4.247661e-001	0.000000e+000	0.000000e+000	0.000000e+000	0.000000e+000
4401120112.011	0.000000e+000	0.000000e+000	-2.997357e-002	-4.272725e-001	0.000000e+000	0.000000e+000	0.000000e+000	0.000000e+000
4401140114.011	0.000000e+000	0.000000e+000	-3.794383e-002	-4.290676e-001	0.000000e+000	0.000000e+000	0.000000e+000	0.000000e+000
4401160116.012	0.000000e+000	0.000000e+000	-4.532843e-002	-4.302870e-001	0.000000e+000	0.000000e+000	0.000000e+000	0.000000e+000
4401180118.012	0.000000e+000	0.000000e+000	-5.271472e-002	-4.311412e-001	0.000000e+000	0.000000e+000	0.000000e+000	0.000000e+000
4401200120.012	0.000000e+000	0.000000e+000	-5.972949e-002	-4.317922e-001	0.000000e+000	0.000000e+000	0.000000e+000	0.000000e+000
4401220122.012	0.000000e+000	0.000000e+000	-6.653424e-002	-4.320142e-001	0.000000e+000	0.000000e+000	0.000000e+000	0.000000e+000
4401240124.012	0.000000e+000	0.000000e+000	-7.318606e-002	-4.319946e-001	0.000000e+000	0.000000e+000	0.000000e+000	0.000000e+000
4401260126.013	0.000000e+000	0.000000e+000	-7.949935e-002	-4.318861e-001	0.000000e+000	0.000000e+000	0.000000e+000	0.000000e+000
4401280128.013	0.000000e+000	0.000000e+000	-8.596658e-002	-4.314905e-001	0.000000e+000	0.000000e+000	0.000000e+000	0.000000e+000
4401300130.013	0.000000e+000	0.000000e+000	-9.204940e-002	-4.310795e-001	0.000000e+000	0.000000e+000	0.000000e+000	0.000000e+000
4401320132.013	0.000000e+000	0.000000e+000	-9.820060e-002	-4.303281e-001	0.000000e+000	0.000000e+000	0.000000e+000	0.000000e+000
4401340134.013	0.000000e+000	0.000000e+000	-1.041549e-001	-4.295983e-001	0.000000e+000	0.000000e+000	0.000000e+000	0.000000e+000
4401360136.014	0.000000e+000	0.000000e+000	-1.101054e-001	-4.284442e-001	0.000000e+000	0.000000e+000	0.000000e+000	0.000000e+000
4401380138.014	0.000000e+000	0.000000e+000	-1.158334e-001	-4.276178e-001	0.000000e+000	0.000000e+000	0.000000e+000	0.000000e+000
4401400140.014	0.000000e+000	0.000000e+000	-1.216450e-001	-4.263958e-001	0.000000e+000	0.000000e+000	0.000000e+000	0.000000e+000
4401420142.014	0.000000e+000	0.000000e+000	-1.272626e-001	-4.250916e-001	0.000000e+000	0.000000e+000	0.000000e+000	0.000000e+000
4401440144.014	0.000000e+000	0.000000e+000	-1.329227e-001	-4.237581e-001	0.000000e+000	0.000000e+000	0.000000e+000	0.000000e+000
4401460146.015	0.000000e+000	0.000000e+000	-1.384667e-001	-4.222743e-001	0.000000e+000	0.000000e+000	0.000000e+000	0.000000e+000
4401480148.015	0.000000e+000	0.000000e+000	-1.439631e-001	-4.206541e-001	0.000000e+000	0.000000e+000	0.000000e+000	0.000000e+000
4401500150.015	0.000000e+000	0.000000e+000	-1.493490e-001	-4.190254e-001	0.000000e+000	0.000000e+000	0.000000e+000	0.000000e+000
4401520152.015	0.000000e+000	0.000000e+000	-1.548650e-001	-4.172347e-001	0.000000e+000	0.000000e+000	0.000000e+000	0.000000e+000
4401540154.015	0.000000e+000	0.000000e+000	-1.603226e-001	-4.154814e-001	0.000000e+000	0.000000e+000	0.000000e+000	0.000000e+000
4401560156.016	0.000000e+000	0.000000e+000	-1.656443e-001	-4.134099e-001	0.000000e+000	0.000000e+000	0.000000e+000	0.000000e+000
4401580158.016	0.000000e+000	0.000000e+000	-1.710430e-001	-4.114332e-001	0.000000e+000	0.000000e+000	0.000000e+000	0.000000e+000
4401600160.016	0.000000e+000	0.000000e+000	-1.764311e-001	-4.093007e-001	0.000000e+000	0.000000e+000	0.000000e+000	0.000000e+000
4401620162.016	0.000000e+000	0.000000e+000	-1.817528e-001	-4.071012e-001	0.000000e+000	0.000000e+000	0.000000e+000	0.000000e+000
4401640164.016	0.000000e+000	0.000000e+000	-1.870941e-001	-4.046175e-001	0.000000e+000	0.000000e+000	0.000000e+000	0.000000e+000
4401660166.017	0.000000e+000	0.000000e+000	-1.924726e-001	-4.023384e-001	0.000000e+000	0.000000e+000	0.000000e+000	0.000000e+000
4401680168.017	0.000000e+000	0.000000e+000	-1.978075e-001	-3.996681e-001	0.000000e+000	0.000000e+000	0.000000e+000	0.000000e+000
4401700170.017	0.000000e+000	0.000000e+000	-2.029644e-001	-3.969669e-001	0.000000e+000	0.000000e+000	0.000000e+000	0.000000e+000
4401720172.017	0.000000e+000	0.000000e+000	-2.083842e-001	-3.941651e-001	0.000000e+000	0.000000e+000	0.000000e+000	0.000000e+000
4401740174.017	0.000000e+000	0.000000e+000	-2.137472e-001	-3.913269e-001	0.000000e+000	0.000000e+000	0.000000e+000	0.000000e+000
4401760176.018	0.000000e+000	0.000000e+000	-2.189605e-001	-3.881761e-001	0.000000e+000	0.000000e+000	0.000000e+000	0.000000e+000
4401780178.018	0.000000e+000	0.000000e+000	-2.244392e-001	-3.851604e-001	0.000000e+000	0.000000e+000	0.000000e+000	0.000000e+000
4401800180.018	0.000000e+000	0.000000e+000	-2.298064e-001	-3.819497e-001	0.000000e+000	0.000000e+000	0.000000e+000	0.000000e+000
4401820182.018	0.000000e+000	0.000000e+000	-2.351605e-001	-3.783874e-001	0.000000e+000	0.000000e+000	0.000000e+000	0.000000e+000
4401840184.018	0.000000e+000	0.000000e+000	-2.405868e-001	-3.748734e-001	0.000000e+000	0.000000e+000	0.000000e+000	0.000000e+000
4401860186.019	0.000000e+000	0.000000e+000	-2.460148e-001	-3.710105e-001	0.000000e+000	0.000000e+000	0.000000e+000	0.000000e+000
4401880188.019	0.000000e+000	0.000000e+000	-2.514796e-001	-3.670928e-001	0.000000e+000	0.000000e+000	0.000000e+000	0.000000e+000
4401900190.019	0.000000e+000	0.000000e+000	-2.570722e-001	-3.629680e-001	0.000000e+000	0.000000e+000	0.000000e+000	0.000000e+000
4401920192.019	0.000000e+000	0.000000e+000	-2.624622e-001	-3.585382e-001	0.000000e+000	0.000000e+000	0.000000e+000	0.000000e+000
4401940194.019	0.000000e+000	0.000000e+000	-2.680699e-001	-3.539856e-001	0.000000e+000	0.000000e+000	0.000000e+000	0.000000e+000
4401960196.020	0.000000e+000	0.000000e+000	-2.736479e-001	-3.490680e-001	0.000000e+000	0.000000e+000	0.000000e+000	0.000000e+000
4401980198.020	0.000000e+000	0.000000e+000	-2.792494e-001	-3.438617e-001	0.000000e+000	0.000000e+000	0.000000e+000	0.000000e+000
4402000200.020	0.000000e+000	0.000000e+000	-2.850283e-001	-3.384439e-001	0.000000e+000	0.000000e+000	0.000000e+000	0.000000e+000
4402020202.020	0.000000e+000	0.000000e+000	-2.905987e-001	-3.325819e-001	0.000000e+000	0.000000e+000	0.000000e+000	0.000000e+000
4402040204.020	0.000000e+000	0.000000e+000	-2.963685e-001	-3.263791e-001	0.000000e+000	0.000000e+000	0.000000e+000	0.000000e+000
4402060206.021	0.000000e+000	0.000000e+000	-3.022989e-001	-3.197317e-001	0.000000e+000	0.000000e+000	0.000000e+000	0.000000e+000
4402080208.021	0.000000e+000	0.000000e+000	-3.081465e-001	-3.125552e-001	0.000000e+000	0.000000e+000	0.000000e+000	0.000000e+000
4402100210.021	0.000000e+000	0.000000e+000	-3.139963e-001	-3.046816e-001	0.000000e+000	0.000000e+000	0.000000e+000	0.000000e+000
4402120212.021	0.000000e+000	0.000000e+000	-3.198664e-001	-2.963542e-001	0.000000e+000	0.000000e+000	0.000000e+000	0.000000e+000
4402140214.021	0.000000e+000	0.000000e+000	-3.258706e-001	-2.871577e-001	0.000000e+000	0.000000e+000	0.000000e+000	0.000000e+000
4402160216.022	0.000000e+000	0.000000e+000	-3.315381e-001	-2.770572e-001	0.000000e+000	0.000000e+000	0.000000e+000	0.000000e+000
4402180218.022	0.000000e+000	0.000000e+000	-3.373256e-001	-2.659718e-001	0.000000e+000	0.000000e+000	0.000000e+000	0.000000e+000
4402200220.022	0.000000e+000	0.000000e+000	-3.428718e-001	-2.535403e-001	0.000000e+000	0.000000e+000	0.000000e+000	0.000000e+000
4402220222.022	0.000000e+000	0.000000e+000	-3.480004e-001	-2.394684e-001	0.000000e+000	0.000000e+000	0.000000e+000	0.000000e+000
4402240224.022	0.000000e+000	0.000000e+000	-3.525675e-001	-2.237435e-001	0.000000e+000	0.000000e+000	0.000000e+000	0.000000e+000
4402260226.023	0.000000e+000	0.000000e+000	-3.563849e-001	-2.059573e-001	0.000000e+000	0.000000e+000	0.000000e+000	0.000000e+000
4402280228.023	0.000000e+000	0.000000e+000	-3.586748e-001	-1.853764e-001	0.000000e+000	0.000000e+000	0.000000e+000	0.000000e+000
4402300230.023	0.000000e+000	0.000000e+000	-3.589068e-001	-1.617456e-001	0.000000e+000	0.000000e+000	0.000000e+000	0.000000e+000
4402320232.023	0.000000e+000	0.000000e+000	-3.557729e-001	-1.345153e-001	0.000000e+000	0.000000e+000	0.000000e+000	0.000000e+000
4402340234.023	0.000000e+000	0.000000e+000	-3.474166e-001	-1.034417e-001	0.000000e+000	0.000000e+000	0.000000e+000	0.000000e+000
4402360236.024	0.000000e+000	0.000000e+000	-3.310126e-001	-6.878561e-002	0.000000e+000	0.000000e+000	0.000000e+000	0.000000e+000
4402380238.024	0.000000e+000	0.000000e+000	-3.027212e-001	-3.204479e-002	0.000000e+000	0.000000e+000	0.000000e+000	0.000000e+000
4402400240.024	0.000000e+000	0.000000e+000	-2.581468e-001	1.880959e-003	0.000000e+000	0.000000e+000	0.000000e+000	0.000000e+000
4402420242.024	0.000000e+000	0.000000e+000	-1.942051e-001	2.348441e-002	0.000000e+000	0.000000e+000	0.000000e+000	0.000000e+000
4402440244.024	0.000000e+000	0.000000e+000	-1.157478e-001	1.898219e-002	0.000000e+000	0.000000e+000	0.000000e+000	0.000000e+000
4402460246.025	0.000000e+000	0.000000e+000	-3.971423e-002	-2.246995e-002	0.000000e+000	0.000000e+000	0.000000e+000	0.000000e+000
4402480248.025	0.000000e+000	0.000000e+000	9.818914e-003	-9.472843e-002	0.000000e+000	0.000000e+000	0.000000e+000	0.000000e+000
4402500250.025	0.000000e+000	0.000000e+000	2.139065e-002	-1.755118e-001	0.000000e+000	0.000000e+000	0.000000e+000	0.000000e+000
4402520252.025	0.000000e+000	0.000000e+000	2.293962e-003	-2.442893e-001	0.000000e+000	0.000000e+000	0.000000e+000	0.000000e+000
4402540254.025	0.000000e+000	0.000000e+000	-3.248769e-002	-2.925274e-001	0.000000e+000	0.000000e+000	0.000000e+000	0.000000e+000
4402560256.026	0.000000e+000	0.000000e+000	-7.133966e-002	-3.234125e-001	0.000000e+000	0.000000e+000	0.000000e+000	0.000000e+000
4402580258.026	0.000000e+000	0.000000e+000	-1.091665e-001	-3.398209e-001	0.000000e+000	0.000000e+000	0.000000e+000	0.000000e+000
4402600260.026	0.000000e+000	0.000000e+000	-1.431428e-001	-3.468839e-001	0.000000e+000	0.000000e+000	0.000000e+000	0.000000e+000
4402620262.026	0.000000e+000	0.000000e+000	-1.731510e-001	-3.477347e-001	0.000000e+000	0.000000e+000	0.000000e+000	0.000000e+000
4402640264.026	0.000000e+000	0.000000e+000	-1.994250e-001	-3.440562e-001	0.000000e+000	0.000000e+000	0.000000e+000	0.000000e+000
4402660266.027	0.000000e+000	0.000000e+000	-2.225986e-001	-3.375920e-001	0.000000e+000	0.000000e+000	0.000000e+000	0.000000e+000
4402680268.027	0.000000e+000	0.000000e+000	-2.426490e-001	-3.288803e-001	0.000000e+000	0.000000e+000	0.000000e+000	0.000000e+000
4402700270.027	0.000000e+000	0.000000e+000	-2.608168e-001	-3.183097e-001	0.000000e+000	0.000000e+000	0.000000e+000	0.000000e+000
4402720272.027	0.000000e+000	0.000000e+000	-2.769680e-001	-3.055880e-001	0.000000e+000	0.000000e+000	0.000000e+000	0.000000e+000
4402740274.027	0.000000e+000	0.000000e+000	-2.910584e-001	-2.911267e-001	0.000000e+000	0.000000e+000	0.000000e+000	0.000000e+000
4402760276.028	0.000000e+000	0.000000e+000	-3.030405e-001	-2.741035e-001	0.000000e+000	0.000000e+000	0.000000e+000	0.000000e+000
4402780278.028	0.000000e+000	0.000000e+000	-3.131812e-001	-2.547255e-001	0.000000e+000	0.000000e+000	0.000000e+000	0.000000e+000
4402800280.028	0.000000e+000	0.000000e+000	-3.195648e-001	-2.320605e-001	0.000000e+000	0.000000e+000	0.000000e+000	0.000000e+000
4402820282.028	0.000000e+000	0.000000e+000	-3.217331e-001	-2.055970e-001	0.000000e+000	0.000000e+000	0.000000e+000	0.000000e+000
4402840284.028	0.000000e+000	0.000000e+000	-3.153444e-001	-1.753626e-001	0.000000e+000	0.000000e+000	0.000000e+000	0.000000e+000
4402860286.029	0.000000e+000	0.000000e+000	-2.970952e-001	-1.427055e-001	0.000000e+000	0.000000e+000	0.000000e+000	0.000000e+000
4402880288.029	0.000000e+000	0.000000e+000	-2.611934e-001	-1.159142e-001	0.000000e+000	0.000000e+000	0.000000e+000	0.000000e+000
4402900290.029	0.000000e+000	0.000000e+000	-2.104077e-001	-1.063565e-001	0.000000e+000	0.000000e+000	0.000000e+000	0.000000e+000
4402920292.029	0.000000e+000	0.000000e+000	-1.600820e-001	-1.245329e-001	0.000000e+000	0.000000e+000	0.000000e+000	0.000000e+000
4402940294.029	0.000000e+000	0.000000e+000	-1.265078e-001	-1.632734e-001	0.000000e+000	0.000000e+000	0.000000e+000	0.000000e+000
4402960296.030	0.000000e+000	0.000000e+000	-1.170447e-001	-2.071819e-001	0.000000e+000	0.000000e+000	0.000000e+000	0.000000e+000
4402980298.030	0.000000e+000	0.000000e+000	-1.244421e-001	-2.459624e-001	0.000000e+000	0.000000e+000	0.000000e+000	0.000000e+000
4403000300.030	0.000000e+000	0.000000e+000	-1.423483e-001	-2.745846e-001	0.000000e+000	0.000000e+000	0.000000e+000	0.000000e+000
4403020302.030	0.000000e+000	0.000000e+000	-1.642498e-001	-2.939724e-001	0.000000e+000	0.000000e+000	0.000000e+000	0.000000e+000
