"# Channel 1"
"# Trace 1"
Frequency, Formatted Data, Formatted Data
+4.00000000000E+009, -1.00031136074E-001, +5.47210899089E-001
+4.00002000200E+009, -9.52849687169E-002, +5.48082966543E-001
+4.00004000400E+009, -9.05688407716E-002, +5.48955122683E-001
+4.00006000600E+009, -8.58367479692E-002, +5.49633062258E-001
+4.00008000800E+009, -8.11443575103E-002, +5.50318705264E-001
+4.00010001000E+009, -7.64049984418E-002, +5.51046933241E-001
+4.00012001200E+009, -7.16396653364E-002, +5.51633333966E-001
+4.00014001400E+009, -6.69295028656E-002, +5.52109495484E-001
+4.00016001600E+009, -6.21528628054E-002, +5.52719564798E-001
+4.00018001800E+009, -5.73690774770E-002, +5.53197546864E-001
+4.00020002000E+009, -5.26266273720E-002, +5.53576543959E-001
+4.00022002200E+009, -4.78130797800E-002, +5.54050375160E-001
+4.00024002400E+009, -4.29658308357E-002, +5.54534414014E-001
+4.00026002600E+009, -3.81661430878E-002, +5.54785401451E-001
+4.00028002800E+009, -3.33517975872E-002, +5.55119432048E-001
+4.00030003000E+009, -2.85046089871E-002, +5.55433616867E-001
+4.00032003200E+009, -2.36533235695E-002, +5.55630858265E-001
+4.00034003400E+009, -1.88283215114E-002, +5.55749478414E-001
+4.00036003600E+009, -1.39239692370E-002, +5.55903816076E-001
+4.00038003800E+009, -9.07799636480E-003, +5.55988397891E-001
+4.00040004000E+009, -4.25243384366E-003, +5.55925457341E-001
+4.00042004200E+009, +6.83532037622E-004, +5.56008896822E-001
+4.00044004400E+009, +5.61624982348E-003, +5.56019424002E-001
+4.00046004600E+009, +1.03962596493E-002, +5.55853559351E-001
+4.00048004800E+009, +1.53294129619E-002, +5.55799255701E-001
+4.00050005001E+009, +2.03098916641E-002, +5.55645711916E-001
+4.00052005201E+009, +2.51843990245E-002, +5.55386446786E-001
+4.00054005401E+009, +3.00754329658E-002, +5.55065948985E-001
+4.00056005601E+009, +3.51115223569E-002, +5.54829666660E-001
+4.00058005801E+009, +3.99833064024E-002, +5.54406357656E-001
+4.00060006001E+009, +4.49739399610E-002, +5.53932767940E-001
+4.00062006201E+009, +4.99085600011E-002, +5.53456977306E-001
+4.00064006401E+009, +5.49161452877E-002, +5.53018148467E-001
+4.00066006601E+009, +5.98045620416E-002, +5.52476232707E-001
+4.00068006801E+009, +6.48306620174E-002, +5.51876169187E-001
+4.00070007001E+009, +6.98097649346E-002, +5.51183366300E-001
+4.00072007201E+009, +7.47565636424E-002, +5.50489511683E-001
+4.00074007401E+009, +7.98438395418E-002, +5.49781323011E-001
+4.00076007601E+009, +8.48772131774E-002, +5.49015874801E-001
+4.00078007801E+009, +8.97517340704E-002, +5.48051739257E-001
+4.00080008001E+009, +9.48869671677E-002, +5.47221664576E-001
+4.00082008201E+009, +9.99411979102E-002, +5.46347643281E-001
+4.00084008401E+009, +1.04996560243E-001, +5.45331592533E-001
+4.00086008601E+009, +1.10066367397E-001, +5.44315781477E-001
+4.00088008801E+009, +1.15100541534E-001, +5.43170880809E-001
+4.00090009001E+009, +1.20246197746E-001, +5.41997280282E-001
+4.00092009201E+009, +1.25209099407E-001, +5.40695579294E-001
+4.00094009401E+009, +1.30397374837E-001, +5.39465571751E-001
+4.00096009601E+009, +1.35545904513E-001, +5.38253955518E-001
+4.00098009801E+009, +1.40622217899E-001, +5.36823483021E-001
+4.00100010001E+009, +1.45719707045E-001, +5.35384890932E-001
+4.00102010201E+009, +1.50994622173E-001, +5.33928958243E-001
+4.00104010401E+009, +1.56124600114E-001, +5.32350019097E-001
+4.00106010601E+009, +1.61307608918E-001, +5.30681296580E-001
+4.00108010801E+009, +1.66640245360E-001, +5.29103417848E-001
+4.00110011001E+009, +1.71814277737E-001, +5.27367757526E-001
+4.00112011201E+009, +1.77031268579E-001, +5.25420600163E-001
+4.00114011401E+009, +1.82374388958E-001, +5.23536878306E-001
+4.00116011601E+009, +1.87688146463E-001, +5.21612119153E-001
+4.00118011801E+009, +1.92817682707E-001, +5.19427621560E-001
+4.00120012001E+009, +1.98225822257E-001, +5.17212114840E-001
+4.00122012201E+009, +2.03725831484E-001, +5.15105519380E-001
+4.00124012401E+009, +2.09065798487E-001, +5.12812228966E-001
+4.00126012601E+009, +2.14519595578E-001, +5.10381969943E-001
+4.00128012801E+009, +2.20034958948E-001, +5.07842068291E-001
+4.00130013001E+009, +2.25464053956E-001, +5.05207746287E-001
+4.00132013201E+009, +2.31046507879E-001, +5.02540040953E-001
+4.00134013401E+009, +2.36675550073E-001, +4.99770354456E-001
+4.00136013601E+009, +2.42344877965E-001, +4.96809652102E-001
+4.00138013801E+009, +2.47926660508E-001, +4.93582199213E-001
+4.00140014001E+009, +2.53611789964E-001, +4.90346328733E-001
+4.00142014201E+009, +2.59540859086E-001, +4.87064957368E-001
+4.00144014401E+009, +2.65283888985E-001, +4.83372511067E-001
+4.00146014601E+009, +2.71258499704E-001, +4.79692936608E-001
+4.00148014801E+009, +2.77459324768E-001, +4.75831209905E-001
+4.00150015002E+009, +2.83437496788E-001, +4.71598022715E-001
+4.00152015202E+009, +2.89625560555E-001, +4.67202384556E-001
+4.00154015402E+009, +2.96058462898E-001, +4.62536817502E-001
+4.00156015602E+009, +3.02411223895E-001, +4.57606719291E-001
+4.00158015802E+009, +3.08873499096E-001, +4.52169148066E-001
+4.00160016002E+009, +3.15640941612E-001, +4.46418705221E-001
+4.00162016202E+009, +3.22524638717E-001, +4.40251916205E-001
+4.00164016402E+009, +3.29315758821E-001, +4.33461281685E-001
+4.00166016602E+009, +3.36341941224E-001, +4.26096024661E-001
+4.00168016802E+009, +3.43626062479E-001, +4.18035093218E-001
+4.00170017002E+009, +3.50938658127E-001, +4.08961840244E-001
+4.00172017202E+009, +3.58495215439E-001, +3.98958666455E-001
+4.00174017402E+009, +3.66257306353E-001, +3.87764419802E-001
+4.00176017602E+009, +3.73887341374E-001, +3.74879672395E-001
+4.00178017802E+009, +3.81301343862E-001, +3.59816526972E-001
+4.00180018002E+009, +3.88493640600E-001, +3.42207522220E-001
+4.00182018202E+009, +3.94847706157E-001, +3.21306966147E-001
+4.00184018402E+009, +3.99325252945E-001, +2.95938022998E-001
+4.00186018602E+009, +4.00308028796E-001, +2.64073989199E-001
+4.00188018802E+009, +3.94212731765E-001, +2.24683201278E-001
+4.00190019002E+009, +3.74026275085E-001, +1.76711990139E-001
+4.00192019202E+009, +3.29520245827E-001, +1.25599524776E-001
+4.00194019402E+009, +2.54318790933E-001, +8.87592428249E-002
+4.00196019602E+009, +1.61752611010E-001, +8.91456625889E-002
+4.00198019802E+009, +8.07462618361E-002, +1.31901724070E-001
+4.00200020002E+009, +3.24738402013E-002, +1.98108198018E-001
+4.00202020202E+009, +1.66266877089E-002, +2.66855282858E-001
+4.00204020402E+009, +2.38383153859E-002, +3.25898239141E-001
+4.00206020602E+009, +4.43273354474E-002, +3.71800317820E-001
+4.00208020802E+009, +7.11377451791E-002, +4.05456695109E-001
+4.00210021002E+009, +9.97375338338E-002, +4.28639654161E-001
+4.00212021202E+009, +1.27748363181E-001, +4.43901702383E-001
+4.00214021402E+009, +1.54292671157E-001, +4.53419159543E-001
+4.00216021602E+009, +1.78508328832E-001, +4.58375500809E-001
+4.00218021802E+009, +2.00602034889E-001, +4.60294345042E-001
+4.00220022002E+009, +2.20764449400E-001, +4.60089770203E-001
+4.00222022202E+009, +2.39139696247E-001, +4.58143307744E-001
+4.00224022402E+009, +2.55865705046E-001, +4.55000950566E-001
+4.00226022602E+009, +2.71558044321E-001, +4.50914223046E-001
+4.00228022802E+009, +2.86108057133E-001, +4.46061092808E-001
+4.00230023002E+009, +2.99617461245E-001, +4.40392148829E-001
+4.00232023202E+009, +3.12893810390E-001, +4.34157054477E-001
+4.00234023402E+009, +3.25695080159E-001, +4.27069180027E-001
+4.00236023602E+009, +3.38276518772E-001, +4.19030613322E-001
+4.00238023802E+009, +3.51120699462E-001, +4.09652218501E-001
+4.00240024002E+009, +3.64369031937E-001, +3.98711469286E-001
+4.00242024202E+009, +3.78241002287E-001, +3.84885759714E-001
+4.00244024402E+009, +3.93428404179E-001, +3.66672986772E-001
+4.00246024602E+009, +4.10200483699E-001, +3.40750558650E-001
+4.00248024802E+009, +4.27050230097E-001, +2.99021582797E-001
+4.00250025003E+009, +4.33438232823E-001, +2.24052965300E-001
+4.00252025203E+009, +3.60201573598E-001, +9.07735485993E-002
+4.00254025403E+009, +9.47507016665E-002, +1.22034749038E-001
+4.00256025603E+009, +9.47138943167E-002, +3.56369245773E-001
+4.00258025803E+009, +1.88137345762E-001, +4.22523243965E-001
+4.00260026003E+009, +2.46034119579E-001, +4.32187978672E-001
+4.00262026203E+009, +2.81659606383E-001, +4.29306785949E-001
+4.00264026403E+009, +3.06499993186E-001, +4.23587093001E-001
+4.00266026603E+009, +3.24682728758E-001, +4.17093086069E-001
+4.00268026803E+009, +3.38799565963E-001, +4.10580939445E-001
+4.00270027003E+009, +3.50594671815E-001, +4.04266045365E-001
+4.00272027203E+009, +3.60901283241E-001, +3.98175226091E-001
+4.00274027403E+009, +3.69773889992E-001, +3.92216778616E-001
+4.00276027603E+009, +3.77689902347E-001, +3.86401497708E-001
+4.00278027803E+009, +3.84813165282E-001, +3.80828581477E-001
+4.00280028003E+009, +3.91548329670E-001, +3.75365959148E-001
+4.00282028203E+009, +3.97702087073E-001, +3.69896378184E-001
+4.00284028403E+009, +4.03538568807E-001, +3.64621870160E-001
+4.00286028603E+009, +4.09035424382E-001, +3.59311286368E-001
+4.00288028803E+009, +4.14170359565E-001, +3.54116973670E-001
+4.00290029003E+009, +4.19173704013E-001, +3.48928726566E-001
+4.00292029203E+009, +4.24065937331E-001, +3.43761256909E-001
+4.00294029403E+009, +4.28650193554E-001, +3.38657011874E-001
+4.00296029603E+009, +4.32921870849E-001, +3.33569548852E-001
+4.00298029803E+009, +4.37227403143E-001, +3.28479689700E-001
+4.00300030003E+009, +4.41322246206E-001, +3.23369171786E-001
+4.00302030203E+009, +4.45240183101E-001, +3.18282270753E-001
+4.00304030403E+009, +4.49231668516E-001, +3.13159280310E-001
+4.00306030603E+009, +4.53109285388E-001, +3.08085527442E-001
+4.00308030803E+009, +4.56597205907E-001, +3.03045479939E-001
+4.00310031003E+009, +4.60178091455E-001, +2.97954278670E-001
+4.00312031203E+009, +4.63705238732E-001, +2.92744984058E-001
+4.00314031403E+009, +4.66990566256E-001, +2.87577889696E-001
+4.00316031603E+009, +4.70336119350E-001, +2.82455762473E-001
+4.00318031803E+009, +4.73660710273E-001, +2.77262055306E-001
+4.00320032003E+009, +4.76737073553E-001, +2.72026945926E-001
+4.00322032203E+009, +4.79786297809E-001, +2.66764854369E-001
+4.00324032403E+009, +4.82768906152E-001, +2.61510970789E-001
+4.00326032603E+009, +4.85767042326E-001, +2.56094664767E-001
+4.00328032803E+009, +4.88587996899E-001, +2.50798214617E-001
+4.00330033003E+009, +4.91426437866E-001, +2.45371354607E-001
+4.00332033203E+009, +4.94306551481E-001, +2.39894231211E-001
+4.00334033403E+009, +4.96766871722E-001, +2.34396459069E-001
+4.00336033603E+009, +4.99432641739E-001, +2.28841510530E-001
+4.00338033803E+009, +5.02049764997E-001, +2.23222130162E-001
+4.00340034003E+009, +5.04522104585E-001, +2.17583424228E-001
+4.00342034203E+009, +5.06945705353E-001, +2.11846920241E-001
+4.00344034403E+009, +5.09440399846E-001, +2.06075744980E-001
+4.00346034603E+009, +5.11803209974E-001, +2.00154837704E-001
+4.00348034803E+009, +5.13878957210E-001, +1.94214321367E-001
+4.00350035004E+009, +5.16145904846E-001, +1.88127152730E-001
+4.00352035204E+009, +5.18328862583E-001, +1.81991263021E-001
+4.00354035404E+009, +5.20349351533E-001, +1.75783581922E-001
+4.00356035604E+009, +5.22383964435E-001, +1.69398827583E-001
+4.00358035804E+009, +5.24431473867E-001, +1.62925239009E-001
+4.00360036004E+009, +5.26165043837E-001, +1.56335141397E-001
+4.00362036204E+009, +5.28043449790E-001, +1.49587817865E-001
+4.00364036404E+009, +5.29855560881E-001, +1.42566556097E-001
+4.00366036604E+009, +5.31329403517E-001, +1.35504760890E-001
+4.00368036804E+009, +5.32892929403E-001, +1.28177695438E-001
+4.00370037004E+009, +5.34373551971E-001, +1.20594449086E-001
+4.00372037204E+009, +5.35750446915E-001, +1.12760218502E-001
+4.00374037404E+009, +5.36739521773E-001, +1.04736461652E-001
+4.00376037604E+009, +5.37896018026E-001, +9.62481562707E-002
+4.00378037804E+009, +5.38802522347E-001, +8.73887319612E-002
+4.00380038004E+009, +5.39276168079E-001, +7.82069379924E-002
+4.00382038204E+009, +5.39787135279E-001, +6.84345693135E-002
+4.00384038404E+009, +5.40007265124E-001, +5.79971236642E-002
+4.00386038604E+009, +5.39602285430E-001, +4.69079042139E-002
+4.00388038804E+009, +5.38788025604E-001, +3.50471461153E-002
+4.00390039004E+009, +5.37428709462E-001, +2.20412013466E-002
+4.00392039204E+009, +5.35090005091E-001, +8.05937443279E-003
+4.00394039404E+009, +5.31587903960E-001, -7.43040893983E-003
+4.00396039604E+009, +5.26393839874E-001, -2.47754198243E-002
+4.00398039804E+009, +5.18679027111E-001, -4.42287843032E-002
+4.00400040004E+009, +5.07314036890E-001, -6.59867039518E-002
+4.00402040204E+009, +4.89793489960E-001, -9.08974798457E-002
+4.00404040404E+009, +4.62303302622E-001, -1.18442649870E-001
+4.00406040604E+009, +4.18574176251E-001, -1.45343983174E-001
+4.00408040804E+009, +3.50399985277E-001, -1.61802805360E-001
+4.00410041004E+009, +2.57071187177E-001, -1.43798473431E-001
+4.00412041204E+009, +1.71793396188E-001, -6.86348017993E-002
+4.00414041404E+009, +1.40769379380E-001, +4.16589682249E-002
+4.00416041604E+009, +1.67491426971E-001, +1.38824075036E-001
+4.00418041804E+009, +2.23896050986E-001, +2.00590362024E-001
+4.00420042004E+009, +2.85254467264E-001, +2.29168208262E-001
+4.00422042204E+009, +3.39966967937E-001, +2.35388105530E-001
+4.00424042404E+009, +3.84379362594E-001, +2.28674228246E-001
+4.00426042604E+009, +4.18262981989E-001, +2.15744605647E-001
+4.00428042804E+009, +4.44481025176E-001, +2.00330355179E-001
+4.00430043004E+009, +4.64851356702E-001, +1.84198784020E-001
+4.00432043204E+009, +4.80174867892E-001, +1.68602362079E-001
+4.00434043404E+009, +4.92297787579E-001, +1.53814316275E-001
+4.00436043604E+009, +5.01959648772E-001, +1.39959233330E-001
+4.00438043804E+009, +5.09533311648E-001, +1.27133295104E-001
+4.00440044004E+009, +5.15652560455E-001, +1.15169652283E-001
+4.00442044204E+009, +5.20887739954E-001, +1.03732201232E-001
+4.00444044404E+009, +5.25133020918E-001, +9.30953693141E-002
+4.00446044604E+009, +5.28604655525E-001, +8.30663712595E-002
+4.00448044804E+009, +5.31686925502E-001, +7.34295835246E-002
+4.00450045005E+009, +5.34219179799E-001, +6.42540783479E-002
+4.00452045205E+009, +5.36117224008E-001, +5.55409390369E-002
+4.00454045405E+009, +5.37954609538E-001, +4.70899033478E-002
+4.00456045605E+009, +5.39436456544E-001, +3.88580083259E-002
+4.00458045805E+009, +5.40620427651E-001, +3.08748924160E-002
+4.00460046005E+009, +5.41710156706E-001, +2.31413658424E-002
+4.00462046205E+009, +5.42619039265E-001, +1.55254192994E-002
+4.00464046405E+009, +5.43311876797E-001, +8.10519410778E-003
+4.00466046605E+009, +5.43694703819E-001, +9.56936978191E-004
+4.00468046805E+009, +5.44137840493E-001, -6.23937643014E-003
+4.00470047005E+009, +5.44518044135E-001, -1.33174611302E-002
+4.00472047205E+009, +5.44404249717E-001, -2.01266228691E-002
+4.00474047405E+009, +5.44462617136E-001, -2.69899194794E-002
+4.00476047605E+009, +5.44438266141E-001, -3.37662536376E-002
+4.00478047805E+009, +5.44005870716E-001, -4.02843572313E-002
+4.00480048005E+009, +5.43701178008E-001, -4.69046577025E-002
+4.00482048205E+009, +5.43405068764E-001, -5.34481718573E-002
+4.00484048405E+009, +5.42829543405E-001, -5.98645978704E-002
+4.00486048605E+009, +5.42128137019E-001, -6.62472371296E-002
+4.00488048805E+009, +5.41559149905E-001, -7.27798822673E-002
+4.00490049005E+009, +5.40811418767E-001, -7.91749798817E-002
+4.00492049205E+009, +5.39852570465E-001, -8.54018779371E-002
+4.00494049405E+009, +5.38819561230E-001, -9.17543018578E-002
+4.00496049605E+009, +5.37904856411E-001, -9.80934550532E-002
+4.00498049805E+009, +5.36725419053E-001, -1.04228326444E-001
+4.00500050005E+009, +5.35511767307E-001, -1.10599510466E-001
+4.00502050205E+009, +5.34331385157E-001, -1.16960114539E-001
+4.00504050405E+009, +5.32827075802E-001, -1.23114007937E-001
+4.00506050605E+009, +5.31343773639E-001, -1.29390060239E-001
+4.00508050805E+009, +5.29791494544E-001, -1.35740443424E-001
+4.00510051005E+009, +5.28113289737E-001, -1.42048143326E-001
+4.00512051205E+009, +5.26302519313E-001, -1.48337732889E-001
+4.00514051405E+009, +5.24409574295E-001, -1.54750906075E-001
+4.00516051605E+009, +5.22367806326E-001, -1.61129996095E-001
+4.00518051805E+009, +5.20082030824E-001, -1.67497414632E-001
+4.00520052005E+009, +5.17824881479E-001, -1.74030622464E-001
+4.00522052205E+009, +5.15528969938E-001, -1.80654079275E-001
+4.00524052405E+009, +5.12844320320E-001, -1.87209025859E-001
+4.00526052605E+009, +5.10126613949E-001, -1.93854192762E-001
+4.00528052805E+009, +5.07346673514E-001, -2.00714523763E-001
+4.00530053005E+009, +5.04112259116E-001, -2.07510733866E-001
+4.00532053205E+009, +5.00752278480E-001, -2.14370767224E-001
+4.00534053405E+009, +4.97207446805E-001, -2.21626256745E-001
+4.00536053605E+009, +4.93360267726E-001, -2.28840457391E-001
+4.00538053805E+009, +4.89174756060E-001, -2.36165629159E-001
+4.00540054005E+009, +4.84710283915E-001, -2.43786748704E-001
+4.00542054205E+009, +4.79837532311E-001, -2.51630683348E-001
+4.00544054405E+009, +4.74285584517E-001, -2.59439177903E-001
+4.00546054605E+009, +4.68353497350E-001, -2.67776410904E-001
+4.00548054805E+009, +4.61700889226E-001, -2.76358517592E-001
+4.00550055006E+009, +4.54200434763E-001, -2.85117458523E-001
+4.00552055206E+009, +4.45800248229E-001, -2.94300566328E-001
+4.00554055406E+009, +4.35995142096E-001, -3.03986593007E-001
+4.00556055606E+009, +4.24628325429E-001, -3.13891949382E-001
+4.00558055806E+009, +4.11209218183E-001, -3.23969975660E-001
+4.00560056006E+009, +3.95075573231E-001, -3.34540683200E-001
+4.00562056206E+009, +3.75168509897E-001, -3.44839043970E-001
+4.00564056406E+009, +3.50274709051E-001, -3.54209667551E-001
+4.00566056606E+009, +3.17940471814E-001, -3.61255996781E-001
+4.00568056806E+009, +2.75201799704E-001, -3.62162349733E-001
+4.00570057006E+009, +2.21260103887E-001, -3.49190292225E-001
+4.00572057206E+009, +1.58821941138E-001, -3.08935816157E-001
+4.00574057406E+009, +1.07991243999E-001, -2.26987346750E-001
+4.00576057606E+009, +1.04548133123E-001, -1.18009389949E-001
+4.00578057806E+009, +1.56436839054E-001, -2.57232090542E-002
+4.00580058006E+009, +2.35312282993E-001, +2.30717326048E-002
+4.00582058206E+009, +3.11872087753E-001, +3.20685028258E-002
+4.00584058406E+009, +3.73207444613E-001, +1.63740742833E-002
+4.00586058606E+009, +4.17111944430E-001, -1.07564447225E-002
+4.00588058806E+009, +4.47050070900E-001, -4.16142920448E-002
+4.00590059006E+009, +4.65676340618E-001, -7.09876883502E-002
+4.00592059206E+009, +4.77434508832E-001, -9.84243475494E-002
+4.00594059406E+009, +4.84200019886E-001, -1.22954775438E-001
+4.00596059606E+009, +4.87323315180E-001, -1.44199821408E-001
+4.00598059806E+009, +4.88544542397E-001, -1.63180664950E-001
+4.00600060006E+009, +4.88233711762E-001, -1.80164578134E-001
+4.00602060206E+009, +4.86849849871E-001, -1.95114526265E-001
+4.00604060406E+009, +4.84794605528E-001, -2.08498043439E-001
+4.00606060606E+009, +4.82286840476E-001, -2.20849957968E-001
+4.00608060806E+009, +4.79404661731E-001, -2.32098507887E-001
+4.00610061006E+009, +4.76274737133E-001, -2.42365748994E-001
+4.00612061206E+009, +4.73051520636E-001, -2.51946551508E-001
+4.00614061406E+009, +4.69693553682E-001, -2.61131568652E-001
+4.00616061606E+009, +4.66151081992E-001, -2.69469892499E-001
+4.00618061806E+009, +4.62522585732E-001, -2.77585255786E-001
+4.00620062006E+009, +4.58900323114E-001, -2.85232018835E-001
+4.00622062206E+009, +4.55087947349E-001, -2.92294035553E-001
+4.00624062406E+009, +4.51362534042E-001, -2.99227427417E-001
+4.00626062606E+009, +4.47604285485E-001, -3.05975102733E-001
+4.00628062806E+009, +4.43692894591E-001, -3.12328867937E-001
+4.00630063006E+009, +4.39789501938E-001, -3.18503797866E-001
