!Keysight Technologies,E5063A,MY54502693,A.05.04
!Date: Sat Feb 27 20:10:57 2021
!Data & Calibration Information:
!Freq	S11:NONE(--)	S21:NONE(--)	S12:NONE(--)	S22:NONE(--)
# Hz S RI R 50
4600000000.000	0.000000e+000	0.000000e+000	2.711328e-001	5.529228e-002	0.000000e+000	0.000000e+000	0.000000e+000	0.000000e+000
4600020002.000	0.000000e+000	0.000000e+000	2.290312e-001	6.695208e-002	0.000000e+000	0.000000e+000	0.000000e+000	0.000000e+000
4600040004.000	0.000000e+000	0.000000e+000	2.001266e-001	9.643974e-002	0.000000e+000	0.000000e+000	0.000000e+000	0.000000e+000
4600060006.001	0.000000e+000	0.000000e+000	1.898698e-001	1.303951e-001	0.000000e+000	0.000000e+000	0.000000e+000	0.000000e+000
4600080008.001	0.000000e+000	0.000000e+000	1.936579e-001	1.596513e-001	0.000000e+000	0.000000e+000	0.000000e+000	0.000000e+000
4600100010.001	0.000000e+000	0.000000e+000	2.057932e-001	1.821070e-001	0.000000e+000	0.000000e+000	0.000000e+000	0.000000e+000
4600120012.001	0.000000e+000	0.000000e+000	2.218122e-001	1.973463e-001	0.000000e+000	0.000000e+000	0.000000e+000	0.000000e+000
4600140014.001	0.000000e+000	0.000000e+000	2.387141e-001	2.062844e-001	0.000000e+000	0.000000e+000	0.000000e+000	0.000000e+000
4600160016.002	0.000000e+000	0.000000e+000	2.550724e-001	2.105392e-001	0.000000e+000	0.000000e+000	0.000000e+000	0.000000e+000
4600180018.002	0.000000e+000	0.000000e+000	2.700605e-001	2.113659e-001	0.000000e+000	0.000000e+000	0.000000e+000	0.000000e+000
4600200020.002	0.000000e+000	0.000000e+000	2.832570e-001	2.098362e-001	0.000000e+000	0.000000e+000	0.000000e+000	0.000000e+000
4600220022.002	0.000000e+000	0.000000e+000	2.947996e-001	2.067032e-001	0.000000e+000	0.000000e+000	0.000000e+000	0.000000e+000
4600240024.002	0.000000e+000	0.000000e+000	3.049534e-001	2.027444e-001	0.000000e+000	0.000000e+000	0.000000e+000	0.000000e+000
4600260026.003	0.000000e+000	0.000000e+000	3.134237e-001	1.981572e-001	0.000000e+000	0.000000e+000	0.000000e+000	0.000000e+000
4600280028.003	0.000000e+000	0.000000e+000	3.208442e-001	1.932888e-001	0.000000e+000	0.000000e+000	0.000000e+000	0.000000e+000
4600300030.003	0.000000e+000	0.000000e+000	3.273523e-001	1.883091e-001	0.000000e+000	0.000000e+000	0.000000e+000	0.000000e+000
4600320032.003	0.000000e+000	0.000000e+000	3.328653e-001	1.833780e-001	0.000000e+000	0.000000e+000	0.000000e+000	0.000000e+000
4600340034.003	0.000000e+000	0.000000e+000	3.378717e-001	1.783594e-001	0.000000e+000	0.000000e+000	0.000000e+000	0.000000e+000
4600360036.004	0.000000e+000	0.000000e+000	3.423955e-001	1.735082e-001	0.000000e+000	0.000000e+000	0.000000e+000	0.000000e+000
4600380038.004	0.000000e+000	0.000000e+000	3.463960e-001	1.686596e-001	0.000000e+000	0.000000e+000	0.000000e+000	0.000000e+000
4600400040.004	0.000000e+000	0.000000e+000	3.498094e-001	1.640357e-001	0.000000e+000	0.000000e+000	0.000000e+000	0.000000e+000
4600420042.004	0.000000e+000	0.000000e+000	3.532353e-001	1.593803e-001	0.000000e+000	0.000000e+000	0.000000e+000	0.000000e+000
4600440044.004	0.000000e+000	0.000000e+000	3.561994e-001	1.548014e-001	0.000000e+000	0.000000e+000	0.000000e+000	0.000000e+000
4600460046.005	0.000000e+000	0.000000e+000	3.589190e-001	1.503303e-001	0.000000e+000	0.000000e+000	0.000000e+000	0.000000e+000
4600480048.005	0.000000e+000	0.000000e+000	3.615596e-001	1.459062e-001	0.000000e+000	0.000000e+000	0.000000e+000	0.000000e+000
4600500050.005	0.000000e+000	0.000000e+000	3.639403e-001	1.415202e-001	0.000000e+000	0.000000e+000	0.000000e+000	0.000000e+000
4600520052.005	0.000000e+000	0.000000e+000	3.659024e-001	1.373034e-001	0.000000e+000	0.000000e+000	0.000000e+000	0.000000e+000
4600540054.005	0.000000e+000	0.000000e+000	3.681468e-001	1.331441e-001	0.000000e+000	0.000000e+000	0.000000e+000	0.000000e+000
4600560056.006	0.000000e+000	0.000000e+000	3.700805e-001	1.289105e-001	0.000000e+000	0.000000e+000	0.000000e+000	0.000000e+000
4600580058.006	0.000000e+000	0.000000e+000	3.718818e-001	1.247849e-001	0.000000e+000	0.000000e+000	0.000000e+000	0.000000e+000
4600600060.006	0.000000e+000	0.000000e+000	3.736512e-001	1.205876e-001	0.000000e+000	0.000000e+000	0.000000e+000	0.000000e+000
4600620062.006	0.000000e+000	0.000000e+000	3.752917e-001	1.164382e-001	0.000000e+000	0.000000e+000	0.000000e+000	0.000000e+000
4600640064.006	0.000000e+000	0.000000e+000	3.768153e-001	1.124249e-001	0.000000e+000	0.000000e+000	0.000000e+000	0.000000e+000
4600660066.007	0.000000e+000	0.000000e+000	3.783190e-001	1.084155e-001	0.000000e+000	0.000000e+000	0.000000e+000	0.000000e+000
4600680068.007	0.000000e+000	0.000000e+000	3.795740e-001	1.044613e-001	0.000000e+000	0.000000e+000	0.000000e+000	0.000000e+000
4600700070.007	0.000000e+000	0.000000e+000	3.809963e-001	1.003898e-001	0.000000e+000	0.000000e+000	0.000000e+000	0.000000e+000
4600720072.007	0.000000e+000	0.000000e+000	3.821095e-001	9.644313e-002	0.000000e+000	0.000000e+000	0.000000e+000	0.000000e+000
4600740074.007	0.000000e+000	0.000000e+000	3.834234e-001	9.259548e-002	0.000000e+000	0.000000e+000	0.000000e+000	0.000000e+000
4600760076.008	0.000000e+000	0.000000e+000	3.845183e-001	8.861170e-002	0.000000e+000	0.000000e+000	0.000000e+000	0.000000e+000
4600780078.008	0.000000e+000	0.000000e+000	3.853892e-001	8.471579e-002	0.000000e+000	0.000000e+000	0.000000e+000	0.000000e+000
4600800080.008	0.000000e+000	0.000000e+000	3.864601e-001	8.083917e-002	0.000000e+000	0.000000e+000	0.000000e+000	0.000000e+000
4600820082.008	0.000000e+000	0.000000e+000	3.875189e-001	7.696133e-002	0.000000e+000	0.000000e+000	0.000000e+000	0.000000e+000
4600840084.008	0.000000e+000	0.000000e+000	3.883013e-001	7.308964e-002	0.000000e+000	0.000000e+000	0.000000e+000	0.000000e+000
4600860086.009	0.000000e+000	0.000000e+000	3.891279e-001	6.919792e-002	0.000000e+000	0.000000e+000	0.000000e+000	0.000000e+000
4600880088.009	0.000000e+000	0.000000e+000	3.898643e-001	6.531833e-002	0.000000e+000	0.000000e+000	0.000000e+000	0.000000e+000
4600900090.009	0.000000e+000	0.000000e+000	3.906716e-001	6.147215e-002	0.000000e+000	0.000000e+000	0.000000e+000	0.000000e+000
4600920092.009	0.000000e+000	0.000000e+000	3.913790e-001	5.778271e-002	0.000000e+000	0.000000e+000	0.000000e+000	0.000000e+000
4600940094.009	0.000000e+000	0.000000e+000	3.920546e-001	5.380628e-002	0.000000e+000	0.000000e+000	0.000000e+000	0.000000e+000
4600960096.010	0.000000e+000	0.000000e+000	3.927714e-001	5.004981e-002	0.000000e+000	0.000000e+000	0.000000e+000	0.000000e+000
4600980098.010	0.000000e+000	0.000000e+000	3.932691e-001	4.626461e-002	0.000000e+000	0.000000e+000	0.000000e+000	0.000000e+000
4601000100.010	0.000000e+000	0.000000e+000	3.937473e-001	4.250017e-002	0.000000e+000	0.000000e+000	0.000000e+000	0.000000e+000
4601020102.010	0.000000e+000	0.000000e+000	3.942651e-001	3.863308e-002	0.000000e+000	0.000000e+000	0.000000e+000	0.000000e+000
4601040104.010	0.000000e+000	0.000000e+000	3.946573e-001	3.498265e-002	0.000000e+000	0.000000e+000	0.000000e+000	0.000000e+000
4601060106.011	0.000000e+000	0.000000e+000	3.950863e-001	3.109735e-002	0.000000e+000	0.000000e+000	0.000000e+000	0.000000e+000
4601080108.011	0.000000e+000	0.000000e+000	3.954193e-001	2.725636e-002	0.000000e+000	0.000000e+000	0.000000e+000	0.000000e+000
4601100110.011	0.000000e+000	0.000000e+000	3.958394e-001	2.353632e-002	0.000000e+000	0.000000e+000	0.000000e+000	0.000000e+000
4601120112.011	0.000000e+000	0.000000e+000	3.961160e-001	1.973335e-002	0.000000e+000	0.000000e+000	0.000000e+000	0.000000e+000
4601140114.011	0.000000e+000	0.000000e+000	3.962959e-001	1.589206e-002	0.000000e+000	0.000000e+000	0.000000e+000	0.000000e+000
4601160116.012	0.000000e+000	0.000000e+000	3.964859e-001	1.207980e-002	0.000000e+000	0.000000e+000	0.000000e+000	0.000000e+000
4601180118.012	0.000000e+000	0.000000e+000	3.965202e-001	8.242631e-003	0.000000e+000	0.000000e+000	0.000000e+000	0.000000e+000
4601200120.012	0.000000e+000	0.000000e+000	3.967894e-001	4.544320e-003	0.000000e+000	0.000000e+000	0.000000e+000	0.000000e+000
4601220122.012	0.000000e+000	0.000000e+000	3.968387e-001	6.725417e-004	0.000000e+000	0.000000e+000	0.000000e+000	0.000000e+000
4601240124.012	0.000000e+000	0.000000e+000	3.968216e-001	-3.014009e-003	0.000000e+000	0.000000e+000	0.000000e+000	0.000000e+000
4601260126.013	0.000000e+000	0.000000e+000	3.968692e-001	-6.880110e-003	0.000000e+000	0.000000e+000	0.000000e+000	0.000000e+000
4601280128.013	0.000000e+000	0.000000e+000	3.968610e-001	-1.064925e-002	0.000000e+000	0.000000e+000	0.000000e+000	0.000000e+000
4601300130.013	0.000000e+000	0.000000e+000	3.966562e-001	-1.437116e-002	0.000000e+000	0.000000e+000	0.000000e+000	0.000000e+000
4601320132.013	0.000000e+000	0.000000e+000	3.966067e-001	-1.824179e-002	0.000000e+000	0.000000e+000	0.000000e+000	0.000000e+000
4601340134.013	0.000000e+000	0.000000e+000	3.965010e-001	-2.208696e-002	0.000000e+000	0.000000e+000	0.000000e+000	0.000000e+000
4601360136.014	0.000000e+000	0.000000e+000	3.961990e-001	-2.587077e-002	0.000000e+000	0.000000e+000	0.000000e+000	0.000000e+000
4601380138.014	0.000000e+000	0.000000e+000	3.959675e-001	-2.963067e-002	0.000000e+000	0.000000e+000	0.000000e+000	0.000000e+000
4601400140.014	0.000000e+000	0.000000e+000	3.957776e-001	-3.346881e-002	0.000000e+000	0.000000e+000	0.000000e+000	0.000000e+000
4601420142.014	0.000000e+000	0.000000e+000	3.955020e-001	-3.722668e-002	0.000000e+000	0.000000e+000	0.000000e+000	0.000000e+000
4601440144.014	0.000000e+000	0.000000e+000	3.950328e-001	-4.104226e-002	0.000000e+000	0.000000e+000	0.000000e+000	0.000000e+000
4601460146.015	0.000000e+000	0.000000e+000	3.946472e-001	-4.492704e-002	0.000000e+000	0.000000e+000	0.000000e+000	0.000000e+000
4601480148.015	0.000000e+000	0.000000e+000	3.943247e-001	-4.876053e-002	0.000000e+000	0.000000e+000	0.000000e+000	0.000000e+000
4601500150.015	0.000000e+000	0.000000e+000	3.937242e-001	-5.251889e-002	0.000000e+000	0.000000e+000	0.000000e+000	0.000000e+000
4601520152.015	0.000000e+000	0.000000e+000	3.932917e-001	-5.636306e-002	0.000000e+000	0.000000e+000	0.000000e+000	0.000000e+000
4601540154.015	0.000000e+000	0.000000e+000	3.927461e-001	-6.025307e-002	0.000000e+000	0.000000e+000	0.000000e+000	0.000000e+000
4601560156.016	0.000000e+000	0.000000e+000	3.921144e-001	-6.398579e-002	0.000000e+000	0.000000e+000	0.000000e+000	0.000000e+000
4601580158.016	0.000000e+000	0.000000e+000	3.914878e-001	-6.785119e-002	0.000000e+000	0.000000e+000	0.000000e+000	0.000000e+000
4601600160.016	0.000000e+000	0.000000e+000	3.908364e-001	-7.171816e-002	0.000000e+000	0.000000e+000	0.000000e+000	0.000000e+000
4601620162.016	0.000000e+000	0.000000e+000	3.901051e-001	-7.555282e-002	0.000000e+000	0.000000e+000	0.000000e+000	0.000000e+000
4601640164.016	0.000000e+000	0.000000e+000	3.892288e-001	-7.945967e-002	0.000000e+000	0.000000e+000	0.000000e+000	0.000000e+000
4601660166.017	0.000000e+000	0.000000e+000	3.885312e-001	-8.333023e-002	0.000000e+000	0.000000e+000	0.000000e+000	0.000000e+000
4601680168.017	0.000000e+000	0.000000e+000	3.875241e-001	-8.725806e-002	0.000000e+000	0.000000e+000	0.000000e+000	0.000000e+000
4601700170.017	0.000000e+000	0.000000e+000	3.866560e-001	-9.110507e-002	0.000000e+000	0.000000e+000	0.000000e+000	0.000000e+000
4601720172.017	0.000000e+000	0.000000e+000	3.857374e-001	-9.504393e-002	0.000000e+000	0.000000e+000	0.000000e+000	0.000000e+000
4601740174.017	0.000000e+000	0.000000e+000	3.847646e-001	-9.899856e-002	0.000000e+000	0.000000e+000	0.000000e+000	0.000000e+000
4601760176.018	0.000000e+000	0.000000e+000	3.835886e-001	-1.026894e-001	0.000000e+000	0.000000e+000	0.000000e+000	0.000000e+000
4601780178.018	0.000000e+000	0.000000e+000	3.825086e-001	-1.068376e-001	0.000000e+000	0.000000e+000	0.000000e+000	0.000000e+000
4601800180.018	0.000000e+000	0.000000e+000	3.813059e-001	-1.107710e-001	0.000000e+000	0.000000e+000	0.000000e+000	0.000000e+000
4601820182.018	0.000000e+000	0.000000e+000	3.800409e-001	-1.146384e-001	0.000000e+000	0.000000e+000	0.000000e+000	0.000000e+000
4601840184.018	0.000000e+000	0.000000e+000	3.787353e-001	-1.187427e-001	0.000000e+000	0.000000e+000	0.000000e+000	0.000000e+000
4601860186.019	0.000000e+000	0.000000e+000	3.773247e-001	-1.226978e-001	0.000000e+000	0.000000e+000	0.000000e+000	0.000000e+000
4601880188.019	0.000000e+000	0.000000e+000	3.759081e-001	-1.267144e-001	0.000000e+000	0.000000e+000	0.000000e+000	0.000000e+000
4601900190.019	0.000000e+000	0.000000e+000	3.743193e-001	-1.306966e-001	0.000000e+000	0.000000e+000	0.000000e+000	0.000000e+000
4601920192.019	0.000000e+000	0.000000e+000	3.727632e-001	-1.348235e-001	0.000000e+000	0.000000e+000	0.000000e+000	0.000000e+000
4601940194.019	0.000000e+000	0.000000e+000	3.711143e-001	-1.389580e-001	0.000000e+000	0.000000e+000	0.000000e+000	0.000000e+000
4601960196.020	0.000000e+000	0.000000e+000	3.692866e-001	-1.430472e-001	0.000000e+000	0.000000e+000	0.000000e+000	0.000000e+000
4601980198.020	0.000000e+000	0.000000e+000	3.674077e-001	-1.472457e-001	0.000000e+000	0.000000e+000	0.000000e+000	0.000000e+000
4602000200.020	0.000000e+000	0.000000e+000	3.654872e-001	-1.514996e-001	0.000000e+000	0.000000e+000	0.000000e+000	0.000000e+000
4602020202.020	0.000000e+000	0.000000e+000	3.633849e-001	-1.556605e-001	0.000000e+000	0.000000e+000	0.000000e+000	0.000000e+000
4602040204.020	0.000000e+000	0.000000e+000	3.612273e-001	-1.599263e-001	0.000000e+000	0.000000e+000	0.000000e+000	0.000000e+000
4602060206.021	0.000000e+000	0.000000e+000	3.588759e-001	-1.642211e-001	0.000000e+000	0.000000e+000	0.000000e+000	0.000000e+000
4602080208.021	0.000000e+000	0.000000e+000	3.563194e-001	-1.684892e-001	0.000000e+000	0.000000e+000	0.000000e+000	0.000000e+000
4602100210.021	0.000000e+000	0.000000e+000	3.537298e-001	-1.730412e-001	0.000000e+000	0.000000e+000	0.000000e+000	0.000000e+000
4602120212.021	0.000000e+000	0.000000e+000	3.509094e-001	-1.775154e-001	0.000000e+000	0.000000e+000	0.000000e+000	0.000000e+000
4602140214.021	0.000000e+000	0.000000e+000	3.477113e-001	-1.819436e-001	0.000000e+000	0.000000e+000	0.000000e+000	0.000000e+000
4602160216.022	0.000000e+000	0.000000e+000	3.443365e-001	-1.865164e-001	0.000000e+000	0.000000e+000	0.000000e+000	0.000000e+000
4602180218.022	0.000000e+000	0.000000e+000	3.408567e-001	-1.912873e-001	0.000000e+000	0.000000e+000	0.000000e+000	0.000000e+000
4602200220.022	0.000000e+000	0.000000e+000	3.369959e-001	-1.960042e-001	0.000000e+000	0.000000e+000	0.000000e+000	0.000000e+000
4602220222.022	0.000000e+000	0.000000e+000	3.326022e-001	-2.006802e-001	0.000000e+000	0.000000e+000	0.000000e+000	0.000000e+000
4602240224.022	0.000000e+000	0.000000e+000	3.279931e-001	-2.054452e-001	0.000000e+000	0.000000e+000	0.000000e+000	0.000000e+000
4602260226.023	0.000000e+000	0.000000e+000	3.226580e-001	-2.102564e-001	0.000000e+000	0.000000e+000	0.000000e+000	0.000000e+000
4602280228.023	0.000000e+000	0.000000e+000	3.166791e-001	-2.150856e-001	0.000000e+000	0.000000e+000	0.000000e+000	0.000000e+000
4602300230.023	0.000000e+000	0.000000e+000	3.101052e-001	-2.198199e-001	0.000000e+000	0.000000e+000	0.000000e+000	0.000000e+000
4602320232.023	0.000000e+000	0.000000e+000	3.024918e-001	-2.245037e-001	0.000000e+000	0.000000e+000	0.000000e+000	0.000000e+000
4602340234.023	0.000000e+000	0.000000e+000	2.936773e-001	-2.286905e-001	0.000000e+000	0.000000e+000	0.000000e+000	0.000000e+000
4602360236.024	0.000000e+000	0.000000e+000	2.834276e-001	-2.323063e-001	0.000000e+000	0.000000e+000	0.000000e+000	0.000000e+000
4602380238.024	0.000000e+000	0.000000e+000	2.713822e-001	-2.350045e-001	0.000000e+000	0.000000e+000	0.000000e+000	0.000000e+000
4602400240.024	0.000000e+000	0.000000e+000	2.568488e-001	-2.358478e-001	0.000000e+000	0.000000e+000	0.000000e+000	0.000000e+000
4602420242.024	0.000000e+000	0.000000e+000	2.396900e-001	-2.332369e-001	0.000000e+000	0.000000e+000	0.000000e+000	0.000000e+000
4602440244.024	0.000000e+000	0.000000e+000	2.205611e-001	-2.253659e-001	0.000000e+000	0.000000e+000	0.000000e+000	0.000000e+000
4602460246.025	0.000000e+000	0.000000e+000	2.012740e-001	-2.095023e-001	0.000000e+000	0.000000e+000	0.000000e+000	0.000000e+000
4602480248.025	0.000000e+000	0.000000e+000	1.868947e-001	-1.844185e-001	0.000000e+000	0.000000e+000	0.000000e+000	0.000000e+000
4602500250.025	0.000000e+000	0.000000e+000	1.827119e-001	-1.542182e-001	0.000000e+000	0.000000e+000	0.000000e+000	0.000000e+000
4602520252.025	0.000000e+000	0.000000e+000	1.906132e-001	-1.254195e-001	0.000000e+000	0.000000e+000	0.000000e+000	0.000000e+000
4602540254.025	0.000000e+000	0.000000e+000	2.071879e-001	-1.035858e-001	0.000000e+000	0.000000e+000	0.000000e+000	0.000000e+000
4602560256.026	0.000000e+000	0.000000e+000	2.285065e-001	-9.058021e-002	0.000000e+000	0.000000e+000	0.000000e+000	0.000000e+000
4602580258.026	0.000000e+000	0.000000e+000	2.498448e-001	-8.576469e-002	0.000000e+000	0.000000e+000	0.000000e+000	0.000000e+000
4602600260.026	0.000000e+000	0.000000e+000	2.694984e-001	-8.716540e-002	0.000000e+000	0.000000e+000	0.000000e+000	0.000000e+000
4602620262.026	0.000000e+000	0.000000e+000	2.860741e-001	-9.288377e-002	0.000000e+000	0.000000e+000	0.000000e+000	0.000000e+000
4602640264.026	0.000000e+000	0.000000e+000	2.995165e-001	-1.014383e-001	0.000000e+000	0.000000e+000	0.000000e+000	0.000000e+000
4602660266.027	0.000000e+000	0.000000e+000	3.097489e-001	-1.112716e-001	0.000000e+000	0.000000e+000	0.000000e+000	0.000000e+000
4602680268.027	0.000000e+000	0.000000e+000	3.173701e-001	-1.217095e-001	0.000000e+000	0.000000e+000	0.000000e+000	0.000000e+000
4602700270.027	0.000000e+000	0.000000e+000	3.228408e-001	-1.324757e-001	0.000000e+000	0.000000e+000	0.000000e+000	0.000000e+000
4602720272.027	0.000000e+000	0.000000e+000	3.265256e-001	-1.426494e-001	0.000000e+000	0.000000e+000	0.000000e+000	0.000000e+000
4602740274.027	0.000000e+000	0.000000e+000	3.285926e-001	-1.524308e-001	0.000000e+000	0.000000e+000	0.000000e+000	0.000000e+000
4602760276.028	0.000000e+000	0.000000e+000	3.297229e-001	-1.616730e-001	0.000000e+000	0.000000e+000	0.000000e+000	0.000000e+000
4602780278.028	0.000000e+000	0.000000e+000	3.300222e-001	-1.704240e-001	0.000000e+000	0.000000e+000	0.000000e+000	0.000000e+000
4602800280.028	0.000000e+000	0.000000e+000	3.295897e-001	-1.783112e-001	0.000000e+000	0.000000e+000	0.000000e+000	0.000000e+000
4602820282.028	0.000000e+000	0.000000e+000	3.287386e-001	-1.859033e-001	0.000000e+000	0.000000e+000	0.000000e+000	0.000000e+000
4602840284.028	0.000000e+000	0.000000e+000	3.274510e-001	-1.929959e-001	0.000000e+000	0.000000e+000	0.000000e+000	0.000000e+000
4602860286.029	0.000000e+000	0.000000e+000	3.258894e-001	-1.993969e-001	0.000000e+000	0.000000e+000	0.000000e+000	0.000000e+000
4602880288.029	0.000000e+000	0.000000e+000	3.240515e-001	-2.056810e-001	0.000000e+000	0.000000e+000	0.000000e+000	0.000000e+000
4602900290.029	0.000000e+000	0.000000e+000	3.219845e-001	-2.115193e-001	0.000000e+000	0.000000e+000	0.000000e+000	0.000000e+000
4602920292.029	0.000000e+000	0.000000e+000	3.197830e-001	-2.171400e-001	0.000000e+000	0.000000e+000	0.000000e+000	0.000000e+000
4602940294.029	0.000000e+000	0.000000e+000	3.175237e-001	-2.223731e-001	0.000000e+000	0.000000e+000	0.000000e+000	0.000000e+000
4602960296.030	0.000000e+000	0.000000e+000	3.150936e-001	-2.274330e-001	0.000000e+000	0.000000e+000	0.000000e+000	0.000000e+000
4602980298.030	0.000000e+000	0.000000e+000	3.127229e-001	-2.323992e-001	0.000000e+000	0.000000e+000	0.000000e+000	0.000000e+000
4603000300.030	0.000000e+000	0.000000e+000	3.100120e-001	-2.369002e-001	0.000000e+000	0.000000e+000	0.000000e+000	0.000000e+000
4603020302.030	0.000000e+000	0.000000e+000	3.074828e-001	-2.414962e-001	0.000000e+000	0.000000e+000	0.000000e+000	0.000000e+000
4603040304.030	0.000000e+000	0.000000e+000	3.048161e-001	-2.458365e-001	0.000000e+000	0.000000e+000	0.000000e+000	0.000000e+000
4603060306.031	0.000000e+000	0.000000e+000	3.019911e-001	-2.500030e-001	0.000000e+000	0.000000e+000	0.000000e+000	0.000000e+000
