!Keysight Technologies,E5063A,MY54502693,A.05.04
!Date: Sat Feb 27 20:02:02 2021
!Data & Calibration Information:
!Freq	S11:NONE(--)	S21:NONE(--)	S12:NONE(--)	S22:NONE(--)
# Hz S RI R 50
4200000000.000	0.000000e+000	0.000000e+000	-4.424225e-001	-1.625840e-001	0.000000e+000	0.000000e+000	0.000000e+000	0.000000e+000
4200020002.000	0.000000e+000	0.000000e+000	-4.439805e-001	-1.571318e-001	0.000000e+000	0.000000e+000	0.000000e+000	0.000000e+000
4200040004.000	0.000000e+000	0.000000e+000	-4.456318e-001	-1.516950e-001	0.000000e+000	0.000000e+000	0.000000e+000	0.000000e+000
4200060006.001	0.000000e+000	0.000000e+000	-4.472114e-001	-1.462786e-001	0.000000e+000	0.000000e+000	0.000000e+000	0.000000e+000
4200080008.001	0.000000e+000	0.000000e+000	-4.485155e-001	-1.409170e-001	0.000000e+000	0.000000e+000	0.000000e+000	0.000000e+000
4200100010.001	0.000000e+000	0.000000e+000	-4.499385e-001	-1.355139e-001	0.000000e+000	0.000000e+000	0.000000e+000	0.000000e+000
4200120012.001	0.000000e+000	0.000000e+000	-4.512408e-001	-1.301555e-001	0.000000e+000	0.000000e+000	0.000000e+000	0.000000e+000
4200140014.001	0.000000e+000	0.000000e+000	-4.523937e-001	-1.248243e-001	0.000000e+000	0.000000e+000	0.000000e+000	0.000000e+000
4200160016.002	0.000000e+000	0.000000e+000	-4.534090e-001	-1.194959e-001	0.000000e+000	0.000000e+000	0.000000e+000	0.000000e+000
4200180018.002	0.000000e+000	0.000000e+000	-4.544621e-001	-1.141151e-001	0.000000e+000	0.000000e+000	0.000000e+000	0.000000e+000
4200200020.002	0.000000e+000	0.000000e+000	-4.554074e-001	-1.086876e-001	0.000000e+000	0.000000e+000	0.000000e+000	0.000000e+000
4200220022.002	0.000000e+000	0.000000e+000	-4.562731e-001	-1.033182e-001	0.000000e+000	0.000000e+000	0.000000e+000	0.000000e+000
4200240024.002	0.000000e+000	0.000000e+000	-4.571475e-001	-9.794839e-002	0.000000e+000	0.000000e+000	0.000000e+000	0.000000e+000
4200260026.003	0.000000e+000	0.000000e+000	-4.579030e-001	-9.255012e-002	0.000000e+000	0.000000e+000	0.000000e+000	0.000000e+000
4200280028.003	0.000000e+000	0.000000e+000	-4.584075e-001	-8.715952e-002	0.000000e+000	0.000000e+000	0.000000e+000	0.000000e+000
4200300030.003	0.000000e+000	0.000000e+000	-4.590093e-001	-8.166650e-002	0.000000e+000	0.000000e+000	0.000000e+000	0.000000e+000
4200320032.003	0.000000e+000	0.000000e+000	-4.595642e-001	-7.617832e-002	0.000000e+000	0.000000e+000	0.000000e+000	0.000000e+000
4200340034.003	0.000000e+000	0.000000e+000	-4.598019e-001	-7.065142e-002	0.000000e+000	0.000000e+000	0.000000e+000	0.000000e+000
4200360036.004	0.000000e+000	0.000000e+000	-4.602373e-001	-6.500532e-002	0.000000e+000	0.000000e+000	0.000000e+000	0.000000e+000
4200380038.004	0.000000e+000	0.000000e+000	-4.604790e-001	-5.933815e-002	0.000000e+000	0.000000e+000	0.000000e+000	0.000000e+000
4200400040.004	0.000000e+000	0.000000e+000	-4.605996e-001	-5.356686e-002	0.000000e+000	0.000000e+000	0.000000e+000	0.000000e+000
4200420042.004	0.000000e+000	0.000000e+000	-4.605889e-001	-4.781043e-002	0.000000e+000	0.000000e+000	0.000000e+000	0.000000e+000
4200440044.004	0.000000e+000	0.000000e+000	-4.604907e-001	-4.189388e-002	0.000000e+000	0.000000e+000	0.000000e+000	0.000000e+000
4200460046.005	0.000000e+000	0.000000e+000	-4.602886e-001	-3.588864e-002	0.000000e+000	0.000000e+000	0.000000e+000	0.000000e+000
4200480048.005	0.000000e+000	0.000000e+000	-4.598744e-001	-2.983012e-002	0.000000e+000	0.000000e+000	0.000000e+000	0.000000e+000
4200500050.005	0.000000e+000	0.000000e+000	-4.592842e-001	-2.362676e-002	0.000000e+000	0.000000e+000	0.000000e+000	0.000000e+000
4200520052.005	0.000000e+000	0.000000e+000	-4.586872e-001	-1.721614e-002	0.000000e+000	0.000000e+000	0.000000e+000	0.000000e+000
4200540054.005	0.000000e+000	0.000000e+000	-4.577367e-001	-1.074606e-002	0.000000e+000	0.000000e+000	0.000000e+000	0.000000e+000
4200560056.006	0.000000e+000	0.000000e+000	-4.567043e-001	-4.034472e-003	0.000000e+000	0.000000e+000	0.000000e+000	0.000000e+000
4200580058.006	0.000000e+000	0.000000e+000	-4.553867e-001	2.877379e-003	0.000000e+000	0.000000e+000	0.000000e+000	0.000000e+000
4200600060.006	0.000000e+000	0.000000e+000	-4.537295e-001	9.940748e-003	0.000000e+000	0.000000e+000	0.000000e+000	0.000000e+000
4200620062.006	0.000000e+000	0.000000e+000	-4.518106e-001	1.737049e-002	0.000000e+000	0.000000e+000	0.000000e+000	0.000000e+000
4200640064.006	0.000000e+000	0.000000e+000	-4.494800e-001	2.506241e-002	0.000000e+000	0.000000e+000	0.000000e+000	0.000000e+000
4200660066.007	0.000000e+000	0.000000e+000	-4.466117e-001	3.316503e-002	0.000000e+000	0.000000e+000	0.000000e+000	0.000000e+000
4200680068.007	0.000000e+000	0.000000e+000	-4.431375e-001	4.147697e-002	0.000000e+000	0.000000e+000	0.000000e+000	0.000000e+000
4200700070.007	0.000000e+000	0.000000e+000	-4.390483e-001	5.037930e-002	0.000000e+000	0.000000e+000	0.000000e+000	0.000000e+000
4200720072.007	0.000000e+000	0.000000e+000	-4.338941e-001	5.993423e-002	0.000000e+000	0.000000e+000	0.000000e+000	0.000000e+000
4200740074.007	0.000000e+000	0.000000e+000	-4.274710e-001	6.984065e-002	0.000000e+000	0.000000e+000	0.000000e+000	0.000000e+000
4200760076.008	0.000000e+000	0.000000e+000	-4.196024e-001	8.051518e-002	0.000000e+000	0.000000e+000	0.000000e+000	0.000000e+000
4200780078.008	0.000000e+000	0.000000e+000	-4.095747e-001	9.178360e-002	0.000000e+000	0.000000e+000	0.000000e+000	0.000000e+000
4200800080.008	0.000000e+000	0.000000e+000	-3.965486e-001	1.034799e-001	0.000000e+000	0.000000e+000	0.000000e+000	0.000000e+000
4200820082.008	0.000000e+000	0.000000e+000	-3.800362e-001	1.152486e-001	0.000000e+000	0.000000e+000	0.000000e+000	0.000000e+000
4200840084.008	0.000000e+000	0.000000e+000	-3.578974e-001	1.264141e-001	0.000000e+000	0.000000e+000	0.000000e+000	0.000000e+000
4200860086.009	0.000000e+000	0.000000e+000	-3.285013e-001	1.350285e-001	0.000000e+000	0.000000e+000	0.000000e+000	0.000000e+000
4200880088.009	0.000000e+000	0.000000e+000	-2.897667e-001	1.371067e-001	0.000000e+000	0.000000e+000	0.000000e+000	0.000000e+000
4200900090.009	0.000000e+000	0.000000e+000	-2.410692e-001	1.251158e-001	0.000000e+000	0.000000e+000	0.000000e+000	0.000000e+000
4200920092.009	0.000000e+000	0.000000e+000	-1.878978e-001	8.651036e-002	0.000000e+000	0.000000e+000	0.000000e+000	0.000000e+000
4200940094.009	0.000000e+000	0.000000e+000	-1.512748e-001	1.025891e-002	0.000000e+000	0.000000e+000	0.000000e+000	0.000000e+000
4200960096.010	0.000000e+000	0.000000e+000	-1.671491e-001	-8.934170e-002	0.000000e+000	0.000000e+000	0.000000e+000	0.000000e+000
4200980098.010	0.000000e+000	0.000000e+000	-2.419931e-001	-1.603950e-001	0.000000e+000	0.000000e+000	0.000000e+000	0.000000e+000
4201000100.010	0.000000e+000	0.000000e+000	-3.282057e-001	-1.737076e-001	0.000000e+000	0.000000e+000	0.000000e+000	0.000000e+000
4201020102.010	0.000000e+000	0.000000e+000	-3.894159e-001	-1.531482e-001	0.000000e+000	0.000000e+000	0.000000e+000	0.000000e+000
4201040104.010	0.000000e+000	0.000000e+000	-4.259905e-001	-1.242363e-001	0.000000e+000	0.000000e+000	0.000000e+000	0.000000e+000
4201060106.011	0.000000e+000	0.000000e+000	-4.469692e-001	-9.735336e-002	0.000000e+000	0.000000e+000	0.000000e+000	0.000000e+000
4201080108.011	0.000000e+000	0.000000e+000	-4.593453e-001	-7.386959e-002	0.000000e+000	0.000000e+000	0.000000e+000	0.000000e+000
4201100110.011	0.000000e+000	0.000000e+000	-4.668270e-001	-5.398806e-002	0.000000e+000	0.000000e+000	0.000000e+000	0.000000e+000
4201120112.011	0.000000e+000	0.000000e+000	-4.713056e-001	-3.690968e-002	0.000000e+000	0.000000e+000	0.000000e+000	0.000000e+000
4201140114.011	0.000000e+000	0.000000e+000	-4.739259e-001	-2.200682e-002	0.000000e+000	0.000000e+000	0.000000e+000	0.000000e+000
4201160116.012	0.000000e+000	0.000000e+000	-4.755482e-001	-8.716063e-003	0.000000e+000	0.000000e+000	0.000000e+000	0.000000e+000
4201180118.012	0.000000e+000	0.000000e+000	-4.763022e-001	3.019105e-003	0.000000e+000	0.000000e+000	0.000000e+000	0.000000e+000
4201200120.012	0.000000e+000	0.000000e+000	-4.764797e-001	1.386580e-002	0.000000e+000	0.000000e+000	0.000000e+000	0.000000e+000
4201220122.012	0.000000e+000	0.000000e+000	-4.763164e-001	2.381583e-002	0.000000e+000	0.000000e+000	0.000000e+000	0.000000e+000
4201240124.012	0.000000e+000	0.000000e+000	-4.757998e-001	3.321882e-002	0.000000e+000	0.000000e+000	0.000000e+000	0.000000e+000
4201260126.013	0.000000e+000	0.000000e+000	-4.749357e-001	4.188814e-002	0.000000e+000	0.000000e+000	0.000000e+000	0.000000e+000
4201280128.013	0.000000e+000	0.000000e+000	-4.740197e-001	5.020918e-002	0.000000e+000	0.000000e+000	0.000000e+000	0.000000e+000
4201300130.013	0.000000e+000	0.000000e+000	-4.730361e-001	5.821243e-002	0.000000e+000	0.000000e+000	0.000000e+000	0.000000e+000
4201320132.013	0.000000e+000	0.000000e+000	-4.716961e-001	6.574941e-002	0.000000e+000	0.000000e+000	0.000000e+000	0.000000e+000
4201340134.013	0.000000e+000	0.000000e+000	-4.702979e-001	7.305921e-002	0.000000e+000	0.000000e+000	0.000000e+000	0.000000e+000
4201360136.014	0.000000e+000	0.000000e+000	-4.688704e-001	8.021946e-002	0.000000e+000	0.000000e+000	0.000000e+000	0.000000e+000
4201380138.014	0.000000e+000	0.000000e+000	-4.672329e-001	8.714858e-002	0.000000e+000	0.000000e+000	0.000000e+000	0.000000e+000
4201400140.014	0.000000e+000	0.000000e+000	-4.655383e-001	9.382625e-002	0.000000e+000	0.000000e+000	0.000000e+000	0.000000e+000
4201420142.014	0.000000e+000	0.000000e+000	-4.638156e-001	1.004813e-001	0.000000e+000	0.000000e+000	0.000000e+000	0.000000e+000
4201440144.014	0.000000e+000	0.000000e+000	-4.619977e-001	1.070007e-001	0.000000e+000	0.000000e+000	0.000000e+000	0.000000e+000
4201460146.015	0.000000e+000	0.000000e+000	-4.599179e-001	1.132930e-001	0.000000e+000	0.000000e+000	0.000000e+000	0.000000e+000
4201480148.015	0.000000e+000	0.000000e+000	-4.578530e-001	1.196173e-001	0.000000e+000	0.000000e+000	0.000000e+000	0.000000e+000
4201500150.015	0.000000e+000	0.000000e+000	-4.557039e-001	1.259907e-001	0.000000e+000	0.000000e+000	0.000000e+000	0.000000e+000
4201520152.015	0.000000e+000	0.000000e+000	-4.532283e-001	1.321614e-001	0.000000e+000	0.000000e+000	0.000000e+000	0.000000e+000
4201540154.015	0.000000e+000	0.000000e+000	-4.508286e-001	1.383751e-001	0.000000e+000	0.000000e+000	0.000000e+000	0.000000e+000
4201560156.016	0.000000e+000	0.000000e+000	-4.482439e-001	1.446892e-001	0.000000e+000	0.000000e+000	0.000000e+000	0.000000e+000
4201580158.016	0.000000e+000	0.000000e+000	-4.454062e-001	1.507672e-001	0.000000e+000	0.000000e+000	0.000000e+000	0.000000e+000
4201600160.016	0.000000e+000	0.000000e+000	-4.425399e-001	1.570123e-001	0.000000e+000	0.000000e+000	0.000000e+000	0.000000e+000
4201620162.016	0.000000e+000	0.000000e+000	-4.394706e-001	1.633446e-001	0.000000e+000	0.000000e+000	0.000000e+000	0.000000e+000
4201640164.016	0.000000e+000	0.000000e+000	-4.360915e-001	1.697197e-001	0.000000e+000	0.000000e+000	0.000000e+000	0.000000e+000
4201660166.017	0.000000e+000	0.000000e+000	-4.324469e-001	1.760035e-001	0.000000e+000	0.000000e+000	0.000000e+000	0.000000e+000
4201680168.017	0.000000e+000	0.000000e+000	-4.285515e-001	1.824795e-001	0.000000e+000	0.000000e+000	0.000000e+000	0.000000e+000
4201700170.017	0.000000e+000	0.000000e+000	-4.244015e-001	1.891577e-001	0.000000e+000	0.000000e+000	0.000000e+000	0.000000e+000
4201720172.017	0.000000e+000	0.000000e+000	-4.197261e-001	1.957501e-001	0.000000e+000	0.000000e+000	0.000000e+000	0.000000e+000
4201740174.017	0.000000e+000	0.000000e+000	-4.146507e-001	2.026629e-001	0.000000e+000	0.000000e+000	0.000000e+000	0.000000e+000
4201760176.018	0.000000e+000	0.000000e+000	-4.090031e-001	2.097521e-001	0.000000e+000	0.000000e+000	0.000000e+000	0.000000e+000
4201780178.018	0.000000e+000	0.000000e+000	-4.025919e-001	2.169884e-001	0.000000e+000	0.000000e+000	0.000000e+000	0.000000e+000
4201800180.018	0.000000e+000	0.000000e+000	-3.952899e-001	2.243763e-001	0.000000e+000	0.000000e+000	0.000000e+000	0.000000e+000
4201820182.018	0.000000e+000	0.000000e+000	-3.869224e-001	2.322257e-001	0.000000e+000	0.000000e+000	0.000000e+000	0.000000e+000
4201840184.018	0.000000e+000	0.000000e+000	-3.770633e-001	2.400932e-001	0.000000e+000	0.000000e+000	0.000000e+000	0.000000e+000
4201860186.019	0.000000e+000	0.000000e+000	-3.654756e-001	2.480260e-001	0.000000e+000	0.000000e+000	0.000000e+000	0.000000e+000
4201880188.019	0.000000e+000	0.000000e+000	-3.514567e-001	2.560166e-001	0.000000e+000	0.000000e+000	0.000000e+000	0.000000e+000
4201900190.019	0.000000e+000	0.000000e+000	-3.342697e-001	2.637777e-001	0.000000e+000	0.000000e+000	0.000000e+000	0.000000e+000
4201920192.019	0.000000e+000	0.000000e+000	-3.125408e-001	2.701548e-001	0.000000e+000	0.000000e+000	0.000000e+000	0.000000e+000
4201940194.019	0.000000e+000	0.000000e+000	-2.852865e-001	2.740007e-001	0.000000e+000	0.000000e+000	0.000000e+000	0.000000e+000
4201960196.020	0.000000e+000	0.000000e+000	-2.505029e-001	2.722526e-001	0.000000e+000	0.000000e+000	0.000000e+000	0.000000e+000
4201980198.020	0.000000e+000	0.000000e+000	-2.070936e-001	2.583383e-001	0.000000e+000	0.000000e+000	0.000000e+000	0.000000e+000
4202000200.020	0.000000e+000	0.000000e+000	-1.587318e-001	2.220055e-001	0.000000e+000	0.000000e+000	0.000000e+000	0.000000e+000
4202020202.020	0.000000e+000	0.000000e+000	-1.210327e-001	1.490630e-001	0.000000e+000	0.000000e+000	0.000000e+000	0.000000e+000
4202040204.020	0.000000e+000	0.000000e+000	-1.331447e-001	4.340126e-002	0.000000e+000	0.000000e+000	0.000000e+000	0.000000e+000
4202060206.021	0.000000e+000	0.000000e+000	-2.203356e-001	-3.857356e-002	0.000000e+000	0.000000e+000	0.000000e+000	0.000000e+000
4202080208.021	0.000000e+000	0.000000e+000	-3.292004e-001	-4.436340e-002	0.000000e+000	0.000000e+000	0.000000e+000	0.000000e+000
4202100210.021	0.000000e+000	0.000000e+000	-3.997239e-001	-2.933697e-003	0.000000e+000	0.000000e+000	0.000000e+000	0.000000e+000
4202120212.021	0.000000e+000	0.000000e+000	-4.324434e-001	4.268482e-002	0.000000e+000	0.000000e+000	0.000000e+000	0.000000e+000
4202140214.021	0.000000e+000	0.000000e+000	-4.456875e-001	8.031126e-002	0.000000e+000	0.000000e+000	0.000000e+000	0.000000e+000
4202160216.022	0.000000e+000	0.000000e+000	-4.498744e-001	1.093986e-001	0.000000e+000	0.000000e+000	0.000000e+000	0.000000e+000
4202180218.022	0.000000e+000	0.000000e+000	-4.498002e-001	1.322286e-001	0.000000e+000	0.000000e+000	0.000000e+000	0.000000e+000
4202200220.022	0.000000e+000	0.000000e+000	-4.477719e-001	1.508430e-001	0.000000e+000	0.000000e+000	0.000000e+000	0.000000e+000
4202220222.022	0.000000e+000	0.000000e+000	-4.448684e-001	1.664812e-001	0.000000e+000	0.000000e+000	0.000000e+000	0.000000e+000
4202240224.022	0.000000e+000	0.000000e+000	-4.413591e-001	1.796495e-001	0.000000e+000	0.000000e+000	0.000000e+000	0.000000e+000
4202260226.023	0.000000e+000	0.000000e+000	-4.376905e-001	1.910821e-001	0.000000e+000	0.000000e+000	0.000000e+000	0.000000e+000
4202280228.023	0.000000e+000	0.000000e+000	-4.338555e-001	2.013939e-001	0.000000e+000	0.000000e+000	0.000000e+000	0.000000e+000
4202300230.023	0.000000e+000	0.000000e+000	-4.299778e-001	2.108117e-001	0.000000e+000	0.000000e+000	0.000000e+000	0.000000e+000
4202320232.023	0.000000e+000	0.000000e+000	-4.261249e-001	2.192771e-001	0.000000e+000	0.000000e+000	0.000000e+000	0.000000e+000
4202340234.023	0.000000e+000	0.000000e+000	-4.222274e-001	2.272627e-001	0.000000e+000	0.000000e+000	0.000000e+000	0.000000e+000
4202360236.024	0.000000e+000	0.000000e+000	-4.182693e-001	2.346089e-001	0.000000e+000	0.000000e+000	0.000000e+000	0.000000e+000
4202380238.024	0.000000e+000	0.000000e+000	-4.143490e-001	2.414614e-001	0.000000e+000	0.000000e+000	0.000000e+000	0.000000e+000
4202400240.024	0.000000e+000	0.000000e+000	-4.104127e-001	2.480627e-001	0.000000e+000	0.000000e+000	0.000000e+000	0.000000e+000
4202420242.024	0.000000e+000	0.000000e+000	-4.065192e-001	2.544921e-001	0.000000e+000	0.000000e+000	0.000000e+000	0.000000e+000
4202440244.024	0.000000e+000	0.000000e+000	-4.025206e-001	2.604551e-001	0.000000e+000	0.000000e+000	0.000000e+000	0.000000e+000
4202460246.025	0.000000e+000	0.000000e+000	-3.986093e-001	2.662965e-001	0.000000e+000	0.000000e+000	0.000000e+000	0.000000e+000
4202480248.025	0.000000e+000	0.000000e+000	-3.946464e-001	2.719991e-001	0.000000e+000	0.000000e+000	0.000000e+000	0.000000e+000
4202500250.025	0.000000e+000	0.000000e+000	-3.906395e-001	2.774933e-001	0.000000e+000	0.000000e+000	0.000000e+000	0.000000e+000
4202520252.025	0.000000e+000	0.000000e+000	-3.864952e-001	2.827441e-001	0.000000e+000	0.000000e+000	0.000000e+000	0.000000e+000
4202540254.025	0.000000e+000	0.000000e+000	-3.823406e-001	2.880315e-001	0.000000e+000	0.000000e+000	0.000000e+000	0.000000e+000
4202560256.026	0.000000e+000	0.000000e+000	-3.781290e-001	2.932288e-001	0.000000e+000	0.000000e+000	0.000000e+000	0.000000e+000
4202580258.026	0.000000e+000	0.000000e+000	-3.737496e-001	2.981221e-001	0.000000e+000	0.000000e+000	0.000000e+000	0.000000e+000
4202600260.026	0.000000e+000	0.000000e+000	-3.694313e-001	3.032238e-001	0.000000e+000	0.000000e+000	0.000000e+000	0.000000e+000
4202620262.026	0.000000e+000	0.000000e+000	-3.649497e-001	3.082560e-001	0.000000e+000	0.000000e+000	0.000000e+000	0.000000e+000
4202640264.026	0.000000e+000	0.000000e+000	-3.602745e-001	3.130728e-001	0.000000e+000	0.000000e+000	0.000000e+000	0.000000e+000
4202660266.027	0.000000e+000	0.000000e+000	-3.554874e-001	3.179608e-001	0.000000e+000	0.000000e+000	0.000000e+000	0.000000e+000
4202680268.027	0.000000e+000	0.000000e+000	-3.505008e-001	3.228700e-001	0.000000e+000	0.000000e+000	0.000000e+000	0.000000e+000
4202700270.027	0.000000e+000	0.000000e+000	-3.452655e-001	3.276570e-001	0.000000e+000	0.000000e+000	0.000000e+000	0.000000e+000
4202720272.027	0.000000e+000	0.000000e+000	-3.398197e-001	3.325548e-001	0.000000e+000	0.000000e+000	0.000000e+000	0.000000e+000
4202740274.027	0.000000e+000	0.000000e+000	-3.340780e-001	3.374417e-001	0.000000e+000	0.000000e+000	0.000000e+000	0.000000e+000
4202760276.028	0.000000e+000	0.000000e+000	-3.279178e-001	3.423803e-001	0.000000e+000	0.000000e+000	0.000000e+000	0.000000e+000
4202780278.028	0.000000e+000	0.000000e+000	-3.212928e-001	3.471899e-001	0.000000e+000	0.000000e+000	0.000000e+000	0.000000e+000
4202800280.028	0.000000e+000	0.000000e+000	-3.142233e-001	3.521666e-001	0.000000e+000	0.000000e+000	0.000000e+000	0.000000e+000
4202820282.028	0.000000e+000	0.000000e+000	-3.063921e-001	3.573198e-001	0.000000e+000	0.000000e+000	0.000000e+000	0.000000e+000
4202840284.028	0.000000e+000	0.000000e+000	-2.976071e-001	3.621298e-001	0.000000e+000	0.000000e+000	0.000000e+000	0.000000e+000
4202860286.029	0.000000e+000	0.000000e+000	-2.878223e-001	3.672379e-001	0.000000e+000	0.000000e+000	0.000000e+000	0.000000e+000
4202880288.029	0.000000e+000	0.000000e+000	-2.766027e-001	3.724212e-001	0.000000e+000	0.000000e+000	0.000000e+000	0.000000e+000
4202900290.029	0.000000e+000	0.000000e+000	-2.634927e-001	3.770733e-001	0.000000e+000	0.000000e+000	0.000000e+000	0.000000e+000
4202920292.029	0.000000e+000	0.000000e+000	-2.477507e-001	3.813340e-001	0.000000e+000	0.000000e+000	0.000000e+000	0.000000e+000
4202940294.029	0.000000e+000	0.000000e+000	-2.284407e-001	3.845766e-001	0.000000e+000	0.000000e+000	0.000000e+000	0.000000e+000
4202960296.030	0.000000e+000	0.000000e+000	-2.044984e-001	3.852061e-001	0.000000e+000	0.000000e+000	0.000000e+000	0.000000e+000
4202980298.030	0.000000e+000	0.000000e+000	-1.741787e-001	3.808380e-001	0.000000e+000	0.000000e+000	0.000000e+000	0.000000e+000
4203000300.030	0.000000e+000	0.000000e+000	-1.361763e-001	3.658959e-001	0.000000e+000	0.000000e+000	0.000000e+000	0.000000e+000
4203020302.030	0.000000e+000	0.000000e+000	-9.341755e-002	3.300328e-001	0.000000e+000	0.000000e+000	0.000000e+000	0.000000e+000
4203040304.030	0.000000e+000	0.000000e+000	-6.160746e-002	2.583475e-001	0.000000e+000	0.000000e+000	0.000000e+000	0.000000e+000
