!Keysight Technologies,E5063A,MY54502693,A.05.04
!Date: Sat Feb 27 20:19:51 2021
!Data & Calibration Information:
!Freq	S11:NONE(--)	S21:NONE(--)	S12:NONE(--)	S22:NONE(--)
# Hz S RI R 50
5000000000.000	0.000000e+000	0.000000e+000	-2.341367e-001	-1.499639e-001	0.000000e+000	0.000000e+000	0.000000e+000	0.000000e+000
5000020002.000	0.000000e+000	0.000000e+000	-2.353107e-001	-1.479747e-001	0.000000e+000	0.000000e+000	0.000000e+000	0.000000e+000
5000040004.000	0.000000e+000	0.000000e+000	-2.364190e-001	-1.461774e-001	0.000000e+000	0.000000e+000	0.000000e+000	0.000000e+000
5000060006.001	0.000000e+000	0.000000e+000	-2.375739e-001	-1.442515e-001	0.000000e+000	0.000000e+000	0.000000e+000	0.000000e+000
5000080008.001	0.000000e+000	0.000000e+000	-2.388086e-001	-1.424755e-001	0.000000e+000	0.000000e+000	0.000000e+000	0.000000e+000
5000100010.001	0.000000e+000	0.000000e+000	-2.398834e-001	-1.405774e-001	0.000000e+000	0.000000e+000	0.000000e+000	0.000000e+000
5000120012.001	0.000000e+000	0.000000e+000	-2.410319e-001	-1.386982e-001	0.000000e+000	0.000000e+000	0.000000e+000	0.000000e+000
5000140014.001	0.000000e+000	0.000000e+000	-2.421721e-001	-1.367764e-001	0.000000e+000	0.000000e+000	0.000000e+000	0.000000e+000
5000160016.002	0.000000e+000	0.000000e+000	-2.432587e-001	-1.348944e-001	0.000000e+000	0.000000e+000	0.000000e+000	0.000000e+000
5000180018.002	0.000000e+000	0.000000e+000	-2.441971e-001	-1.329677e-001	0.000000e+000	0.000000e+000	0.000000e+000	0.000000e+000
5000200020.002	0.000000e+000	0.000000e+000	-2.453203e-001	-1.310114e-001	0.000000e+000	0.000000e+000	0.000000e+000	0.000000e+000
5000220022.002	0.000000e+000	0.000000e+000	-2.463552e-001	-1.289252e-001	0.000000e+000	0.000000e+000	0.000000e+000	0.000000e+000
5000240024.002	0.000000e+000	0.000000e+000	-2.473874e-001	-1.271468e-001	0.000000e+000	0.000000e+000	0.000000e+000	0.000000e+000
5000260026.003	0.000000e+000	0.000000e+000	-2.482841e-001	-1.251545e-001	0.000000e+000	0.000000e+000	0.000000e+000	0.000000e+000
5000280028.003	0.000000e+000	0.000000e+000	-2.492735e-001	-1.232156e-001	0.000000e+000	0.000000e+000	0.000000e+000	0.000000e+000
5000300030.003	0.000000e+000	0.000000e+000	-2.502312e-001	-1.213402e-001	0.000000e+000	0.000000e+000	0.000000e+000	0.000000e+000
5000320032.003	0.000000e+000	0.000000e+000	-2.512916e-001	-1.192611e-001	0.000000e+000	0.000000e+000	0.000000e+000	0.000000e+000
5000340034.003	0.000000e+000	0.000000e+000	-2.522066e-001	-1.172425e-001	0.000000e+000	0.000000e+000	0.000000e+000	0.000000e+000
5000360036.004	0.000000e+000	0.000000e+000	-2.531965e-001	-1.152589e-001	0.000000e+000	0.000000e+000	0.000000e+000	0.000000e+000
5000380038.004	0.000000e+000	0.000000e+000	-2.540076e-001	-1.133262e-001	0.000000e+000	0.000000e+000	0.000000e+000	0.000000e+000
5000400040.004	0.000000e+000	0.000000e+000	-2.549568e-001	-1.112255e-001	0.000000e+000	0.000000e+000	0.000000e+000	0.000000e+000
5000420042.004	0.000000e+000	0.000000e+000	-2.558246e-001	-1.092658e-001	0.000000e+000	0.000000e+000	0.000000e+000	0.000000e+000
5000440044.004	0.000000e+000	0.000000e+000	-2.566680e-001	-1.072372e-001	0.000000e+000	0.000000e+000	0.000000e+000	0.000000e+000
5000460046.005	0.000000e+000	0.000000e+000	-2.575157e-001	-1.052094e-001	0.000000e+000	0.000000e+000	0.000000e+000	0.000000e+000
5000480048.005	0.000000e+000	0.000000e+000	-2.583118e-001	-1.031385e-001	0.000000e+000	0.000000e+000	0.000000e+000	0.000000e+000
5000500050.005	0.000000e+000	0.000000e+000	-2.591947e-001	-1.011009e-001	0.000000e+000	0.000000e+000	0.000000e+000	0.000000e+000
5000520052.005	0.000000e+000	0.000000e+000	-2.600535e-001	-9.905309e-002	0.000000e+000	0.000000e+000	0.000000e+000	0.000000e+000
5000540054.005	0.000000e+000	0.000000e+000	-2.608395e-001	-9.702314e-002	0.000000e+000	0.000000e+000	0.000000e+000	0.000000e+000
5000560056.006	0.000000e+000	0.000000e+000	-2.615204e-001	-9.492495e-002	0.000000e+000	0.000000e+000	0.000000e+000	0.000000e+000
5000580058.006	0.000000e+000	0.000000e+000	-2.622187e-001	-9.292188e-002	0.000000e+000	0.000000e+000	0.000000e+000	0.000000e+000
5000600060.006	0.000000e+000	0.000000e+000	-2.629987e-001	-9.087221e-002	0.000000e+000	0.000000e+000	0.000000e+000	0.000000e+000
5000620062.006	0.000000e+000	0.000000e+000	-2.638122e-001	-8.872134e-002	0.000000e+000	0.000000e+000	0.000000e+000	0.000000e+000
5000640064.006	0.000000e+000	0.000000e+000	-2.644114e-001	-8.666946e-002	0.000000e+000	0.000000e+000	0.000000e+000	0.000000e+000
5000660066.007	0.000000e+000	0.000000e+000	-2.651404e-001	-8.453427e-002	0.000000e+000	0.000000e+000	0.000000e+000	0.000000e+000
5000680068.007	0.000000e+000	0.000000e+000	-2.658000e-001	-8.240758e-002	0.000000e+000	0.000000e+000	0.000000e+000	0.000000e+000
5000700070.007	0.000000e+000	0.000000e+000	-2.663828e-001	-8.037807e-002	0.000000e+000	0.000000e+000	0.000000e+000	0.000000e+000
5000720072.007	0.000000e+000	0.000000e+000	-2.670774e-001	-7.822830e-002	0.000000e+000	0.000000e+000	0.000000e+000	0.000000e+000
5000740074.007	0.000000e+000	0.000000e+000	-2.677425e-001	-7.610042e-002	0.000000e+000	0.000000e+000	0.000000e+000	0.000000e+000
5000760076.008	0.000000e+000	0.000000e+000	-2.683190e-001	-7.398682e-002	0.000000e+000	0.000000e+000	0.000000e+000	0.000000e+000
5000780078.008	0.000000e+000	0.000000e+000	-2.689084e-001	-7.188291e-002	0.000000e+000	0.000000e+000	0.000000e+000	0.000000e+000
5000800080.008	0.000000e+000	0.000000e+000	-2.694600e-001	-6.976553e-002	0.000000e+000	0.000000e+000	0.000000e+000	0.000000e+000
5000820082.008	0.000000e+000	0.000000e+000	-2.700670e-001	-6.769333e-002	0.000000e+000	0.000000e+000	0.000000e+000	0.000000e+000
5000840084.008	0.000000e+000	0.000000e+000	-2.705567e-001	-6.556213e-002	0.000000e+000	0.000000e+000	0.000000e+000	0.000000e+000
5000860086.009	0.000000e+000	0.000000e+000	-2.710805e-001	-6.340804e-002	0.000000e+000	0.000000e+000	0.000000e+000	0.000000e+000
5000880088.009	0.000000e+000	0.000000e+000	-2.717224e-001	-6.123972e-002	0.000000e+000	0.000000e+000	0.000000e+000	0.000000e+000
5000900090.009	0.000000e+000	0.000000e+000	-2.721395e-001	-5.905818e-002	0.000000e+000	0.000000e+000	0.000000e+000	0.000000e+000
5000920092.009	0.000000e+000	0.000000e+000	-2.726039e-001	-5.705757e-002	0.000000e+000	0.000000e+000	0.000000e+000	0.000000e+000
5000940094.009	0.000000e+000	0.000000e+000	-2.729906e-001	-5.475865e-002	0.000000e+000	0.000000e+000	0.000000e+000	0.000000e+000
5000960096.010	0.000000e+000	0.000000e+000	-2.734488e-001	-5.266281e-002	0.000000e+000	0.000000e+000	0.000000e+000	0.000000e+000
5000980098.010	0.000000e+000	0.000000e+000	-2.738737e-001	-5.037323e-002	0.000000e+000	0.000000e+000	0.000000e+000	0.000000e+000
5001000100.010	0.000000e+000	0.000000e+000	-2.743672e-001	-4.827675e-002	0.000000e+000	0.000000e+000	0.000000e+000	0.000000e+000
5001020102.010	0.000000e+000	0.000000e+000	-2.747569e-001	-4.611286e-002	0.000000e+000	0.000000e+000	0.000000e+000	0.000000e+000
5001040104.010	0.000000e+000	0.000000e+000	-2.750257e-001	-4.389323e-002	0.000000e+000	0.000000e+000	0.000000e+000	0.000000e+000
5001060106.011	0.000000e+000	0.000000e+000	-2.753815e-001	-4.170872e-002	0.000000e+000	0.000000e+000	0.000000e+000	0.000000e+000
5001080108.011	0.000000e+000	0.000000e+000	-2.757203e-001	-3.953605e-002	0.000000e+000	0.000000e+000	0.000000e+000	0.000000e+000
5001100110.011	0.000000e+000	0.000000e+000	-2.760409e-001	-3.739351e-002	0.000000e+000	0.000000e+000	0.000000e+000	0.000000e+000
5001120112.011	0.000000e+000	0.000000e+000	-2.763257e-001	-3.518248e-002	0.000000e+000	0.000000e+000	0.000000e+000	0.000000e+000
5001140114.011	0.000000e+000	0.000000e+000	-2.765750e-001	-3.303174e-002	0.000000e+000	0.000000e+000	0.000000e+000	0.000000e+000
5001160116.012	0.000000e+000	0.000000e+000	-2.768750e-001	-3.087853e-002	0.000000e+000	0.000000e+000	0.000000e+000	0.000000e+000
5001180118.012	0.000000e+000	0.000000e+000	-2.771344e-001	-2.868453e-002	0.000000e+000	0.000000e+000	0.000000e+000	0.000000e+000
5001200120.012	0.000000e+000	0.000000e+000	-2.772952e-001	-2.646046e-002	0.000000e+000	0.000000e+000	0.000000e+000	0.000000e+000
5001220122.012	0.000000e+000	0.000000e+000	-2.774640e-001	-2.421559e-002	0.000000e+000	0.000000e+000	0.000000e+000	0.000000e+000
5001240124.012	0.000000e+000	0.000000e+000	-2.777666e-001	-2.214382e-002	0.000000e+000	0.000000e+000	0.000000e+000	0.000000e+000
5001260126.013	0.000000e+000	0.000000e+000	-2.780138e-001	-1.982420e-002	0.000000e+000	0.000000e+000	0.000000e+000	0.000000e+000
5001280128.013	0.000000e+000	0.000000e+000	-2.780586e-001	-1.768075e-002	0.000000e+000	0.000000e+000	0.000000e+000	0.000000e+000
5001300130.013	0.000000e+000	0.000000e+000	-2.781755e-001	-1.552532e-002	0.000000e+000	0.000000e+000	0.000000e+000	0.000000e+000
5001320132.013	0.000000e+000	0.000000e+000	-2.784187e-001	-1.331841e-002	0.000000e+000	0.000000e+000	0.000000e+000	0.000000e+000
5001340134.013	0.000000e+000	0.000000e+000	-2.785236e-001	-1.104269e-002	0.000000e+000	0.000000e+000	0.000000e+000	0.000000e+000
5001360136.014	0.000000e+000	0.000000e+000	-2.784949e-001	-8.952868e-003	0.000000e+000	0.000000e+000	0.000000e+000	0.000000e+000
5001380138.014	0.000000e+000	0.000000e+000	-2.785485e-001	-6.607767e-003	0.000000e+000	0.000000e+000	0.000000e+000	0.000000e+000
5001400140.014	0.000000e+000	0.000000e+000	-2.787341e-001	-4.478450e-003	0.000000e+000	0.000000e+000	0.000000e+000	0.000000e+000
5001420142.014	0.000000e+000	0.000000e+000	-2.787372e-001	-2.186462e-003	0.000000e+000	0.000000e+000	0.000000e+000	0.000000e+000
5001440144.014	0.000000e+000	0.000000e+000	-2.787441e-001	-5.571107e-005	0.000000e+000	0.000000e+000	0.000000e+000	0.000000e+000
5001460146.015	0.000000e+000	0.000000e+000	-2.787918e-001	2.206894e-003	0.000000e+000	0.000000e+000	0.000000e+000	0.000000e+000
5001480148.015	0.000000e+000	0.000000e+000	-2.787161e-001	4.422368e-003	0.000000e+000	0.000000e+000	0.000000e+000	0.000000e+000
5001500150.015	0.000000e+000	0.000000e+000	-2.787264e-001	6.604086e-003	0.000000e+000	0.000000e+000	0.000000e+000	0.000000e+000
5001520152.015	0.000000e+000	0.000000e+000	-2.787006e-001	8.775701e-003	0.000000e+000	0.000000e+000	0.000000e+000	0.000000e+000
5001540154.015	0.000000e+000	0.000000e+000	-2.785883e-001	1.101518e-002	0.000000e+000	0.000000e+000	0.000000e+000	0.000000e+000
5001560156.016	0.000000e+000	0.000000e+000	-2.784924e-001	1.320442e-002	0.000000e+000	0.000000e+000	0.000000e+000	0.000000e+000
5001580158.016	0.000000e+000	0.000000e+000	-2.784036e-001	1.544498e-002	0.000000e+000	0.000000e+000	0.000000e+000	0.000000e+000
5001600160.016	0.000000e+000	0.000000e+000	-2.783425e-001	1.754765e-002	0.000000e+000	0.000000e+000	0.000000e+000	0.000000e+000
5001620162.016	0.000000e+000	0.000000e+000	-2.781692e-001	1.979807e-002	0.000000e+000	0.000000e+000	0.000000e+000	0.000000e+000
5001640164.016	0.000000e+000	0.000000e+000	-2.779893e-001	2.205729e-002	0.000000e+000	0.000000e+000	0.000000e+000	0.000000e+000
5001660166.017	0.000000e+000	0.000000e+000	-2.779192e-001	2.425811e-002	0.000000e+000	0.000000e+000	0.000000e+000	0.000000e+000
5001680168.017	0.000000e+000	0.000000e+000	-2.776360e-001	2.649968e-002	0.000000e+000	0.000000e+000	0.000000e+000	0.000000e+000
5001700170.017	0.000000e+000	0.000000e+000	-2.775199e-001	2.867094e-002	0.000000e+000	0.000000e+000	0.000000e+000	0.000000e+000
5001720172.017	0.000000e+000	0.000000e+000	-2.772859e-001	3.087072e-002	0.000000e+000	0.000000e+000	0.000000e+000	0.000000e+000
5001740174.017	0.000000e+000	0.000000e+000	-2.770512e-001	3.297347e-002	0.000000e+000	0.000000e+000	0.000000e+000	0.000000e+000
5001760176.018	0.000000e+000	0.000000e+000	-2.767423e-001	3.518252e-002	0.000000e+000	0.000000e+000	0.000000e+000	0.000000e+000
5001780178.018	0.000000e+000	0.000000e+000	-2.765376e-001	3.742378e-002	0.000000e+000	0.000000e+000	0.000000e+000	0.000000e+000
5001800180.018	0.000000e+000	0.000000e+000	-2.762239e-001	3.965534e-002	0.000000e+000	0.000000e+000	0.000000e+000	0.000000e+000
5001820182.018	0.000000e+000	0.000000e+000	-2.758272e-001	4.172122e-002	0.000000e+000	0.000000e+000	0.000000e+000	0.000000e+000
5001840184.018	0.000000e+000	0.000000e+000	-2.754724e-001	4.397109e-002	0.000000e+000	0.000000e+000	0.000000e+000	0.000000e+000
5001860186.019	0.000000e+000	0.000000e+000	-2.752102e-001	4.620070e-002	0.000000e+000	0.000000e+000	0.000000e+000	0.000000e+000
5001880188.019	0.000000e+000	0.000000e+000	-2.748419e-001	4.825796e-002	0.000000e+000	0.000000e+000	0.000000e+000	0.000000e+000
5001900190.019	0.000000e+000	0.000000e+000	-2.744284e-001	5.043024e-002	0.000000e+000	0.000000e+000	0.000000e+000	0.000000e+000
5001920192.019	0.000000e+000	0.000000e+000	-2.741486e-001	5.268390e-002	0.000000e+000	0.000000e+000	0.000000e+000	0.000000e+000
5001940194.019	0.000000e+000	0.000000e+000	-2.737342e-001	5.490179e-002	0.000000e+000	0.000000e+000	0.000000e+000	0.000000e+000
5001960196.020	0.000000e+000	0.000000e+000	-2.732599e-001	5.699517e-002	0.000000e+000	0.000000e+000	0.000000e+000	0.000000e+000
5001980198.020	0.000000e+000	0.000000e+000	-2.727718e-001	5.911822e-002	0.000000e+000	0.000000e+000	0.000000e+000	0.000000e+000
5002000200.020	0.000000e+000	0.000000e+000	-2.724092e-001	6.138661e-002	0.000000e+000	0.000000e+000	0.000000e+000	0.000000e+000
5002020202.020	0.000000e+000	0.000000e+000	-2.718064e-001	6.352535e-002	0.000000e+000	0.000000e+000	0.000000e+000	0.000000e+000
5002040204.020	0.000000e+000	0.000000e+000	-2.713229e-001	6.568243e-002	0.000000e+000	0.000000e+000	0.000000e+000	0.000000e+000
5002060206.021	0.000000e+000	0.000000e+000	-2.708722e-001	6.785655e-002	0.000000e+000	0.000000e+000	0.000000e+000	0.000000e+000
5002080208.021	0.000000e+000	0.000000e+000	-2.703046e-001	6.997169e-002	0.000000e+000	0.000000e+000	0.000000e+000	0.000000e+000
5002100210.021	0.000000e+000	0.000000e+000	-2.697586e-001	7.216047e-002	0.000000e+000	0.000000e+000	0.000000e+000	0.000000e+000
5002120212.021	0.000000e+000	0.000000e+000	-2.691906e-001	7.425130e-002	0.000000e+000	0.000000e+000	0.000000e+000	0.000000e+000
5002140214.021	0.000000e+000	0.000000e+000	-2.685983e-001	7.634903e-002	0.000000e+000	0.000000e+000	0.000000e+000	0.000000e+000
5002160216.022	0.000000e+000	0.000000e+000	-2.679792e-001	7.851790e-002	0.000000e+000	0.000000e+000	0.000000e+000	0.000000e+000
5002180218.022	0.000000e+000	0.000000e+000	-2.674449e-001	8.068538e-002	0.000000e+000	0.000000e+000	0.000000e+000	0.000000e+000
5002200220.022	0.000000e+000	0.000000e+000	-2.667752e-001	8.279854e-002	0.000000e+000	0.000000e+000	0.000000e+000	0.000000e+000
5002220222.022	0.000000e+000	0.000000e+000	-2.660841e-001	8.486156e-002	0.000000e+000	0.000000e+000	0.000000e+000	0.000000e+000
5002240224.022	0.000000e+000	0.000000e+000	-2.653806e-001	8.704056e-002	0.000000e+000	0.000000e+000	0.000000e+000	0.000000e+000
5002260226.023	0.000000e+000	0.000000e+000	-2.648042e-001	8.913309e-002	0.000000e+000	0.000000e+000	0.000000e+000	0.000000e+000
5002280228.023	0.000000e+000	0.000000e+000	-2.640082e-001	9.114772e-002	0.000000e+000	0.000000e+000	0.000000e+000	0.000000e+000
5002300230.023	0.000000e+000	0.000000e+000	-2.633796e-001	9.327462e-002	0.000000e+000	0.000000e+000	0.000000e+000	0.000000e+000
5002320232.023	0.000000e+000	0.000000e+000	-2.626492e-001	9.539872e-002	0.000000e+000	0.000000e+000	0.000000e+000	0.000000e+000
5002340234.023	0.000000e+000	0.000000e+000	-2.619259e-001	9.750118e-002	0.000000e+000	0.000000e+000	0.000000e+000	0.000000e+000
5002360236.024	0.000000e+000	0.000000e+000	-2.610767e-001	9.960116e-002	0.000000e+000	0.000000e+000	0.000000e+000	0.000000e+000
5002380238.024	0.000000e+000	0.000000e+000	-2.603696e-001	1.016118e-001	0.000000e+000	0.000000e+000	0.000000e+000	0.000000e+000
5002400240.024	0.000000e+000	0.000000e+000	-2.595135e-001	1.037204e-001	0.000000e+000	0.000000e+000	0.000000e+000	0.000000e+000
5002420242.024	0.000000e+000	0.000000e+000	-2.586349e-001	1.058008e-001	0.000000e+000	0.000000e+000	0.000000e+000	0.000000e+000
5002440244.024	0.000000e+000	0.000000e+000	-2.578445e-001	1.078741e-001	0.000000e+000	0.000000e+000	0.000000e+000	0.000000e+000
5002460246.025	0.000000e+000	0.000000e+000	-2.570451e-001	1.099053e-001	0.000000e+000	0.000000e+000	0.000000e+000	0.000000e+000
5002480248.025	0.000000e+000	0.000000e+000	-2.561836e-001	1.119734e-001	0.000000e+000	0.000000e+000	0.000000e+000	0.000000e+000
5002500250.025	0.000000e+000	0.000000e+000	-2.552737e-001	1.139679e-001	0.000000e+000	0.000000e+000	0.000000e+000	0.000000e+000
5002520252.025	0.000000e+000	0.000000e+000	-2.544105e-001	1.160365e-001	0.000000e+000	0.000000e+000	0.000000e+000	0.000000e+000
5002540254.025	0.000000e+000	0.000000e+000	-2.534815e-001	1.180307e-001	0.000000e+000	0.000000e+000	0.000000e+000	0.000000e+000
5002560256.026	0.000000e+000	0.000000e+000	-2.524816e-001	1.200572e-001	0.000000e+000	0.000000e+000	0.000000e+000	0.000000e+000
5002580258.026	0.000000e+000	0.000000e+000	-2.515533e-001	1.220086e-001	0.000000e+000	0.000000e+000	0.000000e+000	0.000000e+000
5002600260.026	0.000000e+000	0.000000e+000	-2.505931e-001	1.240919e-001	0.000000e+000	0.000000e+000	0.000000e+000	0.000000e+000
5002620262.026	0.000000e+000	0.000000e+000	-2.496544e-001	1.259970e-001	0.000000e+000	0.000000e+000	0.000000e+000	0.000000e+000
5002640264.026	0.000000e+000	0.000000e+000	-2.486133e-001	1.280841e-001	0.000000e+000	0.000000e+000	0.000000e+000	0.000000e+000
5002660266.027	0.000000e+000	0.000000e+000	-2.476803e-001	1.299248e-001	0.000000e+000	0.000000e+000	0.000000e+000	0.000000e+000
5002680268.027	0.000000e+000	0.000000e+000	-2.465939e-001	1.318943e-001	0.000000e+000	0.000000e+000	0.000000e+000	0.000000e+000
5002700270.027	0.000000e+000	0.000000e+000	-2.455616e-001	1.339482e-001	0.000000e+000	0.000000e+000	0.000000e+000	0.000000e+000
5002720272.027	0.000000e+000	0.000000e+000	-2.445973e-001	1.358864e-001	0.000000e+000	0.000000e+000	0.000000e+000	0.000000e+000
5002740274.027	0.000000e+000	0.000000e+000	-2.435012e-001	1.378159e-001	0.000000e+000	0.000000e+000	0.000000e+000	0.000000e+000
5002760276.028	0.000000e+000	0.000000e+000	-2.423161e-001	1.396765e-001	0.000000e+000	0.000000e+000	0.000000e+000	0.000000e+000
5002780278.028	0.000000e+000	0.000000e+000	-2.411734e-001	1.415917e-001	0.000000e+000	0.000000e+000	0.000000e+000	0.000000e+000
5002800280.028	0.000000e+000	0.000000e+000	-2.401136e-001	1.435265e-001	0.000000e+000	0.000000e+000	0.000000e+000	0.000000e+000
5002820282.028	0.000000e+000	0.000000e+000	-2.389433e-001	1.454734e-001	0.000000e+000	0.000000e+000	0.000000e+000	0.000000e+000
5002840284.028	0.000000e+000	0.000000e+000	-2.378943e-001	1.473276e-001	0.000000e+000	0.000000e+000	0.000000e+000	0.000000e+000
5002860286.029	0.000000e+000	0.000000e+000	-2.366566e-001	1.493360e-001	0.000000e+000	0.000000e+000	0.000000e+000	0.000000e+000
5002880288.029	0.000000e+000	0.000000e+000	-2.355675e-001	1.511201e-001	0.000000e+000	0.000000e+000	0.000000e+000	0.000000e+000
5002900290.029	0.000000e+000	0.000000e+000	-2.343343e-001	1.530226e-001	0.000000e+000	0.000000e+000	0.000000e+000	0.000000e+000
5002920292.029	0.000000e+000	0.000000e+000	-2.331061e-001	1.548891e-001	0.000000e+000	0.000000e+000	0.000000e+000	0.000000e+000
5002940294.029	0.000000e+000	0.000000e+000	-2.318859e-001	1.567406e-001	0.000000e+000	0.000000e+000	0.000000e+000	0.000000e+000
5002960296.030	0.000000e+000	0.000000e+000	-2.306833e-001	1.586200e-001	0.000000e+000	0.000000e+000	0.000000e+000	0.000000e+000
5002980298.030	0.000000e+000	0.000000e+000	-2.293549e-001	1.604710e-001	0.000000e+000	0.000000e+000	0.000000e+000	0.000000e+000
5003000300.030	0.000000e+000	0.000000e+000	-2.281012e-001	1.622288e-001	0.000000e+000	0.000000e+000	0.000000e+000	0.000000e+000
5003020302.030	0.000000e+000	0.000000e+000	-2.268386e-001	1.640406e-001	0.000000e+000	0.000000e+000	0.000000e+000	0.000000e+000
