!Keysight Technologies,E5063A,MY54502693,A.05.04
!Date: Sat Feb 27 19:57:35 2021
!Data & Calibration Information:
!Freq	S11:NONE(--)	S21:NONE(--)	S12:NONE(--)	S22:NONE(--)
# Hz S RI R 50
4000000000.000	0.000000e+000	0.000000e+000	-1.000311e-001	5.472109e-001	0.000000e+000	0.000000e+000	0.000000e+000	0.000000e+000
4000020002.000	0.000000e+000	0.000000e+000	-9.528497e-002	5.480830e-001	0.000000e+000	0.000000e+000	0.000000e+000	0.000000e+000
4000040004.000	0.000000e+000	0.000000e+000	-9.056884e-002	5.489551e-001	0.000000e+000	0.000000e+000	0.000000e+000	0.000000e+000
4000060006.001	0.000000e+000	0.000000e+000	-8.583675e-002	5.496331e-001	0.000000e+000	0.000000e+000	0.000000e+000	0.000000e+000
4000080008.001	0.000000e+000	0.000000e+000	-8.114436e-002	5.503187e-001	0.000000e+000	0.000000e+000	0.000000e+000	0.000000e+000
4000100010.001	0.000000e+000	0.000000e+000	-7.640500e-002	5.510469e-001	0.000000e+000	0.000000e+000	0.000000e+000	0.000000e+000
4000120012.001	0.000000e+000	0.000000e+000	-7.163967e-002	5.516333e-001	0.000000e+000	0.000000e+000	0.000000e+000	0.000000e+000
4000140014.001	0.000000e+000	0.000000e+000	-6.692950e-002	5.521095e-001	0.000000e+000	0.000000e+000	0.000000e+000	0.000000e+000
4000160016.002	0.000000e+000	0.000000e+000	-6.215286e-002	5.527196e-001	0.000000e+000	0.000000e+000	0.000000e+000	0.000000e+000
4000180018.002	0.000000e+000	0.000000e+000	-5.736908e-002	5.531975e-001	0.000000e+000	0.000000e+000	0.000000e+000	0.000000e+000
4000200020.002	0.000000e+000	0.000000e+000	-5.262663e-002	5.535765e-001	0.000000e+000	0.000000e+000	0.000000e+000	0.000000e+000
4000220022.002	0.000000e+000	0.000000e+000	-4.781308e-002	5.540504e-001	0.000000e+000	0.000000e+000	0.000000e+000	0.000000e+000
4000240024.002	0.000000e+000	0.000000e+000	-4.296583e-002	5.545344e-001	0.000000e+000	0.000000e+000	0.000000e+000	0.000000e+000
4000260026.003	0.000000e+000	0.000000e+000	-3.816614e-002	5.547854e-001	0.000000e+000	0.000000e+000	0.000000e+000	0.000000e+000
4000280028.003	0.000000e+000	0.000000e+000	-3.335180e-002	5.551194e-001	0.000000e+000	0.000000e+000	0.000000e+000	0.000000e+000
4000300030.003	0.000000e+000	0.000000e+000	-2.850461e-002	5.554336e-001	0.000000e+000	0.000000e+000	0.000000e+000	0.000000e+000
4000320032.003	0.000000e+000	0.000000e+000	-2.365332e-002	5.556309e-001	0.000000e+000	0.000000e+000	0.000000e+000	0.000000e+000
4000340034.003	0.000000e+000	0.000000e+000	-1.882832e-002	5.557495e-001	0.000000e+000	0.000000e+000	0.000000e+000	0.000000e+000
4000360036.004	0.000000e+000	0.000000e+000	-1.392397e-002	5.559038e-001	0.000000e+000	0.000000e+000	0.000000e+000	0.000000e+000
4000380038.004	0.000000e+000	0.000000e+000	-9.077996e-003	5.559884e-001	0.000000e+000	0.000000e+000	0.000000e+000	0.000000e+000
4000400040.004	0.000000e+000	0.000000e+000	-4.252434e-003	5.559255e-001	0.000000e+000	0.000000e+000	0.000000e+000	0.000000e+000
4000420042.004	0.000000e+000	0.000000e+000	6.835320e-004	5.560089e-001	0.000000e+000	0.000000e+000	0.000000e+000	0.000000e+000
4000440044.004	0.000000e+000	0.000000e+000	5.616250e-003	5.560194e-001	0.000000e+000	0.000000e+000	0.000000e+000	0.000000e+000
4000460046.005	0.000000e+000	0.000000e+000	1.039626e-002	5.558536e-001	0.000000e+000	0.000000e+000	0.000000e+000	0.000000e+000
4000480048.005	0.000000e+000	0.000000e+000	1.532941e-002	5.557993e-001	0.000000e+000	0.000000e+000	0.000000e+000	0.000000e+000
4000500050.005	0.000000e+000	0.000000e+000	2.030989e-002	5.556457e-001	0.000000e+000	0.000000e+000	0.000000e+000	0.000000e+000
4000520052.005	0.000000e+000	0.000000e+000	2.518440e-002	5.553864e-001	0.000000e+000	0.000000e+000	0.000000e+000	0.000000e+000
4000540054.005	0.000000e+000	0.000000e+000	3.007543e-002	5.550659e-001	0.000000e+000	0.000000e+000	0.000000e+000	0.000000e+000
4000560056.006	0.000000e+000	0.000000e+000	3.511152e-002	5.548297e-001	0.000000e+000	0.000000e+000	0.000000e+000	0.000000e+000
4000580058.006	0.000000e+000	0.000000e+000	3.998331e-002	5.544064e-001	0.000000e+000	0.000000e+000	0.000000e+000	0.000000e+000
4000600060.006	0.000000e+000	0.000000e+000	4.497394e-002	5.539328e-001	0.000000e+000	0.000000e+000	0.000000e+000	0.000000e+000
4000620062.006	0.000000e+000	0.000000e+000	4.990856e-002	5.534570e-001	0.000000e+000	0.000000e+000	0.000000e+000	0.000000e+000
4000640064.006	0.000000e+000	0.000000e+000	5.491615e-002	5.530181e-001	0.000000e+000	0.000000e+000	0.000000e+000	0.000000e+000
4000660066.007	0.000000e+000	0.000000e+000	5.980456e-002	5.524762e-001	0.000000e+000	0.000000e+000	0.000000e+000	0.000000e+000
4000680068.007	0.000000e+000	0.000000e+000	6.483066e-002	5.518762e-001	0.000000e+000	0.000000e+000	0.000000e+000	0.000000e+000
4000700070.007	0.000000e+000	0.000000e+000	6.980976e-002	5.511834e-001	0.000000e+000	0.000000e+000	0.000000e+000	0.000000e+000
4000720072.007	0.000000e+000	0.000000e+000	7.475656e-002	5.504895e-001	0.000000e+000	0.000000e+000	0.000000e+000	0.000000e+000
4000740074.007	0.000000e+000	0.000000e+000	7.984384e-002	5.497813e-001	0.000000e+000	0.000000e+000	0.000000e+000	0.000000e+000
4000760076.008	0.000000e+000	0.000000e+000	8.487721e-002	5.490159e-001	0.000000e+000	0.000000e+000	0.000000e+000	0.000000e+000
4000780078.008	0.000000e+000	0.000000e+000	8.975173e-002	5.480517e-001	0.000000e+000	0.000000e+000	0.000000e+000	0.000000e+000
4000800080.008	0.000000e+000	0.000000e+000	9.488697e-002	5.472217e-001	0.000000e+000	0.000000e+000	0.000000e+000	0.000000e+000
4000820082.008	0.000000e+000	0.000000e+000	9.994120e-002	5.463476e-001	0.000000e+000	0.000000e+000	0.000000e+000	0.000000e+000
4000840084.008	0.000000e+000	0.000000e+000	1.049966e-001	5.453316e-001	0.000000e+000	0.000000e+000	0.000000e+000	0.000000e+000
4000860086.009	0.000000e+000	0.000000e+000	1.100664e-001	5.443158e-001	0.000000e+000	0.000000e+000	0.000000e+000	0.000000e+000
4000880088.009	0.000000e+000	0.000000e+000	1.151005e-001	5.431709e-001	0.000000e+000	0.000000e+000	0.000000e+000	0.000000e+000
4000900090.009	0.000000e+000	0.000000e+000	1.202462e-001	5.419973e-001	0.000000e+000	0.000000e+000	0.000000e+000	0.000000e+000
4000920092.009	0.000000e+000	0.000000e+000	1.252091e-001	5.406956e-001	0.000000e+000	0.000000e+000	0.000000e+000	0.000000e+000
4000940094.009	0.000000e+000	0.000000e+000	1.303974e-001	5.394656e-001	0.000000e+000	0.000000e+000	0.000000e+000	0.000000e+000
4000960096.010	0.000000e+000	0.000000e+000	1.355459e-001	5.382540e-001	0.000000e+000	0.000000e+000	0.000000e+000	0.000000e+000
4000980098.010	0.000000e+000	0.000000e+000	1.406222e-001	5.368235e-001	0.000000e+000	0.000000e+000	0.000000e+000	0.000000e+000
4001000100.010	0.000000e+000	0.000000e+000	1.457197e-001	5.353849e-001	0.000000e+000	0.000000e+000	0.000000e+000	0.000000e+000
4001020102.010	0.000000e+000	0.000000e+000	1.509946e-001	5.339290e-001	0.000000e+000	0.000000e+000	0.000000e+000	0.000000e+000
4001040104.010	0.000000e+000	0.000000e+000	1.561246e-001	5.323500e-001	0.000000e+000	0.000000e+000	0.000000e+000	0.000000e+000
4001060106.011	0.000000e+000	0.000000e+000	1.613076e-001	5.306813e-001	0.000000e+000	0.000000e+000	0.000000e+000	0.000000e+000
4001080108.011	0.000000e+000	0.000000e+000	1.666402e-001	5.291034e-001	0.000000e+000	0.000000e+000	0.000000e+000	0.000000e+000
4001100110.011	0.000000e+000	0.000000e+000	1.718143e-001	5.273678e-001	0.000000e+000	0.000000e+000	0.000000e+000	0.000000e+000
4001120112.011	0.000000e+000	0.000000e+000	1.770313e-001	5.254206e-001	0.000000e+000	0.000000e+000	0.000000e+000	0.000000e+000
4001140114.011	0.000000e+000	0.000000e+000	1.823744e-001	5.235369e-001	0.000000e+000	0.000000e+000	0.000000e+000	0.000000e+000
4001160116.012	0.000000e+000	0.000000e+000	1.876881e-001	5.216121e-001	0.000000e+000	0.000000e+000	0.000000e+000	0.000000e+000
4001180118.012	0.000000e+000	0.000000e+000	1.928177e-001	5.194276e-001	0.000000e+000	0.000000e+000	0.000000e+000	0.000000e+000
4001200120.012	0.000000e+000	0.000000e+000	1.982258e-001	5.172121e-001	0.000000e+000	0.000000e+000	0.000000e+000	0.000000e+000
4001220122.012	0.000000e+000	0.000000e+000	2.037258e-001	5.151055e-001	0.000000e+000	0.000000e+000	0.000000e+000	0.000000e+000
4001240124.012	0.000000e+000	0.000000e+000	2.090658e-001	5.128122e-001	0.000000e+000	0.000000e+000	0.000000e+000	0.000000e+000
4001260126.013	0.000000e+000	0.000000e+000	2.145196e-001	5.103820e-001	0.000000e+000	0.000000e+000	0.000000e+000	0.000000e+000
4001280128.013	0.000000e+000	0.000000e+000	2.200350e-001	5.078421e-001	0.000000e+000	0.000000e+000	0.000000e+000	0.000000e+000
4001300130.013	0.000000e+000	0.000000e+000	2.254641e-001	5.052077e-001	0.000000e+000	0.000000e+000	0.000000e+000	0.000000e+000
4001320132.013	0.000000e+000	0.000000e+000	2.310465e-001	5.025400e-001	0.000000e+000	0.000000e+000	0.000000e+000	0.000000e+000
4001340134.013	0.000000e+000	0.000000e+000	2.366756e-001	4.997704e-001	0.000000e+000	0.000000e+000	0.000000e+000	0.000000e+000
4001360136.014	0.000000e+000	0.000000e+000	2.423449e-001	4.968097e-001	0.000000e+000	0.000000e+000	0.000000e+000	0.000000e+000
4001380138.014	0.000000e+000	0.000000e+000	2.479267e-001	4.935822e-001	0.000000e+000	0.000000e+000	0.000000e+000	0.000000e+000
4001400140.014	0.000000e+000	0.000000e+000	2.536118e-001	4.903463e-001	0.000000e+000	0.000000e+000	0.000000e+000	0.000000e+000
4001420142.014	0.000000e+000	0.000000e+000	2.595409e-001	4.870650e-001	0.000000e+000	0.000000e+000	0.000000e+000	0.000000e+000
4001440144.014	0.000000e+000	0.000000e+000	2.652839e-001	4.833725e-001	0.000000e+000	0.000000e+000	0.000000e+000	0.000000e+000
4001460146.015	0.000000e+000	0.000000e+000	2.712585e-001	4.796929e-001	0.000000e+000	0.000000e+000	0.000000e+000	0.000000e+000
4001480148.015	0.000000e+000	0.000000e+000	2.774593e-001	4.758312e-001	0.000000e+000	0.000000e+000	0.000000e+000	0.000000e+000
4001500150.015	0.000000e+000	0.000000e+000	2.834375e-001	4.715980e-001	0.000000e+000	0.000000e+000	0.000000e+000	0.000000e+000
4001520152.015	0.000000e+000	0.000000e+000	2.896256e-001	4.672024e-001	0.000000e+000	0.000000e+000	0.000000e+000	0.000000e+000
4001540154.015	0.000000e+000	0.000000e+000	2.960585e-001	4.625368e-001	0.000000e+000	0.000000e+000	0.000000e+000	0.000000e+000
4001560156.016	0.000000e+000	0.000000e+000	3.024112e-001	4.576067e-001	0.000000e+000	0.000000e+000	0.000000e+000	0.000000e+000
4001580158.016	0.000000e+000	0.000000e+000	3.088735e-001	4.521691e-001	0.000000e+000	0.000000e+000	0.000000e+000	0.000000e+000
4001600160.016	0.000000e+000	0.000000e+000	3.156409e-001	4.464187e-001	0.000000e+000	0.000000e+000	0.000000e+000	0.000000e+000
4001620162.016	0.000000e+000	0.000000e+000	3.225246e-001	4.402519e-001	0.000000e+000	0.000000e+000	0.000000e+000	0.000000e+000
4001640164.016	0.000000e+000	0.000000e+000	3.293158e-001	4.334613e-001	0.000000e+000	0.000000e+000	0.000000e+000	0.000000e+000
4001660166.017	0.000000e+000	0.000000e+000	3.363419e-001	4.260960e-001	0.000000e+000	0.000000e+000	0.000000e+000	0.000000e+000
4001680168.017	0.000000e+000	0.000000e+000	3.436261e-001	4.180351e-001	0.000000e+000	0.000000e+000	0.000000e+000	0.000000e+000
4001700170.017	0.000000e+000	0.000000e+000	3.509387e-001	4.089618e-001	0.000000e+000	0.000000e+000	0.000000e+000	0.000000e+000
4001720172.017	0.000000e+000	0.000000e+000	3.584952e-001	3.989587e-001	0.000000e+000	0.000000e+000	0.000000e+000	0.000000e+000
4001740174.017	0.000000e+000	0.000000e+000	3.662573e-001	3.877644e-001	0.000000e+000	0.000000e+000	0.000000e+000	0.000000e+000
4001760176.018	0.000000e+000	0.000000e+000	3.738873e-001	3.748797e-001	0.000000e+000	0.000000e+000	0.000000e+000	0.000000e+000
4001780178.018	0.000000e+000	0.000000e+000	3.813013e-001	3.598165e-001	0.000000e+000	0.000000e+000	0.000000e+000	0.000000e+000
4001800180.018	0.000000e+000	0.000000e+000	3.884936e-001	3.422075e-001	0.000000e+000	0.000000e+000	0.000000e+000	0.000000e+000
4001820182.018	0.000000e+000	0.000000e+000	3.948477e-001	3.213070e-001	0.000000e+000	0.000000e+000	0.000000e+000	0.000000e+000
4001840184.018	0.000000e+000	0.000000e+000	3.993253e-001	2.959380e-001	0.000000e+000	0.000000e+000	0.000000e+000	0.000000e+000
4001860186.019	0.000000e+000	0.000000e+000	4.003080e-001	2.640740e-001	0.000000e+000	0.000000e+000	0.000000e+000	0.000000e+000
4001880188.019	0.000000e+000	0.000000e+000	3.942127e-001	2.246832e-001	0.000000e+000	0.000000e+000	0.000000e+000	0.000000e+000
4001900190.019	0.000000e+000	0.000000e+000	3.740263e-001	1.767120e-001	0.000000e+000	0.000000e+000	0.000000e+000	0.000000e+000
4001920192.019	0.000000e+000	0.000000e+000	3.295202e-001	1.255995e-001	0.000000e+000	0.000000e+000	0.000000e+000	0.000000e+000
4001940194.019	0.000000e+000	0.000000e+000	2.543188e-001	8.875924e-002	0.000000e+000	0.000000e+000	0.000000e+000	0.000000e+000
4001960196.020	0.000000e+000	0.000000e+000	1.617526e-001	8.914566e-002	0.000000e+000	0.000000e+000	0.000000e+000	0.000000e+000
4001980198.020	0.000000e+000	0.000000e+000	8.074626e-002	1.319017e-001	0.000000e+000	0.000000e+000	0.000000e+000	0.000000e+000
4002000200.020	0.000000e+000	0.000000e+000	3.247384e-002	1.981082e-001	0.000000e+000	0.000000e+000	0.000000e+000	0.000000e+000
4002020202.020	0.000000e+000	0.000000e+000	1.662669e-002	2.668553e-001	0.000000e+000	0.000000e+000	0.000000e+000	0.000000e+000
4002040204.020	0.000000e+000	0.000000e+000	2.383832e-002	3.258982e-001	0.000000e+000	0.000000e+000	0.000000e+000	0.000000e+000
4002060206.021	0.000000e+000	0.000000e+000	4.432734e-002	3.718003e-001	0.000000e+000	0.000000e+000	0.000000e+000	0.000000e+000
4002080208.021	0.000000e+000	0.000000e+000	7.113775e-002	4.054567e-001	0.000000e+000	0.000000e+000	0.000000e+000	0.000000e+000
4002100210.021	0.000000e+000	0.000000e+000	9.973753e-002	4.286397e-001	0.000000e+000	0.000000e+000	0.000000e+000	0.000000e+000
4002120212.021	0.000000e+000	0.000000e+000	1.277484e-001	4.439017e-001	0.000000e+000	0.000000e+000	0.000000e+000	0.000000e+000
4002140214.021	0.000000e+000	0.000000e+000	1.542927e-001	4.534192e-001	0.000000e+000	0.000000e+000	0.000000e+000	0.000000e+000
4002160216.022	0.000000e+000	0.000000e+000	1.785083e-001	4.583755e-001	0.000000e+000	0.000000e+000	0.000000e+000	0.000000e+000
4002180218.022	0.000000e+000	0.000000e+000	2.006020e-001	4.602943e-001	0.000000e+000	0.000000e+000	0.000000e+000	0.000000e+000
4002200220.022	0.000000e+000	0.000000e+000	2.207644e-001	4.600898e-001	0.000000e+000	0.000000e+000	0.000000e+000	0.000000e+000
4002220222.022	0.000000e+000	0.000000e+000	2.391397e-001	4.581433e-001	0.000000e+000	0.000000e+000	0.000000e+000	0.000000e+000
4002240224.022	0.000000e+000	0.000000e+000	2.558657e-001	4.550010e-001	0.000000e+000	0.000000e+000	0.000000e+000	0.000000e+000
4002260226.023	0.000000e+000	0.000000e+000	2.715580e-001	4.509142e-001	0.000000e+000	0.000000e+000	0.000000e+000	0.000000e+000
4002280228.023	0.000000e+000	0.000000e+000	2.861081e-001	4.460611e-001	0.000000e+000	0.000000e+000	0.000000e+000	0.000000e+000
4002300230.023	0.000000e+000	0.000000e+000	2.996175e-001	4.403921e-001	0.000000e+000	0.000000e+000	0.000000e+000	0.000000e+000
4002320232.023	0.000000e+000	0.000000e+000	3.128938e-001	4.341571e-001	0.000000e+000	0.000000e+000	0.000000e+000	0.000000e+000
4002340234.023	0.000000e+000	0.000000e+000	3.256951e-001	4.270692e-001	0.000000e+000	0.000000e+000	0.000000e+000	0.000000e+000
4002360236.024	0.000000e+000	0.000000e+000	3.382765e-001	4.190306e-001	0.000000e+000	0.000000e+000	0.000000e+000	0.000000e+000
4002380238.024	0.000000e+000	0.000000e+000	3.511207e-001	4.096522e-001	0.000000e+000	0.000000e+000	0.000000e+000	0.000000e+000
4002400240.024	0.000000e+000	0.000000e+000	3.643690e-001	3.987115e-001	0.000000e+000	0.000000e+000	0.000000e+000	0.000000e+000
4002420242.024	0.000000e+000	0.000000e+000	3.782410e-001	3.848858e-001	0.000000e+000	0.000000e+000	0.000000e+000	0.000000e+000
4002440244.024	0.000000e+000	0.000000e+000	3.934284e-001	3.666730e-001	0.000000e+000	0.000000e+000	0.000000e+000	0.000000e+000
4002460246.025	0.000000e+000	0.000000e+000	4.102005e-001	3.407506e-001	0.000000e+000	0.000000e+000	0.000000e+000	0.000000e+000
4002480248.025	0.000000e+000	0.000000e+000	4.270502e-001	2.990216e-001	0.000000e+000	0.000000e+000	0.000000e+000	0.000000e+000
4002500250.025	0.000000e+000	0.000000e+000	4.334382e-001	2.240530e-001	0.000000e+000	0.000000e+000	0.000000e+000	0.000000e+000
4002520252.025	0.000000e+000	0.000000e+000	3.602016e-001	9.077355e-002	0.000000e+000	0.000000e+000	0.000000e+000	0.000000e+000
4002540254.025	0.000000e+000	0.000000e+000	9.475070e-002	1.220347e-001	0.000000e+000	0.000000e+000	0.000000e+000	0.000000e+000
4002560256.026	0.000000e+000	0.000000e+000	9.471389e-002	3.563692e-001	0.000000e+000	0.000000e+000	0.000000e+000	0.000000e+000
4002580258.026	0.000000e+000	0.000000e+000	1.881373e-001	4.225232e-001	0.000000e+000	0.000000e+000	0.000000e+000	0.000000e+000
4002600260.026	0.000000e+000	0.000000e+000	2.460341e-001	4.321880e-001	0.000000e+000	0.000000e+000	0.000000e+000	0.000000e+000
4002620262.026	0.000000e+000	0.000000e+000	2.816596e-001	4.293068e-001	0.000000e+000	0.000000e+000	0.000000e+000	0.000000e+000
4002640264.026	0.000000e+000	0.000000e+000	3.065000e-001	4.235871e-001	0.000000e+000	0.000000e+000	0.000000e+000	0.000000e+000
4002660266.027	0.000000e+000	0.000000e+000	3.246827e-001	4.170931e-001	0.000000e+000	0.000000e+000	0.000000e+000	0.000000e+000
4002680268.027	0.000000e+000	0.000000e+000	3.387996e-001	4.105809e-001	0.000000e+000	0.000000e+000	0.000000e+000	0.000000e+000
4002700270.027	0.000000e+000	0.000000e+000	3.505947e-001	4.042660e-001	0.000000e+000	0.000000e+000	0.000000e+000	0.000000e+000
4002720272.027	0.000000e+000	0.000000e+000	3.609013e-001	3.981752e-001	0.000000e+000	0.000000e+000	0.000000e+000	0.000000e+000
4002740274.027	0.000000e+000	0.000000e+000	3.697739e-001	3.922168e-001	0.000000e+000	0.000000e+000	0.000000e+000	0.000000e+000
4002760276.028	0.000000e+000	0.000000e+000	3.776899e-001	3.864015e-001	0.000000e+000	0.000000e+000	0.000000e+000	0.000000e+000
4002780278.028	0.000000e+000	0.000000e+000	3.848132e-001	3.808286e-001	0.000000e+000	0.000000e+000	0.000000e+000	0.000000e+000
4002800280.028	0.000000e+000	0.000000e+000	3.915483e-001	3.753660e-001	0.000000e+000	0.000000e+000	0.000000e+000	0.000000e+000
4002820282.028	0.000000e+000	0.000000e+000	3.977021e-001	3.698964e-001	0.000000e+000	0.000000e+000	0.000000e+000	0.000000e+000
4002840284.028	0.000000e+000	0.000000e+000	4.035386e-001	3.646219e-001	0.000000e+000	0.000000e+000	0.000000e+000	0.000000e+000
4002860286.029	0.000000e+000	0.000000e+000	4.090354e-001	3.593113e-001	0.000000e+000	0.000000e+000	0.000000e+000	0.000000e+000
4002880288.029	0.000000e+000	0.000000e+000	4.141704e-001	3.541170e-001	0.000000e+000	0.000000e+000	0.000000e+000	0.000000e+000
4002900290.029	0.000000e+000	0.000000e+000	4.191737e-001	3.489287e-001	0.000000e+000	0.000000e+000	0.000000e+000	0.000000e+000
4002920292.029	0.000000e+000	0.000000e+000	4.240659e-001	3.437613e-001	0.000000e+000	0.000000e+000	0.000000e+000	0.000000e+000
4002940294.029	0.000000e+000	0.000000e+000	4.286502e-001	3.386570e-001	0.000000e+000	0.000000e+000	0.000000e+000	0.000000e+000
4002960296.030	0.000000e+000	0.000000e+000	4.329219e-001	3.335695e-001	0.000000e+000	0.000000e+000	0.000000e+000	0.000000e+000
4002980298.030	0.000000e+000	0.000000e+000	4.372274e-001	3.284797e-001	0.000000e+000	0.000000e+000	0.000000e+000	0.000000e+000
4003000300.030	0.000000e+000	0.000000e+000	4.413222e-001	3.233692e-001	0.000000e+000	0.000000e+000	0.000000e+000	0.000000e+000
4003020302.030	0.000000e+000	0.000000e+000	4.452402e-001	3.182823e-001	0.000000e+000	0.000000e+000	0.000000e+000	0.000000e+000
4003040304.030	0.000000e+000	0.000000e+000	4.492317e-001	3.131593e-001	0.000000e+000	0.000000e+000	0.000000e+000	0.000000e+000
4003060306.031	0.000000e+000	0.000000e+000	4.531093e-001	3.080855e-001	0.000000e+000	0.000000e+000	0.000000e+000	0.000000e+000
