"# Channel 1"
"# Trace 1"
Frequency, Formatted Data, Formatted Data
+4.40000000000E+009, +1.32853465609E-001, -4.29496268158E-001
+4.40002000200E+009, +1.28137549790E-001, -4.31057022581E-001
+4.40004000400E+009, +1.23443988648E-001, -4.32456987215E-001
+4.40006000600E+009, +1.18783286978E-001, -4.33874701518E-001
+4.40008000800E+009, +1.13990900864E-001, -4.35233694039E-001
+4.40010001000E+009, +1.09233636897E-001, -4.36497968220E-001
+4.40012001200E+009, +1.04412806108E-001, -4.37572498597E-001
+4.40014001400E+009, +9.94943731125E-002, -4.38710956430E-001
+4.40016001600E+009, +9.46676676969E-002, -4.39810790274E-001
+4.40018001800E+009, +8.97660155172E-002, -4.40878475965E-001
+4.40020002000E+009, +8.47278522821E-002, -4.41784733479E-001
+4.40022002200E+009, +7.96961698356E-002, -4.42685624197E-001
+4.40024002400E+009, +7.45153423522E-002, -4.43518621722E-001
+4.40026002600E+009, +6.93490386429E-002, -4.44291848076E-001
+4.40028002800E+009, +6.40526328987E-002, -4.44996143792E-001
+4.40030003000E+009, +5.87421905886E-002, -4.45670380911E-001
+4.40032003200E+009, +5.33493733458E-002, -4.46139499289E-001
+4.40034003400E+009, +4.78937852087E-002, -4.46801376895E-001
+4.40036003600E+009, +4.22683229728E-002, -4.47108521534E-001
+4.40038003800E+009, +3.66851814078E-002, -4.47339329232E-001
+4.40040004000E+009, +3.07695751697E-002, -4.47549034243E-001
+4.40042004200E+009, +2.48775608432E-002, -4.47732370265E-001
+4.40044004400E+009, +1.87637736838E-002, -4.47617734848E-001
+4.40046004600E+009, +1.24481643069E-002, -4.47441125250E-001
+4.40048004800E+009, +5.96452129702E-003, -4.47075297323E-001
+4.40050005001E+009, -5.57422724864E-004, -4.46483444255E-001
+4.40052005201E+009, -7.42582819613E-003, -4.45735246084E-001
+4.40054005401E+009, -1.45057940476E-002, -4.44657664881E-001
+4.40056005601E+009, -2.20356965824E-002, -4.43418861273E-001
+4.40058005801E+009, -2.96534974361E-002, -4.41461520519E-001
+4.40060006001E+009, -3.78870393952E-002, -4.39242645075E-001
+4.40062006201E+009, -4.65156818644E-002, -4.36295737367E-001
+4.40064006401E+009, -5.56196217332E-002, -4.32572389930E-001
+4.40066006601E+009, -6.50555597856E-002, -4.27691224773E-001
+4.40068006801E+009, -7.53744636787E-002, -4.21479906415E-001
+4.40070007001E+009, -8.56452452416E-002, -4.13056249033E-001
+4.40072007201E+009, -9.65808954859E-002, -4.02232971707E-001
+4.40074007401E+009, -1.06379301371E-001, -3.87542569025E-001
+4.40076007601E+009, -1.15249894116E-001, -3.68235319499E-001
+4.40078007801E+009, -1.18381938161E-001, -3.43093007267E-001
+4.40080008001E+009, -1.14011448619E-001, -3.11827599577E-001
+4.40082008201E+009, -9.32201193571E-002, -2.81909117794E-001
+4.40084008401E+009, -5.91216053836E-002, -2.58846139888E-001
+4.40086008601E+009, -1.87040803448E-002, -2.58883356223E-001
+4.40088008801E+009, +1.64108584916E-002, -2.72348540055E-001
+4.40090009001E+009, +3.63358520147E-002, -2.98625211262E-001
+4.40092009201E+009, +4.70718275371E-002, -3.24375891249E-001
+4.40094009401E+009, +4.59660015827E-002, -3.48695035796E-001
+4.40096009601E+009, +4.19180521131E-002, -3.68669374474E-001
+4.40098009801E+009, +3.29616404478E-002, -3.84045496186E-001
+4.40100010001E+009, +2.43188172147E-002, -3.96185123048E-001
+4.40102010201E+009, +1.42259770254E-002, -4.05135513802E-001
+4.40104010401E+009, +4.99722620891E-003, -4.12154847913E-001
+4.40106010601E+009, -4.39801241563E-003, -4.17374619404E-001
+4.40108010801E+009, -1.32629433176E-002, -4.21728839598E-001
+4.40110011001E+009, -2.18773387633E-002, -4.24766098625E-001
+4.40112011201E+009, -2.99735723373E-002, -4.27272520356E-001
+4.40114011401E+009, -3.79438281235E-002, -4.29067609697E-001
+4.40116011601E+009, -4.53284255801E-002, -4.30286993094E-001
+4.40118011801E+009, -5.27147191189E-002, -4.31141177611E-001
+4.40120012001E+009, -5.97294926304E-002, -4.31792245802E-001
+4.40122012201E+009, -6.65342435453E-002, -4.32014242788E-001
+4.40124012401E+009, -7.31860631633E-002, -4.31994598547E-001
+4.40126012601E+009, -7.94993456754E-002, -4.31886121872E-001
+4.40128012801E+009, -8.59665777356E-002, -4.31490469272E-001
+4.40130013001E+009, -9.20494015728E-002, -4.31079478837E-001
+4.40132013201E+009, -9.82005979474E-002, -4.30328143585E-001
+4.40134013401E+009, -1.04154914476E-001, -4.29598270356E-001
+4.40136013601E+009, -1.10105394421E-001, -4.28444158511E-001
+4.40138013801E+009, -1.15833363090E-001, -4.27617778581E-001
+4.40140014001E+009, -1.21645020918E-001, -4.26395821090E-001
+4.40142014201E+009, -1.27262562155E-001, -4.25091639940E-001
+4.40144014401E+009, -1.32922737540E-001, -4.23758110709E-001
+4.40146014601E+009, -1.38466658646E-001, -4.22274328428E-001
+4.40148014801E+009, -1.43963145891E-001, -4.20654059931E-001
+4.40150015002E+009, -1.49348977627E-001, -4.19025379874E-001
+4.40152015202E+009, -1.54865000486E-001, -4.17234661598E-001
+4.40154015402E+009, -1.60322604345E-001, -4.15481385404E-001
+4.40156015602E+009, -1.65644270559E-001, -4.13409857824E-001
+4.40158015802E+009, -1.71042985204E-001, -4.11433249612E-001
+4.40160016002E+009, -1.76431146726E-001, -4.09300726229E-001
+4.40162016202E+009, -1.81752761631E-001, -4.07101239951E-001
+4.40164016402E+009, -1.87094099040E-001, -4.04617475080E-001
+4.40166016602E+009, -1.92472645683E-001, -4.02338402483E-001
+4.40168016802E+009, -1.97807541709E-001, -3.99668072475E-001
+4.40170017002E+009, -2.02964435442E-001, -3.96966873291E-001
+4.40172017202E+009, -2.08384156745E-001, -3.94165101586E-001
+4.40174017402E+009, -2.13747249316E-001, -3.91326940088E-001
+4.40176017602E+009, -2.18960468567E-001, -3.88176099665E-001
+4.40178017802E+009, -2.24439208946E-001, -3.85160419746E-001
+4.40180018002E+009, -2.29806389852E-001, -3.81949670934E-001
+4.40182018202E+009, -2.35160513117E-001, -3.78387399057E-001
+4.40184018402E+009, -2.40586835120E-001, -3.74873433527E-001
+4.40186018602E+009, -2.46014822906E-001, -3.71010517260E-001
+4.40188018802E+009, -2.51479610885E-001, -3.67092765286E-001
+4.40190019002E+009, -2.57072193673E-001, -3.62968009067E-001
+4.40192019202E+009, -2.62462168719E-001, -3.58538200570E-001
+4.40194019402E+009, -2.68069901223E-001, -3.53985563184E-001
+4.40196019602E+009, -2.73647867945E-001, -3.49068011052E-001
+4.40198019802E+009, -2.79249360556E-001, -3.43861744109E-001
+4.40200020002E+009, -2.85028299246E-001, -3.38443910024E-001
+4.40202020202E+009, -2.90598692051E-001, -3.32581935692E-001
+4.40204020402E+009, -2.96368495132E-001, -3.26379052543E-001
+4.40206020602E+009, -3.02298912920E-001, -3.19731663439E-001
+4.40208020802E+009, -3.08146451844E-001, -3.12555247311E-001
+4.40210021002E+009, -3.13996329002E-001, -3.04681586218E-001
+4.40212021202E+009, -3.19866393470E-001, -2.96354158403E-001
+4.40214021402E+009, -3.25870559215E-001, -2.87157744163E-001
+4.40216021602E+009, -3.31538088654E-001, -2.77057186756E-001
+4.40218021802E+009, -3.37325612221E-001, -2.65971756095E-001
+4.40220022002E+009, -3.42871831638E-001, -2.53540254053E-001
+4.40222022202E+009, -3.48000437223E-001, -2.39468380860E-001
+4.40224022402E+009, -3.52567535861E-001, -2.23743453484E-001
+4.40226022602E+009, -3.56384923847E-001, -2.05957346230E-001
+4.40228022802E+009, -3.58674829722E-001, -1.85376384332E-001
+4.40230023002E+009, -3.58906837516E-001, -1.61745565027E-001
+4.40232023202E+009, -3.55772863048E-001, -1.34515269632E-001
+4.40234023402E+009, -3.47416568863E-001, -1.03441727586E-001
+4.40236023602E+009, -3.31012569168E-001, -6.87856076987E-002
+4.40238023802E+009, -3.02721185688E-001, -3.20447933600E-002
+4.40240024002E+009, -2.58146792312E-001, +1.88095888845E-003
+4.40242024202E+009, -1.94205112413E-001, +2.34844140525E-002
+4.40244024402E+009, -1.15747784687E-001, +1.89821906634E-002
+4.40246024602E+009, -3.97142272550E-002, -2.24699540945E-002
+4.40248024802E+009, +9.81891377790E-003, -9.47284262784E-002
+4.40250025003E+009, +2.13906459847E-002, -1.75511767602E-001
+4.40252025203E+009, +2.29396246256E-003, -2.44289329987E-001
+4.40254025403E+009, -3.24876882071E-002, -2.92527403828E-001
+4.40256025603E+009, -7.13396642107E-002, -3.23412534572E-001
+4.40258025803E+009, -1.09166533928E-001, -3.39820933808E-001
+4.40260026003E+009, -1.43142767878E-001, -3.46883869894E-001
+4.40262026203E+009, -1.73151020828E-001, -3.47734747257E-001
+4.40264026403E+009, -1.99425027134E-001, -3.44056187380E-001
+4.40266026603E+009, -2.22598573756E-001, -3.37592017794E-001
+4.40268026803E+009, -2.42649019354E-001, -3.28880315502E-001
+4.40270027003E+009, -2.60816792546E-001, -3.18309708465E-001
+4.40272027203E+009, -2.76967982509E-001, -3.05587963006E-001
+4.40274027403E+009, -2.91058410439E-001, -2.91126718578E-001
+4.40276027603E+009, -3.03040470369E-001, -2.74103454881E-001
+4.40278027803E+009, -3.13181193689E-001, -2.54725464332E-001
+4.40280028003E+009, -3.19564817136E-001, -2.32060548346E-001
+4.40282028203E+009, -3.21733144772E-001, -2.05597018341E-001
+4.40284028403E+009, -3.15344376733E-001, -1.75362560379E-001
+4.40286028603E+009, -2.97095194703E-001, -1.42705458663E-001
+4.40288028803E+009, -2.61193443552E-001, -1.15914217875E-001
+4.40290029003E+009, -2.10407724242E-001, -1.06356541094E-001
+4.40292029203E+009, -1.60081996166E-001, -1.24532920271E-001
+4.40294029403E+009, -1.26507831767E-001, -1.63273434546E-001
+4.40296029603E+009, -1.17044700086E-001, -2.07181916470E-001
+4.40298029803E+009, -1.24442097682E-001, -2.45962403427E-001
+4.40300030003E+009, -1.42348259580E-001, -2.74584635292E-001
+4.40302030203E+009, -1.64249752388E-001, -2.93972350869E-001
+4.40304030403E+009, -1.86433544115E-001, -3.05420563755E-001
+4.40306030603E+009, -2.07487639203E-001, -3.11235926916E-001
+4.40308030803E+009, -2.26477664279E-001, -3.13290583726E-001
+4.40310031003E+009, -2.43525665447E-001, -3.12640208516E-001
+4.40312031203E+009, -2.58633239268E-001, -3.10469376894E-001
+4.40314031403E+009, -2.71978919170E-001, -3.06714789032E-001
+4.40316031603E+009, -2.84089044304E-001, -3.02660569424E-001
+4.40318031803E+009, -2.94867702552E-001, -2.97510848740E-001
+4.40320032003E+009, -3.04774620178E-001, -2.92493039099E-001
+4.40322032203E+009, -3.13561942225E-001, -2.86798470388E-001
+4.40324032403E+009, -3.22099470855E-001, -2.81221837657E-001
+4.40326032603E+009, -3.29708182050E-001, -2.75143136811E-001
+4.40328032803E+009, -3.36903537332E-001, -2.69225855556E-001
+4.40330033003E+009, -3.43539329463E-001, -2.62957314826E-001
+4.40332033203E+009, -3.49896198742E-001, -2.56819431479E-001
+4.40334033403E+009, -3.55596004143E-001, -2.50375443812E-001
+4.40336033603E+009, -3.61265132219E-001, -2.44117636949E-001
+4.40338033803E+009, -3.66669827070E-001, -2.37557421378E-001
+4.40340034003E+009, -3.71487995089E-001, -2.31111254970E-001
+4.40342034203E+009, -3.76204024912E-001, -2.24316705229E-001
+4.40344034403E+009, -3.80933285527E-001, -2.17553826631E-001
+4.40346034603E+009, -3.85216330094E-001, -2.10640541585E-001
+4.40348034803E+009, -3.89399200835E-001, -2.03670957759E-001
+4.40350035004E+009, -3.93300557170E-001, -1.96493045385E-001
+4.40352035204E+009, -3.97058960340E-001, -1.89122760066E-001
+4.40354035404E+009, -4.00526316783E-001, -1.81587173476E-001
+4.40356035604E+009, -4.03935667907E-001, -1.73935893364E-001
+4.40358035804E+009, -4.07095563901E-001, -1.66036134560E-001
+4.40360036004E+009, -4.10187027547E-001, -1.57925213982E-001
+4.40362036204E+009, -4.12882286380E-001, -1.49297858131E-001
+4.40364036404E+009, -4.15636228331E-001, -1.40391828207E-001
+4.40366036604E+009, -4.17777922568E-001, -1.31246335789E-001
+4.40368036804E+009, -4.19905209115E-001, -1.21562584190E-001
+4.40370037004E+009, -4.21612522418E-001, -1.11566648090E-001
+4.40372037204E+009, -4.22952277771E-001, -1.00975643554E-001
+4.40374037404E+009, -4.23845364569E-001, -8.96347231013E-002
+4.40376037604E+009, -4.24342659513E-001, -7.74691592004E-002
+4.40378037804E+009, -4.23859279478E-001, -6.43868473549E-002
+4.40380038004E+009, -4.22531913305E-001, -5.03641086731E-002
+4.40382038204E+009, -4.19909363631E-001, -3.48464887416E-002
+4.40384038404E+009, -4.15456227554E-001, -1.80770540696E-002
+4.40386038604E+009, -4.08082112486E-001, +7.71810726828E-004
+4.40388038804E+009, -3.96768213068E-001, +2.17577311212E-002
+4.40390039004E+009, -3.78600091761E-001, +4.50370058181E-002
+4.40392039204E+009, -3.47999496604E-001, +6.93695308534E-002
+4.40394039404E+009, -2.96911258716E-001, +8.84212154679E-002
+4.40396039604E+009, -2.21533439408E-001, +8.18688103081E-002
+4.40398039804E+009, -1.50904191460E-001, +3.01413971481E-002
+4.40400040004E+009, -1.21179604000E-001, -4.50043174264E-002
+4.40402040204E+009, -1.30392624439E-001, -1.12515744754E-001
+4.40404040404E+009, -1.61332536618E-001, -1.60198113179E-001
+4.40406040604E+009, -2.00186512733E-001, -1.87833936119E-001
+4.40408040804E+009, -2.39015455274E-001, -1.99553714168E-001
+4.40410041004E+009, -2.75370401005E-001, -1.99828660665E-001
+4.40412041204E+009, -3.06315554277E-001, -1.92182944735E-001
+4.40414041404E+009, -3.32521659621E-001, -1.79190536178E-001
+4.40416041604E+009, -3.53927565565E-001, -1.62534221585E-001
+4.40418041804E+009, -3.70593248109E-001, -1.43687434677E-001
+4.40420042004E+009, -3.83268764964E-001, -1.22947036592E-001
+4.40422042204E+009, -3.92373805976E-001, -1.00768850908E-001
+4.40424042404E+009, -3.97092263441E-001, -7.73808726560E-002
+4.40426042604E+009, -3.98064238273E-001, -5.23330768768E-002
+4.40428042804E+009, -3.93488077385E-001, -2.62317478525E-002
+4.40430043004E+009, -3.82579568461E-001, +1.20806210390E-003
+4.40432043204E+009, -3.61861154377E-001, +2.80145258696E-002
+4.40434043404E+009, -3.29565198770E-001, +5.16203478651E-002
+4.40436043604E+009, -2.83780301182E-001, +6.33211558071E-002
+4.40438043804E+009, -2.28787940943E-001, +5.43937652741E-002
+4.40440044004E+009, -1.82072330020E-001, +1.83446293451E-002
+4.40442044204E+009, -1.56929540346E-001, -3.36948381733E-002
+4.40444044404E+009, -1.58769937643E-001, -8.61026639537E-002
+4.40446044604E+009, -1.78083023818E-001, -1.28422889670E-001
+4.40448044804E+009, -2.07084993240E-001, -1.56078666028E-001
+4.40450045005E+009, -2.38016401220E-001, -1.71751349951E-001
+4.40452045205E+009, -2.67480325060E-001, -1.77944448081E-001
+4.40454045405E+009, -2.93401675093E-001, -1.77450139701E-001
+4.40456045605E+009, -3.15799021068E-001, -1.73196611382E-001
+4.40458045805E+009, -3.34319984027E-001, -1.66134693852E-001
+4.40460046005E+009, -3.50411927043E-001, -1.58252156615E-001
+4.40462046205E+009, -3.63442095926E-001, -1.48992005415E-001
+4.40464046405E+009, -3.74591234828E-001, -1.40055116687E-001
+4.40466046605E+009, -3.83844180266E-001, -1.30577215652E-001
+4.40468046805E+009, -3.92216519174E-001, -1.21502350933E-001
+4.40470047005E+009, -3.98851022460E-001, -1.12159521613E-001
+4.40472047205E+009, -4.04965538967E-001, -1.03478111717E-001
+4.40474047405E+009, -4.10003400932E-001, -9.47650715461E-002
+4.40476047605E+009, -4.14698098906E-001, -8.63536515778E-002
+4.40478047805E+009, -4.18301568092E-001, -7.79894473909E-002
+4.40480048005E+009, -4.21922528740E-001, -6.99073544966E-002
+4.40482048205E+009, -4.24788281468E-001, -6.19848105720E-002
+4.40484048405E+009, -4.27384984744E-001, -5.42260378147E-002
+4.40486048605E+009, -4.29553625547E-001, -4.65633689313E-002
+4.40488048805E+009, -4.31715457305E-001, -3.92321858851E-002
+4.40490049005E+009, -4.33229408690E-001, -3.18408406546E-002
+4.40492049205E+009, -4.34741756068E-001, -2.46462003905E-002
+4.40494049405E+009, -4.36008956757E-001, -1.75370612023E-002
+4.40496049605E+009, -4.37064726707E-001, -1.05873865803E-002
+4.40498049805E+009, -4.37903433601E-001, -3.70902339542E-003
+4.40500050005E+009, -4.38666589342E-001, +3.16334494913E-003
+4.40502050205E+009, -4.39200022337E-001, +9.93661307066E-003
+4.40504050405E+009, -4.39539747163E-001, +1.65175171161E-002
+4.40506050605E+009, -4.39759532281E-001, +2.31986401305E-002
+4.40508050805E+009, -4.39867231618E-001, +2.96873414919E-002
+4.40510051005E+009, -4.39809030136E-001, +3.61728557675E-002
+4.40512051205E+009, -4.39647209604E-001, +4.27513311021E-002
+4.40514051405E+009, -4.39384979179E-001, +4.90697958794E-002
+4.40516051605E+009, -4.38992104945E-001, +5.55075303203E-002
+4.40518051805E+009, -4.38438012515E-001, +6.18112078042E-002
+4.40520052005E+009, -4.37815017415E-001, +6.81534456820E-002
+4.40522052205E+009, -4.37056019022E-001, +7.44854601600E-002
+4.40524052405E+009, -4.36105426937E-001, +8.06682397123E-002
+4.40526052605E+009, -4.35069923590E-001, +8.69503280483E-002
+4.40528052805E+009, -4.34008713128E-001, +9.31852559062E-002
+4.40530053005E+009, -4.32661013706E-001, +9.94398265328E-002
+4.40532053205E+009, -4.31436927519E-001, +1.05637926345E-001
+4.40534053405E+009, -4.29949174748E-001, +1.11901515543E-001
+4.40536053605E+009, -4.28214611683E-001, +1.18082971798E-001
+4.40538053805E+009, -4.26591560554E-001, +1.24385370408E-001
+4.40540054005E+009, -4.24773296796E-001, +1.30686166608E-001
+4.40542054205E+009, -4.22830570504E-001, +1.37017096486E-001
+4.40544054405E+009, -4.20557929786E-001, +1.43067729349E-001
+4.40546054605E+009, -4.18394965932E-001, +1.49465282529E-001
+4.40548054805E+009, -4.16040154277E-001, +1.55808215714E-001
+4.40550055006E+009, -4.13378737703E-001, +1.62118476096E-001
+4.40552055206E+009, -4.10664545541E-001, +1.68555747180E-001
+4.40554055406E+009, -4.07733885982E-001, +1.74910956120E-001
+4.40556055606E+009, -4.04447773849E-001, +1.81466362285E-001
+4.40558055806E+009, -4.01220066034E-001, +1.87945434708E-001
+4.40560056006E+009, -3.97648118708E-001, +1.94531423291E-001
+4.40562056206E+009, -3.93704312743E-001, +2.01204050890E-001
+4.40564056406E+009, -3.89669623771E-001, +2.07900589846E-001
+4.40566056606E+009, -3.85236024253E-001, +2.14687654845E-001
+4.40568056806E+009, -3.80502550720E-001, +2.21620091072E-001
+4.40570057006E+009, -3.75277595971E-001, +2.28495145668E-001
+4.40572057206E+009, -3.69744660352E-001, +2.35545064639E-001
+4.40574057406E+009, -3.63663770609E-001, +2.42801685515E-001
+4.40576057606E+009, -3.56963354218E-001, +2.49915359481E-001
+4.40578057806E+009, -3.49565612957E-001, +2.57310305137E-001
+4.40580058006E+009, -3.41522226538E-001, +2.64615476540E-001
+4.40582058206E+009, -3.32522036738E-001, +2.72031159559E-001
+4.40584058406E+009, -3.22272829946E-001, +2.79338316077E-001
+4.40586058606E+009, -3.10799836365E-001, +2.86766486849E-001
+4.40588058806E+009, -2.97626714455E-001, +2.93754299045E-001
+4.40590059006E+009, -2.82431947592E-001, +3.00301694811E-001
+4.40592059206E+009, -2.64743617340E-001, +3.05855904290E-001
+4.40594059406E+009, -2.43614610526E-001, +3.09797619693E-001
+4.40596059606E+009, -2.18301311010E-001, +3.10443848833E-001
+4.40598059806E+009, -1.87931352920E-001, +3.05509500487E-001
+4.40600060006E+009, -1.52824308242E-001, +2.90028763299E-001
+4.40602060206E+009, -1.16879715571E-001, +2.57034550504E-001
+4.40604060406E+009, -9.25614656476E-002, +2.01513660384E-001
+4.40606060606E+009, -9.86177436121E-002, +1.32725867450E-001
+4.40608060806E+009, -1.38843996866E-001, +7.68065384027E-002
+4.40610061006E+009, -1.95991810841E-001, +5.17742495925E-002
+4.40612061206E+009, -2.49547262544E-001, +5.57132173618E-002
+4.40614061406E+009, -2.89342924740E-001, +7.79208882116E-002
+4.40616061606E+009, -3.14095750688E-001, +1.08838767190E-001
+4.40618061806E+009, -3.25512844072E-001, +1.41740749244E-001
+4.40620062006E+009, -3.26430842684E-001, +1.73257027426E-001
+4.40622062206E+009, -3.19148163198E-001, +2.01466491958E-001
+4.40624062406E+009, -3.05275217948E-001, +2.25957840420E-001
+4.40626062606E+009, -2.85537477778E-001, +2.46459447300E-001
+4.40628062806E+009, -2.60243281632E-001, +2.61527182973E-001
+4.40630063006E+009, -2.29659474046E-001, +2.70341988154E-001
