!Keysight Technologies,E5063A,MY54502693,A.05.04
!Date: Mon Oct 12 06:47:10 2020
!Data & Calibration Information:
!Freq	S11:NONE(--)	S21:NONE(--)	S12:NONE(--)	S22:NONE(--)
# Hz S RI R 50
4400000000.000	0.000000e+000	0.000000e+000	-9.454542e-001	4.188038e-001	0.000000e+000	0.000000e+000	0.000000e+000	0.000000e+000
4400020002.000	0.000000e+000	0.000000e+000	-9.285458e-001	4.328873e-001	0.000000e+000	0.000000e+000	0.000000e+000	0.000000e+000
4400040004.000	0.000000e+000	0.000000e+000	-9.094305e-001	4.461096e-001	0.000000e+000	0.000000e+000	0.000000e+000	0.000000e+000
4400060006.001	0.000000e+000	0.000000e+000	-8.888065e-001	4.607104e-001	0.000000e+000	0.000000e+000	0.000000e+000	0.000000e+000
4400080008.001	0.000000e+000	0.000000e+000	-8.652579e-001	4.756695e-001	0.000000e+000	0.000000e+000	0.000000e+000	0.000000e+000
4400100010.001	0.000000e+000	0.000000e+000	-8.384713e-001	4.896299e-001	0.000000e+000	0.000000e+000	0.000000e+000	0.000000e+000
4400120012.001	0.000000e+000	0.000000e+000	-8.072281e-001	5.014422e-001	0.000000e+000	0.000000e+000	0.000000e+000	0.000000e+000
4400140014.001	0.000000e+000	0.000000e+000	-7.704408e-001	5.088880e-001	0.000000e+000	0.000000e+000	0.000000e+000	0.000000e+000
4400160016.002	0.000000e+000	0.000000e+000	-7.282005e-001	5.121137e-001	0.000000e+000	0.000000e+000	0.000000e+000	0.000000e+000
4400180018.002	0.000000e+000	0.000000e+000	-6.793664e-001	5.081404e-001	0.000000e+000	0.000000e+000	0.000000e+000	0.000000e+000
4400200020.002	0.000000e+000	0.000000e+000	-6.267275e-001	4.971249e-001	0.000000e+000	0.000000e+000	0.000000e+000	0.000000e+000
4400220022.002	0.000000e+000	0.000000e+000	-5.690275e-001	4.705704e-001	0.000000e+000	0.000000e+000	0.000000e+000	0.000000e+000
4400240024.002	0.000000e+000	0.000000e+000	-5.123638e-001	4.265044e-001	0.000000e+000	0.000000e+000	0.000000e+000	0.000000e+000
4400260026.003	0.000000e+000	0.000000e+000	-4.635044e-001	3.586640e-001	0.000000e+000	0.000000e+000	0.000000e+000	0.000000e+000
4400280028.003	0.000000e+000	0.000000e+000	-4.337478e-001	2.689536e-001	0.000000e+000	0.000000e+000	0.000000e+000	0.000000e+000
4400300030.003	0.000000e+000	0.000000e+000	-4.343804e-001	1.689332e-001	0.000000e+000	0.000000e+000	0.000000e+000	0.000000e+000
4400320032.003	0.000000e+000	0.000000e+000	-4.697806e-001	7.031198e-002	0.000000e+000	0.000000e+000	0.000000e+000	0.000000e+000
4400340034.003	0.000000e+000	0.000000e+000	-5.357651e-001	-1.041632e-002	0.000000e+000	0.000000e+000	0.000000e+000	0.000000e+000
4400360036.004	0.000000e+000	0.000000e+000	-6.229010e-001	-6.412378e-002	0.000000e+000	0.000000e+000	0.000000e+000	0.000000e+000
4400380038.004	0.000000e+000	0.000000e+000	-7.175652e-001	-8.597211e-002	0.000000e+000	0.000000e+000	0.000000e+000	0.000000e+000
4400400040.004	0.000000e+000	0.000000e+000	-8.032829e-001	-8.007119e-002	0.000000e+000	0.000000e+000	0.000000e+000	0.000000e+000
4400420042.004	0.000000e+000	0.000000e+000	-8.771278e-001	-5.298271e-002	0.000000e+000	0.000000e+000	0.000000e+000	0.000000e+000
4400440044.004	0.000000e+000	0.000000e+000	-9.327772e-001	-1.531376e-002	0.000000e+000	0.000000e+000	0.000000e+000	0.000000e+000
4400460046.005	0.000000e+000	0.000000e+000	-9.756156e-001	2.866269e-002	0.000000e+000	0.000000e+000	0.000000e+000	0.000000e+000
4400480048.005	0.000000e+000	0.000000e+000	-1.005497e+000	7.235961e-002	0.000000e+000	0.000000e+000	0.000000e+000	0.000000e+000
4400500050.005	0.000000e+000	0.000000e+000	-1.026687e+000	1.151884e-001	0.000000e+000	0.000000e+000	0.000000e+000	0.000000e+000
4400520052.005	0.000000e+000	0.000000e+000	-1.039483e+000	1.536254e-001	0.000000e+000	0.000000e+000	0.000000e+000	0.000000e+000
4400540054.005	0.000000e+000	0.000000e+000	-1.046610e+000	1.881767e-001	0.000000e+000	0.000000e+000	0.000000e+000	0.000000e+000
4400560056.006	0.000000e+000	0.000000e+000	-1.049481e+000	2.193174e-001	0.000000e+000	0.000000e+000	0.000000e+000	0.000000e+000
4400580058.006	0.000000e+000	0.000000e+000	-1.050974e+000	2.486908e-001	0.000000e+000	0.000000e+000	0.000000e+000	0.000000e+000
4400600060.006	0.000000e+000	0.000000e+000	-1.051645e+000	2.772000e-001	0.000000e+000	0.000000e+000	0.000000e+000	0.000000e+000
4400620062.006	0.000000e+000	0.000000e+000	-1.050657e+000	3.033177e-001	0.000000e+000	0.000000e+000	0.000000e+000	0.000000e+000
4400640064.006	0.000000e+000	0.000000e+000	-1.048582e+000	3.274249e-001	0.000000e+000	0.000000e+000	0.000000e+000	0.000000e+000
4400660066.007	0.000000e+000	0.000000e+000	-1.043635e+000	3.478369e-001	0.000000e+000	0.000000e+000	0.000000e+000	0.000000e+000
4400680068.007	0.000000e+000	0.000000e+000	-1.038838e+000	3.674232e-001	0.000000e+000	0.000000e+000	0.000000e+000	0.000000e+000
4400700070.007	0.000000e+000	0.000000e+000	-1.033077e+000	3.850061e-001	0.000000e+000	0.000000e+000	0.000000e+000	0.000000e+000
4400720072.007	0.000000e+000	0.000000e+000	-1.028721e+000	4.040418e-001	0.000000e+000	0.000000e+000	0.000000e+000	0.000000e+000
4400740074.007	0.000000e+000	0.000000e+000	-1.023495e+000	4.212603e-001	0.000000e+000	0.000000e+000	0.000000e+000	0.000000e+000
4400760076.008	0.000000e+000	0.000000e+000	-1.018442e+000	4.387652e-001	0.000000e+000	0.000000e+000	0.000000e+000	0.000000e+000
4400780078.008	0.000000e+000	0.000000e+000	-1.012266e+000	4.538664e-001	0.000000e+000	0.000000e+000	0.000000e+000	0.000000e+000
4400800080.008	0.000000e+000	0.000000e+000	-1.005732e+000	4.675996e-001	0.000000e+000	0.000000e+000	0.000000e+000	0.000000e+000
4400820082.008	0.000000e+000	0.000000e+000	-9.989471e-001	4.807061e-001	0.000000e+000	0.000000e+000	0.000000e+000	0.000000e+000
4400840084.008	0.000000e+000	0.000000e+000	-9.923319e-001	4.940960e-001	0.000000e+000	0.000000e+000	0.000000e+000	0.000000e+000
4400860086.009	0.000000e+000	0.000000e+000	-9.868457e-001	5.090006e-001	0.000000e+000	0.000000e+000	0.000000e+000	0.000000e+000
4400880088.009	0.000000e+000	0.000000e+000	-9.805074e-001	5.215019e-001	0.000000e+000	0.000000e+000	0.000000e+000	0.000000e+000
4400900090.009	0.000000e+000	0.000000e+000	-9.745909e-001	5.353074e-001	0.000000e+000	0.000000e+000	0.000000e+000	0.000000e+000
4400920092.009	0.000000e+000	0.000000e+000	-9.671841e-001	5.459458e-001	0.000000e+000	0.000000e+000	0.000000e+000	0.000000e+000
4400940094.009	0.000000e+000	0.000000e+000	-9.606434e-001	5.576665e-001	0.000000e+000	0.000000e+000	0.000000e+000	0.000000e+000
4400960096.010	0.000000e+000	0.000000e+000	-9.531366e-001	5.676691e-001	0.000000e+000	0.000000e+000	0.000000e+000	0.000000e+000
4400980098.010	0.000000e+000	0.000000e+000	-9.465326e-001	5.791656e-001	0.000000e+000	0.000000e+000	0.000000e+000	0.000000e+000
4401000100.010	0.000000e+000	0.000000e+000	-9.398106e-001	5.900462e-001	0.000000e+000	0.000000e+000	0.000000e+000	0.000000e+000
4401020102.010	0.000000e+000	0.000000e+000	-9.334044e-001	6.014796e-001	0.000000e+000	0.000000e+000	0.000000e+000	0.000000e+000
4401040104.010	0.000000e+000	0.000000e+000	-9.268813e-001	6.126068e-001	0.000000e+000	0.000000e+000	0.000000e+000	0.000000e+000
4401060106.011	0.000000e+000	0.000000e+000	-9.196216e-001	6.220884e-001	0.000000e+000	0.000000e+000	0.000000e+000	0.000000e+000
4401080108.011	0.000000e+000	0.000000e+000	-9.122151e-001	6.310571e-001	0.000000e+000	0.000000e+000	0.000000e+000	0.000000e+000
4401100110.011	0.000000e+000	0.000000e+000	-9.044987e-001	6.391305e-001	0.000000e+000	0.000000e+000	0.000000e+000	0.000000e+000
4401120112.011	0.000000e+000	0.000000e+000	-8.977526e-001	6.497319e-001	0.000000e+000	0.000000e+000	0.000000e+000	0.000000e+000
4401140114.011	0.000000e+000	0.000000e+000	-8.907189e-001	6.594719e-001	0.000000e+000	0.000000e+000	0.000000e+000	0.000000e+000
4401160116.012	0.000000e+000	0.000000e+000	-8.842705e-001	6.705432e-001	0.000000e+000	0.000000e+000	0.000000e+000	0.000000e+000
4401180118.012	0.000000e+000	0.000000e+000	-8.767584e-001	6.787060e-001	0.000000e+000	0.000000e+000	0.000000e+000	0.000000e+000
4401200120.012	0.000000e+000	0.000000e+000	-8.690642e-001	6.868013e-001	0.000000e+000	0.000000e+000	0.000000e+000	0.000000e+000
4401220122.012	0.000000e+000	0.000000e+000	-8.611223e-001	6.934003e-001	0.000000e+000	0.000000e+000	0.000000e+000	0.000000e+000
4401240124.012	0.000000e+000	0.000000e+000	-8.538295e-001	7.022804e-001	0.000000e+000	0.000000e+000	0.000000e+000	0.000000e+000
4401260126.013	0.000000e+000	0.000000e+000	-8.467445e-001	7.116851e-001	0.000000e+000	0.000000e+000	0.000000e+000	0.000000e+000
4401280128.013	0.000000e+000	0.000000e+000	-8.396832e-001	7.219300e-001	0.000000e+000	0.000000e+000	0.000000e+000	0.000000e+000
4401300130.013	0.000000e+000	0.000000e+000	-8.322603e-001	7.306225e-001	0.000000e+000	0.000000e+000	0.000000e+000	0.000000e+000
4401320132.013	0.000000e+000	0.000000e+000	-8.244005e-001	7.375386e-001	0.000000e+000	0.000000e+000	0.000000e+000	0.000000e+000
4401340134.013	0.000000e+000	0.000000e+000	-8.164225e-001	7.443378e-001	0.000000e+000	0.000000e+000	0.000000e+000	0.000000e+000
4401360136.014	0.000000e+000	0.000000e+000	-8.084703e-001	7.504217e-001	0.000000e+000	0.000000e+000	0.000000e+000	0.000000e+000
4401380138.014	0.000000e+000	0.000000e+000	-8.011376e-001	7.597779e-001	0.000000e+000	0.000000e+000	0.000000e+000	0.000000e+000
4401400140.014	0.000000e+000	0.000000e+000	-7.934861e-001	7.683998e-001	0.000000e+000	0.000000e+000	0.000000e+000	0.000000e+000
4401420142.014	0.000000e+000	0.000000e+000	-7.861356e-001	7.780286e-001	0.000000e+000	0.000000e+000	0.000000e+000	0.000000e+000
4401440144.014	0.000000e+000	0.000000e+000	-7.781236e-001	7.841241e-001	0.000000e+000	0.000000e+000	0.000000e+000	0.000000e+000
4401460146.015	0.000000e+000	0.000000e+000	-7.700773e-001	7.904492e-001	0.000000e+000	0.000000e+000	0.000000e+000	0.000000e+000
4401480148.015	0.000000e+000	0.000000e+000	-7.617138e-001	7.955883e-001	0.000000e+000	0.000000e+000	0.000000e+000	0.000000e+000
4401500150.015	0.000000e+000	0.000000e+000	-7.536705e-001	8.031108e-001	0.000000e+000	0.000000e+000	0.000000e+000	0.000000e+000
4401520152.015	0.000000e+000	0.000000e+000	-7.458999e-001	8.115384e-001	0.000000e+000	0.000000e+000	0.000000e+000	0.000000e+000
4401540154.015	0.000000e+000	0.000000e+000	-7.379522e-001	8.198653e-001	0.000000e+000	0.000000e+000	0.000000e+000	0.000000e+000
4401560156.016	0.000000e+000	0.000000e+000	-7.298887e-001	8.277299e-001	0.000000e+000	0.000000e+000	0.000000e+000	0.000000e+000
4401580158.016	0.000000e+000	0.000000e+000	-7.215911e-001	8.329221e-001	0.000000e+000	0.000000e+000	0.000000e+000	0.000000e+000
4401600160.016	0.000000e+000	0.000000e+000	-7.132148e-001	8.385577e-001	0.000000e+000	0.000000e+000	0.000000e+000	0.000000e+000
4401620162.016	0.000000e+000	0.000000e+000	-7.046811e-001	8.437329e-001	0.000000e+000	0.000000e+000	0.000000e+000	0.000000e+000
4401640164.016	0.000000e+000	0.000000e+000	-6.963456e-001	8.513224e-001	0.000000e+000	0.000000e+000	0.000000e+000	0.000000e+000
4401660166.017	0.000000e+000	0.000000e+000	-6.881975e-001	8.586095e-001	0.000000e+000	0.000000e+000	0.000000e+000	0.000000e+000
4401680168.017	0.000000e+000	0.000000e+000	-6.799265e-001	8.667203e-001	0.000000e+000	0.000000e+000	0.000000e+000	0.000000e+000
4401700170.017	0.000000e+000	0.000000e+000	-6.713211e-001	8.716182e-001	0.000000e+000	0.000000e+000	0.000000e+000	0.000000e+000
4401720172.017	0.000000e+000	0.000000e+000	-6.627171e-001	8.770883e-001	0.000000e+000	0.000000e+000	0.000000e+000	0.000000e+000
4401740174.017	0.000000e+000	0.000000e+000	-6.539889e-001	8.813871e-001	0.000000e+000	0.000000e+000	0.000000e+000	0.000000e+000
4401760176.018	0.000000e+000	0.000000e+000	-6.451616e-001	8.869823e-001	0.000000e+000	0.000000e+000	0.000000e+000	0.000000e+000
4401780178.018	0.000000e+000	0.000000e+000	-6.365454e-001	8.941540e-001	0.000000e+000	0.000000e+000	0.000000e+000	0.000000e+000
4401800180.018	0.000000e+000	0.000000e+000	-6.277028e-001	9.013987e-001	0.000000e+000	0.000000e+000	0.000000e+000	0.000000e+000
4401820182.018	0.000000e+000	0.000000e+000	-6.189049e-001	9.080756e-001	0.000000e+000	0.000000e+000	0.000000e+000	0.000000e+000
4401840184.018	0.000000e+000	0.000000e+000	-6.099194e-001	9.121032e-001	0.000000e+000	0.000000e+000	0.000000e+000	0.000000e+000
4401860186.019	0.000000e+000	0.000000e+000	-6.009947e-001	9.167528e-001	0.000000e+000	0.000000e+000	0.000000e+000	0.000000e+000
4401880188.019	0.000000e+000	0.000000e+000	-5.918089e-001	9.200638e-001	0.000000e+000	0.000000e+000	0.000000e+000	0.000000e+000
4401900190.019	0.000000e+000	0.000000e+000	-5.827933e-001	9.267829e-001	0.000000e+000	0.000000e+000	0.000000e+000	0.000000e+000
4401920192.019	0.000000e+000	0.000000e+000	-5.736594e-001	9.328034e-001	0.000000e+000	0.000000e+000	0.000000e+000	0.000000e+000
4401940194.019	0.000000e+000	0.000000e+000	-5.642286e-001	9.397533e-001	0.000000e+000	0.000000e+000	0.000000e+000	0.000000e+000
4401960196.020	0.000000e+000	0.000000e+000	-5.548032e-001	9.443646e-001	0.000000e+000	0.000000e+000	0.000000e+000	0.000000e+000
4401980198.020	0.000000e+000	0.000000e+000	-5.454987e-001	9.481783e-001	0.000000e+000	0.000000e+000	0.000000e+000	0.000000e+000
4402000200.020	0.000000e+000	0.000000e+000	-5.364011e-001	9.513620e-001	0.000000e+000	0.000000e+000	0.000000e+000	0.000000e+000
4402020202.020	0.000000e+000	0.000000e+000	-5.267965e-001	9.557432e-001	0.000000e+000	0.000000e+000	0.000000e+000	0.000000e+000
4402040204.020	0.000000e+000	0.000000e+000	-5.170367e-001	9.622082e-001	0.000000e+000	0.000000e+000	0.000000e+000	0.000000e+000
4402060206.021	0.000000e+000	0.000000e+000	-5.072325e-001	9.678328e-001	0.000000e+000	0.000000e+000	0.000000e+000	0.000000e+000
4402080208.021	0.000000e+000	0.000000e+000	-4.971316e-001	9.740539e-001	0.000000e+000	0.000000e+000	0.000000e+000	0.000000e+000
4402100210.021	0.000000e+000	0.000000e+000	-4.876026e-001	9.766845e-001	0.000000e+000	0.000000e+000	0.000000e+000	0.000000e+000
4402120212.021	0.000000e+000	0.000000e+000	-4.775978e-001	9.802117e-001	0.000000e+000	0.000000e+000	0.000000e+000	0.000000e+000
4402140214.021	0.000000e+000	0.000000e+000	-4.679964e-001	9.822931e-001	0.000000e+000	0.000000e+000	0.000000e+000	0.000000e+000
4402160216.022	0.000000e+000	0.000000e+000	-4.576782e-001	9.878384e-001	0.000000e+000	0.000000e+000	0.000000e+000	0.000000e+000
4402180218.022	0.000000e+000	0.000000e+000	-4.471364e-001	9.928880e-001	0.000000e+000	0.000000e+000	0.000000e+000	0.000000e+000
4402200220.022	0.000000e+000	0.000000e+000	-4.364464e-001	9.987999e-001	0.000000e+000	0.000000e+000	0.000000e+000	0.000000e+000
4402220222.022	0.000000e+000	0.000000e+000	-4.260142e-001	1.002352e+000	0.000000e+000	0.000000e+000	0.000000e+000	0.000000e+000
4402240224.022	0.000000e+000	0.000000e+000	-4.155857e-001	1.005005e+000	0.000000e+000	0.000000e+000	0.000000e+000	0.000000e+000
4402260226.023	0.000000e+000	0.000000e+000	-4.051281e-001	1.007248e+000	0.000000e+000	0.000000e+000	0.000000e+000	0.000000e+000
4402280228.023	0.000000e+000	0.000000e+000	-3.944752e-001	1.010391e+000	0.000000e+000	0.000000e+000	0.000000e+000	0.000000e+000
4402300230.023	0.000000e+000	0.000000e+000	-3.828726e-001	1.015177e+000	0.000000e+000	0.000000e+000	0.000000e+000	0.000000e+000
4402320232.023	0.000000e+000	0.000000e+000	-3.717560e-001	1.018894e+000	0.000000e+000	0.000000e+000	0.000000e+000	0.000000e+000
4402340234.023	0.000000e+000	0.000000e+000	-3.599843e-001	1.023106e+000	0.000000e+000	0.000000e+000	0.000000e+000	0.000000e+000
4402360236.024	0.000000e+000	0.000000e+000	-3.487856e-001	1.024804e+000	0.000000e+000	0.000000e+000	0.000000e+000	0.000000e+000
4402380238.024	0.000000e+000	0.000000e+000	-3.373892e-001	1.027494e+000	0.000000e+000	0.000000e+000	0.000000e+000	0.000000e+000
4402400240.024	0.000000e+000	0.000000e+000	-3.260482e-001	1.028297e+000	0.000000e+000	0.000000e+000	0.000000e+000	0.000000e+000
4402420242.024	0.000000e+000	0.000000e+000	-3.134276e-001	1.032257e+000	0.000000e+000	0.000000e+000	0.000000e+000	0.000000e+000
4402440244.024	0.000000e+000	0.000000e+000	-3.008208e-001	1.034959e+000	0.000000e+000	0.000000e+000	0.000000e+000	0.000000e+000
4402460246.025	0.000000e+000	0.000000e+000	-2.877348e-001	1.038124e+000	0.000000e+000	0.000000e+000	0.000000e+000	0.000000e+000
4402480248.025	0.000000e+000	0.000000e+000	-2.750060e-001	1.039860e+000	0.000000e+000	0.000000e+000	0.000000e+000	0.000000e+000
4402500250.025	0.000000e+000	0.000000e+000	-2.622158e-001	1.040963e+000	0.000000e+000	0.000000e+000	0.000000e+000	0.000000e+000
4402520252.025	0.000000e+000	0.000000e+000	-2.487676e-001	1.041562e+000	0.000000e+000	0.000000e+000	0.000000e+000	0.000000e+000
4402540254.025	0.000000e+000	0.000000e+000	-2.353084e-001	1.041788e+000	0.000000e+000	0.000000e+000	0.000000e+000	0.000000e+000
4402560256.026	0.000000e+000	0.000000e+000	-2.205526e-001	1.043763e+000	0.000000e+000	0.000000e+000	0.000000e+000	0.000000e+000
4402580258.026	0.000000e+000	0.000000e+000	-2.054994e-001	1.044285e+000	0.000000e+000	0.000000e+000	0.000000e+000	0.000000e+000
4402600260.026	0.000000e+000	0.000000e+000	-1.896299e-001	1.045559e+000	0.000000e+000	0.000000e+000	0.000000e+000	0.000000e+000
4402620262.026	0.000000e+000	0.000000e+000	-1.742254e-001	1.043751e+000	0.000000e+000	0.000000e+000	0.000000e+000	0.000000e+000
4402640264.026	0.000000e+000	0.000000e+000	-1.579340e-001	1.041577e+000	0.000000e+000	0.000000e+000	0.000000e+000	0.000000e+000
4402660266.027	0.000000e+000	0.000000e+000	-1.417694e-001	1.037832e+000	0.000000e+000	0.000000e+000	0.000000e+000	0.000000e+000
4402680268.027	0.000000e+000	0.000000e+000	-1.236915e-001	1.035162e+000	0.000000e+000	0.000000e+000	0.000000e+000	0.000000e+000
4402700270.027	0.000000e+000	0.000000e+000	-1.048432e-001	1.031603e+000	0.000000e+000	0.000000e+000	0.000000e+000	0.000000e+000
4402720272.027	0.000000e+000	0.000000e+000	-8.467827e-002	1.027009e+000	0.000000e+000	0.000000e+000	0.000000e+000	0.000000e+000
4402740274.027	0.000000e+000	0.000000e+000	-6.478204e-002	1.019123e+000	0.000000e+000	0.000000e+000	0.000000e+000	0.000000e+000
4402760276.028	0.000000e+000	0.000000e+000	-4.432155e-002	1.008288e+000	0.000000e+000	0.000000e+000	0.000000e+000	0.000000e+000
4402780278.028	0.000000e+000	0.000000e+000	-2.360659e-002	9.942150e-001	0.000000e+000	0.000000e+000	0.000000e+000	0.000000e+000
4402800280.028	0.000000e+000	0.000000e+000	-3.330276e-003	9.766554e-001	0.000000e+000	0.000000e+000	0.000000e+000	0.000000e+000
4402820282.028	0.000000e+000	0.000000e+000	1.794497e-002	9.566430e-001	0.000000e+000	0.000000e+000	0.000000e+000	0.000000e+000
4402840284.028	0.000000e+000	0.000000e+000	3.684140e-002	9.313992e-001	0.000000e+000	0.000000e+000	0.000000e+000	0.000000e+000
4402860286.029	0.000000e+000	0.000000e+000	5.343925e-002	9.010021e-001	0.000000e+000	0.000000e+000	0.000000e+000	0.000000e+000
4402880288.029	0.000000e+000	0.000000e+000	6.336881e-002	8.635896e-001	0.000000e+000	0.000000e+000	0.000000e+000	0.000000e+000
4402900290.029	0.000000e+000	0.000000e+000	6.528048e-002	8.215196e-001	0.000000e+000	0.000000e+000	0.000000e+000	0.000000e+000
4402920292.029	0.000000e+000	0.000000e+000	5.574121e-002	7.761364e-001	0.000000e+000	0.000000e+000	0.000000e+000	0.000000e+000
4402940294.029	0.000000e+000	0.000000e+000	3.440483e-002	7.326598e-001	0.000000e+000	0.000000e+000	0.000000e+000	0.000000e+000
4402960296.030	0.000000e+000	0.000000e+000	2.559570e-004	6.952725e-001	0.000000e+000	0.000000e+000	0.000000e+000	0.000000e+000
4402980298.030	0.000000e+000	0.000000e+000	-4.445662e-002	6.694864e-001	0.000000e+000	0.000000e+000	0.000000e+000	0.000000e+000
4403000300.030	0.000000e+000	0.000000e+000	-9.644483e-002	6.584633e-001	0.000000e+000	0.000000e+000	0.000000e+000	0.000000e+000
4403020302.030	0.000000e+000	0.000000e+000	-1.490151e-001	6.624628e-001	0.000000e+000	0.000000e+000	0.000000e+000	0.000000e+000
4403040304.030	0.000000e+000	0.000000e+000	-1.956512e-001	6.817529e-001	0.000000e+000	0.000000e+000	0.000000e+000	0.000000e+000
