!Keysight Technologies,E5063A,MY54502693,A.05.04
!Date: Mon Oct 12 06:38:15 2020
!Data & Calibration Information:
!Freq	S11:NONE(--)	S21:NONE(--)	S12:NONE(--)	S22:NONE(--)
# Hz S RI R 50
4000000000.000	0.000000e+000	0.000000e+000	1.975442e-001	-1.926185e+000	0.000000e+000	0.000000e+000	0.000000e+000	0.000000e+000
4000020002.000	0.000000e+000	0.000000e+000	1.825592e-001	-1.926638e+000	0.000000e+000	0.000000e+000	0.000000e+000	0.000000e+000
4000040004.000	0.000000e+000	0.000000e+000	1.673449e-001	-1.926565e+000	0.000000e+000	0.000000e+000	0.000000e+000	0.000000e+000
4000060006.001	0.000000e+000	0.000000e+000	1.499747e-001	-1.930193e+000	0.000000e+000	0.000000e+000	0.000000e+000	0.000000e+000
4000080008.001	0.000000e+000	0.000000e+000	1.337821e-001	-1.931333e+000	0.000000e+000	0.000000e+000	0.000000e+000	0.000000e+000
4000100010.001	0.000000e+000	0.000000e+000	1.160265e-001	-1.935211e+000	0.000000e+000	0.000000e+000	0.000000e+000	0.000000e+000
4000120012.001	0.000000e+000	0.000000e+000	1.013560e-001	-1.934381e+000	0.000000e+000	0.000000e+000	0.000000e+000	0.000000e+000
4000140014.001	0.000000e+000	0.000000e+000	8.540706e-002	-1.934711e+000	0.000000e+000	0.000000e+000	0.000000e+000	0.000000e+000
4000160016.002	0.000000e+000	0.000000e+000	7.087642e-002	-1.933363e+000	0.000000e+000	0.000000e+000	0.000000e+000	0.000000e+000
4000180018.002	0.000000e+000	0.000000e+000	5.423948e-002	-1.934789e+000	0.000000e+000	0.000000e+000	0.000000e+000	0.000000e+000
4000200020.002	0.000000e+000	0.000000e+000	3.759530e-002	-1.935943e+000	0.000000e+000	0.000000e+000	0.000000e+000	0.000000e+000
4000220022.002	0.000000e+000	0.000000e+000	2.040525e-002	-1.937715e+000	0.000000e+000	0.000000e+000	0.000000e+000	0.000000e+000
4000240024.002	0.000000e+000	0.000000e+000	4.161231e-003	-1.938258e+000	0.000000e+000	0.000000e+000	0.000000e+000	0.000000e+000
4000260026.003	0.000000e+000	0.000000e+000	-1.096379e-002	-1.936973e+000	0.000000e+000	0.000000e+000	0.000000e+000	0.000000e+000
4000280028.003	0.000000e+000	0.000000e+000	-2.667094e-002	-1.936461e+000	0.000000e+000	0.000000e+000	0.000000e+000	0.000000e+000
4000300030.003	0.000000e+000	0.000000e+000	-4.182908e-002	-1.934977e+000	0.000000e+000	0.000000e+000	0.000000e+000	0.000000e+000
4000320032.003	0.000000e+000	0.000000e+000	-5.893845e-002	-1.935864e+000	0.000000e+000	0.000000e+000	0.000000e+000	0.000000e+000
4000340034.003	0.000000e+000	0.000000e+000	-7.540328e-002	-1.935966e+000	0.000000e+000	0.000000e+000	0.000000e+000	0.000000e+000
4000360036.004	0.000000e+000	0.000000e+000	-9.329239e-002	-1.937438e+000	0.000000e+000	0.000000e+000	0.000000e+000	0.000000e+000
4000380038.004	0.000000e+000	0.000000e+000	-1.080498e-001	-1.935197e+000	0.000000e+000	0.000000e+000	0.000000e+000	0.000000e+000
4000400040.004	0.000000e+000	0.000000e+000	-1.243051e-001	-1.934291e+000	0.000000e+000	0.000000e+000	0.000000e+000	0.000000e+000
4000420042.004	0.000000e+000	0.000000e+000	-1.388120e-001	-1.931543e+000	0.000000e+000	0.000000e+000	0.000000e+000	0.000000e+000
4000440044.004	0.000000e+000	0.000000e+000	-1.553511e-001	-1.930612e+000	0.000000e+000	0.000000e+000	0.000000e+000	0.000000e+000
4000460046.005	0.000000e+000	0.000000e+000	-1.718410e-001	-1.929934e+000	0.000000e+000	0.000000e+000	0.000000e+000	0.000000e+000
4000480048.005	0.000000e+000	0.000000e+000	-1.887368e-001	-1.929529e+000	0.000000e+000	0.000000e+000	0.000000e+000	0.000000e+000
4000500050.005	0.000000e+000	0.000000e+000	-2.061706e-001	-1.929228e+000	0.000000e+000	0.000000e+000	0.000000e+000	0.000000e+000
4000520052.005	0.000000e+000	0.000000e+000	-2.207389e-001	-1.926214e+000	0.000000e+000	0.000000e+000	0.000000e+000	0.000000e+000
4000540054.005	0.000000e+000	0.000000e+000	-2.364223e-001	-1.923948e+000	0.000000e+000	0.000000e+000	0.000000e+000	0.000000e+000
4000560056.006	0.000000e+000	0.000000e+000	-2.505688e-001	-1.920458e+000	0.000000e+000	0.000000e+000	0.000000e+000	0.000000e+000
4000580058.006	0.000000e+000	0.000000e+000	-2.681386e-001	-1.919274e+000	0.000000e+000	0.000000e+000	0.000000e+000	0.000000e+000
4000600060.006	0.000000e+000	0.000000e+000	-2.841652e-001	-1.917503e+000	0.000000e+000	0.000000e+000	0.000000e+000	0.000000e+000
4000620062.006	0.000000e+000	0.000000e+000	-3.021853e-001	-1.916940e+000	0.000000e+000	0.000000e+000	0.000000e+000	0.000000e+000
4000640064.006	0.000000e+000	0.000000e+000	-3.174236e-001	-1.913646e+000	0.000000e+000	0.000000e+000	0.000000e+000	0.000000e+000
4000660066.007	0.000000e+000	0.000000e+000	-3.330254e-001	-1.910857e+000	0.000000e+000	0.000000e+000	0.000000e+000	0.000000e+000
4000680068.007	0.000000e+000	0.000000e+000	-3.477380e-001	-1.907151e+000	0.000000e+000	0.000000e+000	0.000000e+000	0.000000e+000
4000700070.007	0.000000e+000	0.000000e+000	-3.631652e-001	-1.903913e+000	0.000000e+000	0.000000e+000	0.000000e+000	0.000000e+000
4000720072.007	0.000000e+000	0.000000e+000	-3.794043e-001	-1.900916e+000	0.000000e+000	0.000000e+000	0.000000e+000	0.000000e+000
4000740074.007	0.000000e+000	0.000000e+000	-3.954329e-001	-1.897952e+000	0.000000e+000	0.000000e+000	0.000000e+000	0.000000e+000
4000760076.008	0.000000e+000	0.000000e+000	-4.134439e-001	-1.896526e+000	0.000000e+000	0.000000e+000	0.000000e+000	0.000000e+000
4000780078.008	0.000000e+000	0.000000e+000	-4.279933e-001	-1.892031e+000	0.000000e+000	0.000000e+000	0.000000e+000	0.000000e+000
4000800080.008	0.000000e+000	0.000000e+000	-4.443256e-001	-1.889054e+000	0.000000e+000	0.000000e+000	0.000000e+000	0.000000e+000
4000820082.008	0.000000e+000	0.000000e+000	-4.576863e-001	-1.883515e+000	0.000000e+000	0.000000e+000	0.000000e+000	0.000000e+000
4000840084.008	0.000000e+000	0.000000e+000	-4.742352e-001	-1.880099e+000	0.000000e+000	0.000000e+000	0.000000e+000	0.000000e+000
4000860086.009	0.000000e+000	0.000000e+000	-4.893599e-001	-1.875481e+000	0.000000e+000	0.000000e+000	0.000000e+000	0.000000e+000
4000880088.009	0.000000e+000	0.000000e+000	-5.070028e-001	-1.873226e+000	0.000000e+000	0.000000e+000	0.000000e+000	0.000000e+000
4000900090.009	0.000000e+000	0.000000e+000	-5.229075e-001	-1.869011e+000	0.000000e+000	0.000000e+000	0.000000e+000	0.000000e+000
4000920092.009	0.000000e+000	0.000000e+000	-5.385983e-001	-1.864803e+000	0.000000e+000	0.000000e+000	0.000000e+000	0.000000e+000
4000940094.009	0.000000e+000	0.000000e+000	-5.526695e-001	-1.858917e+000	0.000000e+000	0.000000e+000	0.000000e+000	0.000000e+000
4000960096.010	0.000000e+000	0.000000e+000	-5.664148e-001	-1.853255e+000	0.000000e+000	0.000000e+000	0.000000e+000	0.000000e+000
4000980098.010	0.000000e+000	0.000000e+000	-5.834539e-001	-1.849665e+000	0.000000e+000	0.000000e+000	0.000000e+000	0.000000e+000
4001000100.010	0.000000e+000	0.000000e+000	-5.998293e-001	-1.845499e+000	0.000000e+000	0.000000e+000	0.000000e+000	0.000000e+000
4001020102.010	0.000000e+000	0.000000e+000	-6.177354e-001	-1.842159e+000	0.000000e+000	0.000000e+000	0.000000e+000	0.000000e+000
4001040104.010	0.000000e+000	0.000000e+000	-6.308606e-001	-1.835373e+000	0.000000e+000	0.000000e+000	0.000000e+000	0.000000e+000
4001060106.011	0.000000e+000	0.000000e+000	-6.458071e-001	-1.829871e+000	0.000000e+000	0.000000e+000	0.000000e+000	0.000000e+000
4001080108.011	0.000000e+000	0.000000e+000	-6.582824e-001	-1.822798e+000	0.000000e+000	0.000000e+000	0.000000e+000	0.000000e+000
4001100110.011	0.000000e+000	0.000000e+000	-6.749831e-001	-1.818087e+000	0.000000e+000	0.000000e+000	0.000000e+000	0.000000e+000
4001120112.011	0.000000e+000	0.000000e+000	-6.905005e-001	-1.812835e+000	0.000000e+000	0.000000e+000	0.000000e+000	0.000000e+000
4001140114.011	0.000000e+000	0.000000e+000	-7.077180e-001	-1.808125e+000	0.000000e+000	0.000000e+000	0.000000e+000	0.000000e+000
4001160116.012	0.000000e+000	0.000000e+000	-7.232053e-001	-1.802748e+000	0.000000e+000	0.000000e+000	0.000000e+000	0.000000e+000
4001180118.012	0.000000e+000	0.000000e+000	-7.368995e-001	-1.795869e+000	0.000000e+000	0.000000e+000	0.000000e+000	0.000000e+000
4001200120.012	0.000000e+000	0.000000e+000	-7.506595e-001	-1.788936e+000	0.000000e+000	0.000000e+000	0.000000e+000	0.000000e+000
4001220122.012	0.000000e+000	0.000000e+000	-7.637925e-001	-1.781587e+000	0.000000e+000	0.000000e+000	0.000000e+000	0.000000e+000
4001240124.012	0.000000e+000	0.000000e+000	-7.807127e-001	-1.776153e+000	0.000000e+000	0.000000e+000	0.000000e+000	0.000000e+000
4001260126.013	0.000000e+000	0.000000e+000	-7.955524e-001	-1.769732e+000	0.000000e+000	0.000000e+000	0.000000e+000	0.000000e+000
4001280128.013	0.000000e+000	0.000000e+000	-8.128259e-001	-1.764235e+000	0.000000e+000	0.000000e+000	0.000000e+000	0.000000e+000
4001300130.013	0.000000e+000	0.000000e+000	-8.262572e-001	-1.756780e+000	0.000000e+000	0.000000e+000	0.000000e+000	0.000000e+000
4001320132.013	0.000000e+000	0.000000e+000	-8.397998e-001	-1.749417e+000	0.000000e+000	0.000000e+000	0.000000e+000	0.000000e+000
4001340134.013	0.000000e+000	0.000000e+000	-8.523227e-001	-1.741453e+000	0.000000e+000	0.000000e+000	0.000000e+000	0.000000e+000
4001360136.014	0.000000e+000	0.000000e+000	-8.671854e-001	-1.734434e+000	0.000000e+000	0.000000e+000	0.000000e+000	0.000000e+000
4001380138.014	0.000000e+000	0.000000e+000	-8.826916e-001	-1.727578e+000	0.000000e+000	0.000000e+000	0.000000e+000	0.000000e+000
4001400140.014	0.000000e+000	0.000000e+000	-8.987332e-001	-1.720815e+000	0.000000e+000	0.000000e+000	0.000000e+000	0.000000e+000
4001420142.014	0.000000e+000	0.000000e+000	-9.144398e-001	-1.713654e+000	0.000000e+000	0.000000e+000	0.000000e+000	0.000000e+000
4001440144.014	0.000000e+000	0.000000e+000	-9.264960e-001	-1.705528e+000	0.000000e+000	0.000000e+000	0.000000e+000	0.000000e+000
4001460146.015	0.000000e+000	0.000000e+000	-9.402549e-001	-1.697377e+000	0.000000e+000	0.000000e+000	0.000000e+000	0.000000e+000
4001480148.015	0.000000e+000	0.000000e+000	-9.519086e-001	-1.688342e+000	0.000000e+000	0.000000e+000	0.000000e+000	0.000000e+000
4001500150.015	0.000000e+000	0.000000e+000	-9.684320e-001	-1.681306e+000	0.000000e+000	0.000000e+000	0.000000e+000	0.000000e+000
4001520152.015	0.000000e+000	0.000000e+000	-9.832910e-001	-1.673487e+000	0.000000e+000	0.000000e+000	0.000000e+000	0.000000e+000
4001540154.015	0.000000e+000	0.000000e+000	-9.990175e-001	-1.665966e+000	0.000000e+000	0.000000e+000	0.000000e+000	0.000000e+000
4001560156.016	0.000000e+000	0.000000e+000	-1.011800e+000	-1.657114e+000	0.000000e+000	0.000000e+000	0.000000e+000	0.000000e+000
4001580158.016	0.000000e+000	0.000000e+000	-1.024910e+000	-1.648276e+000	0.000000e+000	0.000000e+000	0.000000e+000	0.000000e+000
4001600160.016	0.000000e+000	0.000000e+000	-1.036275e+000	-1.638698e+000	0.000000e+000	0.000000e+000	0.000000e+000	0.000000e+000
4001620162.016	0.000000e+000	0.000000e+000	-1.049554e+000	-1.630024e+000	0.000000e+000	0.000000e+000	0.000000e+000	0.000000e+000
4001640164.016	0.000000e+000	0.000000e+000	-1.065252e+000	-1.621966e+000	0.000000e+000	0.000000e+000	0.000000e+000	0.000000e+000
4001660166.017	0.000000e+000	0.000000e+000	-1.079164e+000	-1.613105e+000	0.000000e+000	0.000000e+000	0.000000e+000	0.000000e+000
4001680168.017	0.000000e+000	0.000000e+000	-1.094553e+000	-1.604688e+000	0.000000e+000	0.000000e+000	0.000000e+000	0.000000e+000
4001700170.017	0.000000e+000	0.000000e+000	-1.106015e+000	-1.594892e+000	0.000000e+000	0.000000e+000	0.000000e+000	0.000000e+000
4001720172.017	0.000000e+000	0.000000e+000	-1.118802e+000	-1.585464e+000	0.000000e+000	0.000000e+000	0.000000e+000	0.000000e+000
4001740174.017	0.000000e+000	0.000000e+000	-1.129490e+000	-1.575376e+000	0.000000e+000	0.000000e+000	0.000000e+000	0.000000e+000
4001760176.018	0.000000e+000	0.000000e+000	-1.144167e+000	-1.566292e+000	0.000000e+000	0.000000e+000	0.000000e+000	0.000000e+000
4001780178.018	0.000000e+000	0.000000e+000	-1.157497e+000	-1.556766e+000	0.000000e+000	0.000000e+000	0.000000e+000	0.000000e+000
4001800180.018	0.000000e+000	0.000000e+000	-1.172907e+000	-1.547748e+000	0.000000e+000	0.000000e+000	0.000000e+000	0.000000e+000
4001820182.018	0.000000e+000	0.000000e+000	-1.185218e+000	-1.537682e+000	0.000000e+000	0.000000e+000	0.000000e+000	0.000000e+000
4001840184.018	0.000000e+000	0.000000e+000	-1.197297e+000	-1.527574e+000	0.000000e+000	0.000000e+000	0.000000e+000	0.000000e+000
4001860186.019	0.000000e+000	0.000000e+000	-1.207886e+000	-1.516899e+000	0.000000e+000	0.000000e+000	0.000000e+000	0.000000e+000
4001880188.019	0.000000e+000	0.000000e+000	-1.219030e+000	-1.506436e+000	0.000000e+000	0.000000e+000	0.000000e+000	0.000000e+000
4001900190.019	0.000000e+000	0.000000e+000	-1.234110e+000	-1.496688e+000	0.000000e+000	0.000000e+000	0.000000e+000	0.000000e+000
4001920192.019	0.000000e+000	0.000000e+000	-1.246743e+000	-1.486230e+000	0.000000e+000	0.000000e+000	0.000000e+000	0.000000e+000
4001940194.019	0.000000e+000	0.000000e+000	-1.261550e+000	-1.476481e+000	0.000000e+000	0.000000e+000	0.000000e+000	0.000000e+000
4001960196.020	0.000000e+000	0.000000e+000	-1.271693e+000	-1.465468e+000	0.000000e+000	0.000000e+000	0.000000e+000	0.000000e+000
4001980198.020	0.000000e+000	0.000000e+000	-1.283742e+000	-1.454624e+000	0.000000e+000	0.000000e+000	0.000000e+000	0.000000e+000
4002000200.020	0.000000e+000	0.000000e+000	-1.292692e+000	-1.443323e+000	0.000000e+000	0.000000e+000	0.000000e+000	0.000000e+000
4002020202.020	0.000000e+000	0.000000e+000	-1.305744e+000	-1.432524e+000	0.000000e+000	0.000000e+000	0.000000e+000	0.000000e+000
4002040204.020	0.000000e+000	0.000000e+000	-1.318241e+000	-1.421604e+000	0.000000e+000	0.000000e+000	0.000000e+000	0.000000e+000
4002060206.021	0.000000e+000	0.000000e+000	-1.332780e+000	-1.410967e+000	0.000000e+000	0.000000e+000	0.000000e+000	0.000000e+000
4002080208.021	0.000000e+000	0.000000e+000	-1.344487e+000	-1.399869e+000	0.000000e+000	0.000000e+000	0.000000e+000	0.000000e+000
4002100210.021	0.000000e+000	0.000000e+000	-1.354246e+000	-1.388204e+000	0.000000e+000	0.000000e+000	0.000000e+000	0.000000e+000
4002120212.021	0.000000e+000	0.000000e+000	-1.364386e+000	-1.376512e+000	0.000000e+000	0.000000e+000	0.000000e+000	0.000000e+000
4002140214.021	0.000000e+000	0.000000e+000	-1.374365e+000	-1.364976e+000	0.000000e+000	0.000000e+000	0.000000e+000	0.000000e+000
4002160216.022	0.000000e+000	0.000000e+000	-1.388090e+000	-1.353659e+000	0.000000e+000	0.000000e+000	0.000000e+000	0.000000e+000
4002180218.022	0.000000e+000	0.000000e+000	-1.399590e+000	-1.342058e+000	0.000000e+000	0.000000e+000	0.000000e+000	0.000000e+000
4002200220.022	0.000000e+000	0.000000e+000	-1.413346e+000	-1.330624e+000	0.000000e+000	0.000000e+000	0.000000e+000	0.000000e+000
4002220222.022	0.000000e+000	0.000000e+000	-1.422457e+000	-1.318490e+000	0.000000e+000	0.000000e+000	0.000000e+000	0.000000e+000
4002240224.022	0.000000e+000	0.000000e+000	-1.433481e+000	-1.306479e+000	0.000000e+000	0.000000e+000	0.000000e+000	0.000000e+000
4002260226.023	0.000000e+000	0.000000e+000	-1.441090e+000	-1.294186e+000	0.000000e+000	0.000000e+000	0.000000e+000	0.000000e+000
4002280228.023	0.000000e+000	0.000000e+000	-1.452337e+000	-1.282164e+000	0.000000e+000	0.000000e+000	0.000000e+000	0.000000e+000
4002300230.023	0.000000e+000	0.000000e+000	-1.464203e+000	-1.270079e+000	0.000000e+000	0.000000e+000	0.000000e+000	0.000000e+000
4002320232.023	0.000000e+000	0.000000e+000	-1.476445e+000	-1.257823e+000	0.000000e+000	0.000000e+000	0.000000e+000	0.000000e+000
4002340234.023	0.000000e+000	0.000000e+000	-1.487447e+000	-1.245466e+000	0.000000e+000	0.000000e+000	0.000000e+000	0.000000e+000
4002360236.024	0.000000e+000	0.000000e+000	-1.495601e+000	-1.232735e+000	0.000000e+000	0.000000e+000	0.000000e+000	0.000000e+000
4002380238.024	0.000000e+000	0.000000e+000	-1.505137e+000	-1.220308e+000	0.000000e+000	0.000000e+000	0.000000e+000	0.000000e+000
4002400240.024	0.000000e+000	0.000000e+000	-1.512920e+000	-1.207189e+000	0.000000e+000	0.000000e+000	0.000000e+000	0.000000e+000
4002420242.024	0.000000e+000	0.000000e+000	-1.525338e+000	-1.194797e+000	0.000000e+000	0.000000e+000	0.000000e+000	0.000000e+000
4002440244.024	0.000000e+000	0.000000e+000	-1.535135e+000	-1.181931e+000	0.000000e+000	0.000000e+000	0.000000e+000	0.000000e+000
4002460246.025	0.000000e+000	0.000000e+000	-1.547683e+000	-1.169261e+000	0.000000e+000	0.000000e+000	0.000000e+000	0.000000e+000
4002480248.025	0.000000e+000	0.000000e+000	-1.556135e+000	-1.156248e+000	0.000000e+000	0.000000e+000	0.000000e+000	0.000000e+000
4002500250.025	0.000000e+000	0.000000e+000	-1.565362e+000	-1.142975e+000	0.000000e+000	0.000000e+000	0.000000e+000	0.000000e+000
4002520252.025	0.000000e+000	0.000000e+000	-1.573051e+000	-1.129960e+000	0.000000e+000	0.000000e+000	0.000000e+000	0.000000e+000
4002540254.025	0.000000e+000	0.000000e+000	-1.581432e+000	-1.116692e+000	0.000000e+000	0.000000e+000	0.000000e+000	0.000000e+000
4002560256.026	0.000000e+000	0.000000e+000	-1.591362e+000	-1.103374e+000	0.000000e+000	0.000000e+000	0.000000e+000	0.000000e+000
4002580258.026	0.000000e+000	0.000000e+000	-1.600784e+000	-1.090080e+000	0.000000e+000	0.000000e+000	0.000000e+000	0.000000e+000
4002600260.026	0.000000e+000	0.000000e+000	-1.611644e+000	-1.076486e+000	0.000000e+000	0.000000e+000	0.000000e+000	0.000000e+000
4002620262.026	0.000000e+000	0.000000e+000	-1.619313e+000	-1.062949e+000	0.000000e+000	0.000000e+000	0.000000e+000	0.000000e+000
4002640264.026	0.000000e+000	0.000000e+000	-1.628070e+000	-1.049291e+000	0.000000e+000	0.000000e+000	0.000000e+000	0.000000e+000
4002660266.027	0.000000e+000	0.000000e+000	-1.634058e+000	-1.035648e+000	0.000000e+000	0.000000e+000	0.000000e+000	0.000000e+000
4002680268.027	0.000000e+000	0.000000e+000	-1.643587e+000	-1.021870e+000	0.000000e+000	0.000000e+000	0.000000e+000	0.000000e+000
4002700270.027	0.000000e+000	0.000000e+000	-1.651546e+000	-1.008152e+000	0.000000e+000	0.000000e+000	0.000000e+000	0.000000e+000
4002720272.027	0.000000e+000	0.000000e+000	-1.661994e+000	-9.941212e-001	0.000000e+000	0.000000e+000	0.000000e+000	0.000000e+000
4002740274.027	0.000000e+000	0.000000e+000	-1.670084e+000	-9.799451e-001	0.000000e+000	0.000000e+000	0.000000e+000	0.000000e+000
4002760276.028	0.000000e+000	0.000000e+000	-1.677538e+000	-9.661702e-001	0.000000e+000	0.000000e+000	0.000000e+000	0.000000e+000
4002780278.028	0.000000e+000	0.000000e+000	-1.683371e+000	-9.520928e-001	0.000000e+000	0.000000e+000	0.000000e+000	0.000000e+000
4002800280.028	0.000000e+000	0.000000e+000	-1.690507e+000	-9.382629e-001	0.000000e+000	0.000000e+000	0.000000e+000	0.000000e+000
4002820282.028	0.000000e+000	0.000000e+000	-1.699736e+000	-9.238099e-001	0.000000e+000	0.000000e+000	0.000000e+000	0.000000e+000
4002840284.028	0.000000e+000	0.000000e+000	-1.708351e+000	-9.092674e-001	0.000000e+000	0.000000e+000	0.000000e+000	0.000000e+000
4002860286.029	0.000000e+000	0.000000e+000	-1.718399e+000	-8.946324e-001	0.000000e+000	0.000000e+000	0.000000e+000	0.000000e+000
4002880288.029	0.000000e+000	0.000000e+000	-1.723146e+000	-8.805865e-001	0.000000e+000	0.000000e+000	0.000000e+000	0.000000e+000
4002900290.029	0.000000e+000	0.000000e+000	-1.729473e+000	-8.662466e-001	0.000000e+000	0.000000e+000	0.000000e+000	0.000000e+000
4002920292.029	0.000000e+000	0.000000e+000	-1.733678e+000	-8.521839e-001	0.000000e+000	0.000000e+000	0.000000e+000	0.000000e+000
4002940294.029	0.000000e+000	0.000000e+000	-1.742261e+000	-8.375922e-001	0.000000e+000	0.000000e+000	0.000000e+000	0.000000e+000
4002960296.030	0.000000e+000	0.000000e+000	-1.749450e+000	-8.227010e-001	0.000000e+000	0.000000e+000	0.000000e+000	0.000000e+000
4002980298.030	0.000000e+000	0.000000e+000	-1.758753e+000	-8.075184e-001	0.000000e+000	0.000000e+000	0.000000e+000	0.000000e+000
4003000300.030	0.000000e+000	0.000000e+000	-1.765648e+000	-7.926405e-001	0.000000e+000	0.000000e+000	0.000000e+000	0.000000e+000
4003020302.030	0.000000e+000	0.000000e+000	-1.770244e+000	-7.780729e-001	0.000000e+000	0.000000e+000	0.000000e+000	0.000000e+000
