"# Channel 1"
"# Trace 1"
Frequency, Formatted Data, Formatted Data
+4.00000000000E+009, +1.97544221082E-001, -1.92618484496E+000
+4.00002000200E+009, +1.82559203305E-001, -1.92663754718E+000
+4.00004000400E+009, +1.67344859228E-001, -1.92656540637E+000
+4.00006000600E+009, +1.49974708549E-001, -1.93019341289E+000
+4.00008000800E+009, +1.33782144790E-001, -1.93133338299E+000
+4.00010001000E+009, +1.16026493108E-001, -1.93521105347E+000
+4.00012001200E+009, +1.01355977633E-001, -1.93438130641E+000
+4.00014001400E+009, +8.54070593938E-002, -1.93471058948E+000
+4.00016001600E+009, +7.08764183690E-002, -1.93336270316E+000
+4.00018001800E+009, +5.42394834492E-002, -1.93478937438E+000
+4.00020002000E+009, +3.75953048705E-002, -1.93594252106E+000
+4.00022002200E+009, +2.04052539908E-002, -1.93771504374E+000
+4.00024002400E+009, +4.16123093715E-003, -1.93825805164E+000
+4.00026002600E+009, -1.09637932880E-002, -1.93697260269E+000
+4.00028002800E+009, -2.66709352577E-002, -1.93646141822E+000
+4.00030003000E+009, -4.18290760519E-002, -1.93497718698E+000
+4.00032003200E+009, -5.89384469544E-002, -1.93586426192E+000
+4.00034003400E+009, -7.54032813376E-002, -1.93596623548E+000
+4.00036003600E+009, -9.32923903027E-002, -1.93743825727E+000
+4.00038003800E+009, -1.08049790301E-001, -1.93519711308E+000
+4.00040004000E+009, -1.24305085291E-001, -1.93429104306E+000
+4.00042004200E+009, -1.38811967101E-001, -1.93154263524E+000
+4.00044004400E+009, -1.55351074050E-001, -1.93061232363E+000
+4.00046004600E+009, -1.71841024043E-001, -1.92993365824E+000
+4.00048004800E+009, -1.88736758959E-001, -1.92952888578E+000
+4.00050005001E+009, -2.06170627437E-001, -1.92922757771E+000
+4.00052005201E+009, -2.20738879120E-001, -1.92621395995E+000
+4.00054005401E+009, -2.36422289372E-001, -1.92394835488E+000
+4.00056005601E+009, -2.50568831673E-001, -1.92045768208E+000
+4.00058005801E+009, -2.68138617362E-001, -1.91927416087E+000
+4.00060006001E+009, -2.84165151467E-001, -1.91750263143E+000
+4.00062006201E+009, -3.02185333239E-001, -1.91693993651E+000
+4.00064006401E+009, -3.17423640099E-001, -1.91364622881E+000
+4.00066006601E+009, -3.33025421329E-001, -1.91085672636E+000
+4.00068006801E+009, -3.47738049674E-001, -1.90715084221E+000
+4.00070007001E+009, -3.63165183509E-001, -1.90391323496E+000
+4.00072007201E+009, -3.79404256664E-001, -1.90091597243E+000
+4.00074007401E+009, -3.95432945709E-001, -1.89795222533E+000
+4.00076007601E+009, -4.13443909731E-001, -1.89652617476E+000
+4.00078007801E+009, -4.27993268203E-001, -1.89203102757E+000
+4.00080008001E+009, -4.44325629424E-001, -1.88905369172E+000
+4.00082008201E+009, -4.57686284968E-001, -1.88351516114E+000
+4.00084008401E+009, -4.74235237849E-001, -1.88009888377E+000
+4.00086008601E+009, -4.89359861826E-001, -1.87548090038E+000
+4.00088008801E+009, -5.07002799615E-001, -1.87322620380E+000
+4.00090009001E+009, -5.22907450177E-001, -1.86901080668E+000
+4.00092009201E+009, -5.38598258764E-001, -1.86480328923E+000
+4.00094009401E+009, -5.52669501142E-001, -1.85891742213E+000
+4.00096009601E+009, -5.66414786174E-001, -1.85325512311E+000
+4.00098009801E+009, -5.83453874817E-001, -1.84966451808E+000
+4.00100010001E+009, -5.99829301759E-001, -1.84549867982E+000
+4.00102010201E+009, -6.17735422035E-001, -1.84215934447E+000
+4.00104010401E+009, -6.30860630633E-001, -1.83537266994E+000
+4.00106010601E+009, -6.45807069358E-001, -1.82987122887E+000
+4.00108010801E+009, -6.58282358970E-001, -1.82279818508E+000
+4.00110011001E+009, -6.74983128421E-001, -1.81808716892E+000
+4.00112011201E+009, -6.90500544147E-001, -1.81283463053E+000
+4.00114011401E+009, -7.07718044371E-001, -1.80812510578E+000
+4.00116011601E+009, -7.23205264666E-001, -1.80274763121E+000
+4.00118011801E+009, -7.36899538034E-001, -1.79586882867E+000
+4.00120012001E+009, -7.50659525032E-001, -1.78893604800E+000
+4.00122012201E+009, -7.63792495953E-001, -1.78158703988E+000
+4.00124012401E+009, -7.80712699070E-001, -1.77615314870E+000
+4.00126012601E+009, -7.95552385345E-001, -1.76973171480E+000
+4.00128012801E+009, -8.12825899244E-001, -1.76423454491E+000
+4.00130013001E+009, -8.26257207679E-001, -1.75678029451E+000
+4.00132013201E+009, -8.39799779833E-001, -1.74941669354E+000
+4.00134013401E+009, -8.52322748755E-001, -1.74145297718E+000
+4.00136013601E+009, -8.67185435725E-001, -1.73443392543E+000
+4.00138013801E+009, -8.82691601288E-001, -1.72757848769E+000
+4.00140014001E+009, -8.98733223974E-001, -1.72081542172E+000
+4.00142014201E+009, -9.14439779457E-001, -1.71365398023E+000
+4.00144014401E+009, -9.26495995664E-001, -1.70552796954E+000
+4.00146014601E+009, -9.40254878103E-001, -1.69737740061E+000
+4.00148014801E+009, -9.51908621734E-001, -1.68834153259E+000
+4.00150015002E+009, -9.68431964916E-001, -1.68130556354E+000
+4.00152015202E+009, -9.83291032767E-001, -1.67348666028E+000
+4.00154015402E+009, -9.99017456333E-001, -1.66596592559E+000
+4.00156015602E+009, -1.01180009830E+000, -1.65711422179E+000
+4.00158015802E+009, -1.02491007559E+000, -1.64827623015E+000
+4.00160016002E+009, -1.03627477251E+000, -1.63869827349E+000
+4.00162016202E+009, -1.04955380080E+000, -1.63002382902E+000
+4.00164016402E+009, -1.06525188554E+000, -1.62196562259E+000
+4.00166016602E+009, -1.07916407029E+000, -1.61310463162E+000
+4.00168016802E+009, -1.09455267716E+000, -1.60468796065E+000
+4.00170017002E+009, -1.10601513686E+000, -1.59489166380E+000
+4.00172017202E+009, -1.11880180220E+000, -1.58546384393E+000
+4.00174017402E+009, -1.12949029925E+000, -1.57537612842E+000
+4.00176017602E+009, -1.14416707614E+000, -1.56629242404E+000
+4.00178017802E+009, -1.15749691988E+000, -1.55676639116E+000
+4.00180018002E+009, -1.17290657118E+000, -1.54774840952E+000
+4.00182018202E+009, -1.18521779384E+000, -1.53768225344E+000
+4.00184018402E+009, -1.19729716194E+000, -1.52757417604E+000
+4.00186018602E+009, -1.20788617539E+000, -1.51689883381E+000
+4.00188018802E+009, -1.21903006007E+000, -1.50643566082E+000
+4.00190019002E+009, -1.23410981048E+000, -1.49668767979E+000
+4.00192019202E+009, -1.24674312311E+000, -1.48623002581E+000
+4.00194019402E+009, -1.26155031369E+000, -1.47648120975E+000
+4.00196019602E+009, -1.27169337254E+000, -1.46546807970E+000
+4.00198019802E+009, -1.28374157881E+000, -1.45462434583E+000
+4.00200020002E+009, -1.29269180389E+000, -1.44332289537E+000
+4.00202020202E+009, -1.30574380212E+000, -1.43252385264E+000
+4.00204020402E+009, -1.31824088956E+000, -1.42160410154E+000
+4.00206020602E+009, -1.33278036994E+000, -1.41096743974E+000
+4.00208020802E+009, -1.34448729809E+000, -1.39986937985E+000
+4.00210021002E+009, -1.35424636239E+000, -1.38820362607E+000
+4.00212021202E+009, -1.36438587347E+000, -1.37651223166E+000
+4.00214021402E+009, -1.37436487708E+000, -1.36497645340E+000
+4.00216021602E+009, -1.38809000129E+000, -1.35365877680E+000
+4.00218021802E+009, -1.39958979622E+000, -1.34205773846E+000
+4.00220022002E+009, -1.41334594138E+000, -1.33062357899E+000
+4.00222022202E+009, -1.42245733299E+000, -1.31849013260E+000
+4.00224022402E+009, -1.43348084591E+000, -1.30647913055E+000
+4.00226022602E+009, -1.44108967612E+000, -1.29418576978E+000
+4.00228022802E+009, -1.45233739102E+000, -1.28216429001E+000
+4.00230023002E+009, -1.46420311852E+000, -1.27007901681E+000
+4.00232023202E+009, -1.47644508888E+000, -1.25782267307E+000
+4.00234023402E+009, -1.48744650095E+000, -1.24546569917E+000
+4.00236023602E+009, -1.49560059199E+000, -1.23273487597E+000
+4.00238023802E+009, -1.50513662777E+000, -1.22030827120E+000
+4.00240024002E+009, -1.51292029321E+000, -1.20718895780E+000
+4.00242024202E+009, -1.52533752701E+000, -1.19479717930E+000
+4.00244024402E+009, -1.53513546236E+000, -1.18193129640E+000
+4.00246024602E+009, -1.54768322082E+000, -1.16926114183E+000
+4.00248024802E+009, -1.55613507015E+000, -1.15624766796E+000
+4.00250025003E+009, -1.56536233497E+000, -1.14297485580E+000
+4.00252025203E+009, -1.57305126251E+000, -1.12995973268E+000
+4.00254025403E+009, -1.58143226085E+000, -1.11669242432E+000
+4.00256025603E+009, -1.59136202685E+000, -1.10337372407E+000
+4.00258025803E+009, -1.60078376149E+000, -1.09007982975E+000
+4.00260026003E+009, -1.61164404245E+000, -1.07648647847E+000
+4.00262026203E+009, -1.61931253733E+000, -1.06294851730E+000
+4.00264026403E+009, -1.62807021381E+000, -1.04929110494E+000
+4.00266026603E+009, -1.63405755091E+000, -1.03564829800E+000
+4.00268026803E+009, -1.64358687702E+000, -1.02187038398E+000
+4.00270027003E+009, -1.65154632381E+000, -1.00815196281E+000
+4.00272027203E+009, -1.66199369803E+000, -9.94121176483E-001
+4.00274027403E+009, -1.67008372573E+000, -9.79945123316E-001
+4.00276027603E+009, -1.67753782076E+000, -9.66170231723E-001
+4.00278027803E+009, -1.68337115149E+000, -9.52092820124E-001
+4.00280028003E+009, -1.69050734083E+000, -9.38262900966E-001
+4.00282028203E+009, -1.69973636685E+000, -9.23809881630E-001
+4.00284028403E+009, -1.70835057301E+000, -9.09267432805E-001
+4.00286028603E+009, -1.71839878891E+000, -8.94632376662E-001
+4.00288028803E+009, -1.72314600612E+000, -8.80586495409E-001
+4.00290029003E+009, -1.72947297506E+000, -8.66246580509E-001
+4.00292029203E+009, -1.73367810410E+000, -8.52183868095E-001
+4.00294029403E+009, -1.74226098758E+000, -8.37592231935E-001
+4.00296029603E+009, -1.74944996585E+000, -8.22701021991E-001
+4.00298029803E+009, -1.75875308292E+000, -8.07518363678E-001
+4.00300030003E+009, -1.76564772510E+000, -7.92640518546E-001
+4.00302030203E+009, -1.77024447453E+000, -7.78072871231E-001
+4.00304030403E+009, -1.77535046549E+000, -7.63647481312E-001
+4.00306030603E+009, -1.77967821990E+000, -7.49331896053E-001
+4.00308030803E+009, -1.78824668506E+000, -7.33641544599E-001
+4.00310031003E+009, -1.79439287709E+000, -7.18601799077E-001
+4.00312031203E+009, -1.80314672430E+000, -7.02848445833E-001
+4.00314031403E+009, -1.80661486233E+000, -6.88330748515E-001
+4.00316031603E+009, -1.81174712186E+000, -6.73429588244E-001
+4.00318031803E+009, -1.81502471027E+000, -6.58772462568E-001
+4.00320032003E+009, -1.82063207427E+000, -6.43251454554E-001
+4.00322032203E+009, -1.82707256489E+000, -6.27715401530E-001
+4.00324032403E+009, -1.83332745015E+000, -6.12057900167E-001
+4.00326032603E+009, -1.83942069835E+000, -5.96190179319E-001
+4.00328032803E+009, -1.84174469744E+000, -5.81605451810E-001
+4.00330033003E+009, -1.84548327515E+000, -5.66527652800E-001
+4.00332033203E+009, -1.84770943792E+000, -5.51627798018E-001
+4.00334033403E+009, -1.85411213186E+000, -5.35552769898E-001
+4.00336033603E+009, -1.85924561953E+000, -5.19936866424E-001
+4.00338033803E+009, -1.86586349030E+000, -5.03334929032E-001
+4.00340034003E+009, -1.86792594187E+000, -4.88490804136E-001
+4.00342034203E+009, -1.87136279362E+000, -4.72947996035E-001
+4.00344034403E+009, -1.87266037396E+000, -4.58333251883E-001
+4.00346034603E+009, -1.87671916915E+000, -4.42575767323E-001
+4.00348034803E+009, -1.88093431239E+000, -4.26351509598E-001
+4.00350035004E+009, -1.88550152799E+000, -4.09859594952E-001
+4.00352035204E+009, -1.89048351169E+000, -3.93370107173E-001
+4.00354035404E+009, -1.89091543380E+000, -3.78848189678E-001
+4.00356035604E+009, -1.89375486587E+000, -3.63149999749E-001
+4.00358035804E+009, -1.89437873156E+000, -3.48647893734E-001
+4.00360036004E+009, -1.89858852510E+000, -3.31696190787E-001
+4.00362036204E+009, -1.90136822462E+000, -3.15910158153E-001
+4.00364036404E+009, -1.90623220616E+000, -2.98522391388E-001
+4.00366036604E+009, -1.90733130800E+000, -2.83497819464E-001
+4.00368036804E+009, -1.90892034311E+000, -2.67555307762E-001
+4.00370037004E+009, -1.90918135800E+000, -2.52745890653E-001
+4.00372037204E+009, -1.91007233038E+000, -2.37211240148E-001
+4.00374037404E+009, -1.91370712746E+000, -2.20208774206E-001
+4.00376037604E+009, -1.91569325842E+000, -2.04102518165E-001
+4.00378037804E+009, -1.91913516294E+000, -1.86753313405E-001
+4.00380038004E+009, -1.91834749798E+000, -1.72117167149E-001
+4.00382038204E+009, -1.91966682958E+000, -1.55944343114E-001
+4.00384038404E+009, -1.91811444263E+000, -1.41491697387E-001
+4.00386038604E+009, -1.92015813645E+000, -1.24807150226E-001
+4.00388038804E+009, -1.92142677847E+000, -1.08259882522E-001
+4.00390039004E+009, -1.92380981761E+000, -9.11093025037E-002
+4.00392039204E+009, -1.92393136067E+000, -7.53351110743E-002
+4.00394039404E+009, -1.92361253694E+000, -6.00416171025E-002
+4.00396039604E+009, -1.92268185204E+000, -4.47342657238E-002
+4.00398039804E+009, -1.92137255697E+000, -2.99851429649E-002
+4.00400040004E+009, -1.92294833381E+000, -1.26711311894E-002
+4.00402040204E+009, -1.92286258577E+000, +3.62608558177E-003
+4.00404040404E+009, -1.92470771329E+000, +2.12715519443E-002
+4.00406040604E+009, -1.92264096928E+000, +3.60790065194E-002
+4.00408040804E+009, -1.92163215286E+000, +5.17048946753E-002
+4.00410041004E+009, -1.91915830254E+000, +6.58885556319E-002
+4.00412041204E+009, -1.91881014274E+000, +8.25795223099E-002
+4.00414041404E+009, -1.91857351427E+000, +9.90217571113E-002
+4.00416041604E+009, -1.91921519062E+000, +1.16388958462E-001
+4.00418041804E+009, -1.91806471226E+000, +1.32770602403E-001
+4.00420042004E+009, -1.91496955732E+000, +1.47368334713E-001
+4.00422042204E+009, -1.91311564661E+000, +1.62861669305E-001
+4.00424042404E+009, -1.90992541785E+000, +1.77372649519E-001
+4.00426042604E+009, -1.90949993115E+000, +1.94334204371E-001
+4.00428042804E+009, -1.90762855044E+000, +2.10495149837E-001
+4.00430043004E+009, -1.90787817276E+000, +2.28186527009E-001
+4.00432043204E+009, -1.90397009336E+000, +2.42409104863E-001
+4.00434043404E+009, -1.90186744127E+000, +2.58556792374E-001
+4.00436043604E+009, -1.89841863371E+000, +2.73183314494E-001
+4.00438043804E+009, -1.89506992850E+000, +2.88175095443E-001
+4.00440044004E+009, -1.89263425586E+000, +3.04346172501E-001
+4.00442044204E+009, -1.89023363724E+000, +3.20569246554E-001
+4.00444044404E+009, -1.88836028892E+000, +3.37222011901E-001
+4.00446044604E+009, -1.88497023806E+000, +3.52549804891E-001
+4.00448044804E+009, -1.88161254582E+000, +3.68083915331E-001
+4.00450045005E+009, -1.87691096447E+000, +3.82308090520E-001
+4.00452045205E+009, -1.87381223753E+000, +3.98469623054E-001
+4.00454045405E+009, -1.86962753044E+000, +4.13423690933E-001
+4.00456045605E+009, -1.86744324045E+000, +4.30484041988E-001
+4.00458045805E+009, -1.86346619271E+000, +4.46212445455E-001
+4.00460046005E+009, -1.85912746859E+000, +4.60628259017E-001
+4.00462046205E+009, -1.85384922742E+000, +4.74870960441E-001
+4.00464046405E+009, -1.84922583665E+000, +4.89831762863E-001
+4.00466046605E+009, -1.84536678031E+000, +5.06138120943E-001
+4.00468046805E+009, -1.84175030406E+000, +5.22244642632E-001
+4.00470047005E+009, -1.83867791663E+000, +5.39398411723E-001
+4.00472047205E+009, -1.83236936505E+000, +5.52198857269E-001
+4.00474047405E+009, -1.82691371769E+000, +5.66836768938E-001
+4.00476047605E+009, -1.82013675883E+000, +5.79659426285E-001
+4.00478047805E+009, -1.81641352493E+000, +5.96471901968E-001
+4.00480048005E+009, -1.81105565302E+000, +6.11651103169E-001
+4.00482048205E+009, -1.80703424096E+000, +6.28379376652E-001
+4.00484048405E+009, -1.80118107016E+000, +6.42950773736E-001
+4.00486048605E+009, -1.79467677450E+000, +6.56783176986E-001
+4.00488048805E+009, -1.78830726143E+000, +6.70414225132E-001
+4.00490049005E+009, -1.78178676661E+000, +6.84026344378E-001
+4.00492049205E+009, -1.77698004262E+000, +7.00597150869E-001
+4.00494049405E+009, -1.77082132799E+000, +7.15535533906E-001
+4.00496049605E+009, -1.76578303075E+000, +7.32041698311E-001
+4.00498049805E+009, -1.75837958529E+000, +7.44887361170E-001
+4.00500050005E+009, -1.75156909181E+000, +7.59030884565E-001
+4.00502050205E+009, -1.74406379941E+000, +7.71530225563E-001
+4.00504050405E+009, -1.73756061603E+000, +7.86563505720E-001
+4.00506050605E+009, -1.73112857613E+000, +8.01627157562E-001
+4.00508050805E+009, -1.72484954713E+000, +8.16878353275E-001
+4.00510051005E+009, -1.71767887260E+000, +8.31309339244E-001
+4.00512051205E+009, -1.70961838252E+000, +8.43855229261E-001
+4.00514051405E+009, -1.70200923089E+000, +8.57007877980E-001
+4.00516051605E+009, -1.69392629923E+000, +8.69667995231E-001
+4.00518051805E+009, -1.68733138193E+000, +8.85509332277E-001
+4.00520052005E+009, -1.67989861358E+000, +8.99608168328E-001
+4.00522052205E+009, -1.67314570931E+000, +9.15746966269E-001
+4.00524052405E+009, -1.66430299877E+000, +9.26916075394E-001
+4.00526052605E+009, -1.65617744479E+000, +9.40423732845E-001
+4.00528052805E+009, -1.64704799156E+000, +9.51678796625E-001
+4.00530053005E+009, -1.63904083619E+000, +9.65910048196E-001
+4.00532053205E+009, -1.63107060704E+000, +9.80414542045E-001
+4.00534053405E+009, -1.62328791326E+000, +9.94911511378E-001
+4.00536053605E+009, -1.61477474550E+000, +1.00867734462E+000
+4.00538053805E+009, -1.60538025464E+000, +1.01989320138E+000
+4.00540054005E+009, -1.59649939129E+000, +1.03266669465E+000
+4.00542054205E+009, -1.58677505894E+000, +1.04348181038E+000
+4.00544054405E+009, -1.57859531497E+000, +1.05869049738E+000
+4.00546054605E+009, -1.56934659382E+000, +1.07152198958E+000
+4.00548054805E+009, -1.56097782400E+000, +1.08642114598E+000
+4.00550055006E+009, -1.55125266180E+000, +1.09778281519E+000
+4.00552055206E+009, -1.54164770379E+000, +1.11009072189E+000
+4.00554055406E+009, -1.53156515055E+000, +1.12095171320E+000
+4.00556055606E+009, -1.52194873686E+000, +1.13310822449E+000
+4.00558055806E+009, -1.51275718424E+000, +1.14655385601E+000
+4.00560056006E+009, -1.50302145920E+000, +1.15972471555E+000
+4.00562056206E+009, -1.49350749687E+000, +1.17355269369E+000
+4.00564056406E+009, -1.48307490846E+000, +1.18367268653E+000
+4.00566056606E+009, -1.47302604010E+000, +1.19608079198E+000
+4.00568056806E+009, -1.46191349377E+000, +1.20460726661E+000
+4.00570057006E+009, -1.45216883608E+000, +1.21890083600E+000
+4.00572057206E+009, -1.44183304202E+000, +1.23065743281E+000
+4.00574057406E+009, -1.43160920610E+000, +1.24449061292E+000
+4.00576057606E+009, -1.42092883632E+000, +1.25495678454E+000
+4.00578057806E+009, -1.40997380288E+000, +1.26557152536E+000
+4.00580058006E+009, -1.39889358161E+000, +1.27559590572E+000
+4.00582058206E+009, -1.38765658310E+000, +1.28573537873E+000
+4.00584058406E+009, -1.37742657462E+000, +1.29918760168E+000
+4.00586058606E+009, -1.36649339826E+000, +1.31082494366E+000
+4.00588058806E+009, -1.35568926145E+000, +1.32435877551E+000
+4.00590059006E+009, -1.34402817974E+000, +1.33280585285E+000
+4.00592059206E+009, -1.33264634629E+000, +1.34328790909E+000
+4.00594059406E+009, -1.32092650711E+000, +1.35141350532E+000
+4.00596059606E+009, -1.30966082355E+000, +1.36315258183E+000
+4.00598059806E+009, -1.29796856687E+000, +1.37451021991E+000
+4.00600060006E+009, -1.28653995751E+000, +1.38654808508E+000
+4.00602060206E+009, -1.27491299216E+000, +1.39732155157E+000
+4.00604060406E+009, -1.26275340958E+000, +1.40605827268E+000
+4.00606060606E+009, -1.25081106828E+000, +1.41513724758E+000
+4.00608060806E+009, -1.23858597312E+000, +1.42314606795E+000
+4.00610061006E+009, -1.22672009819E+000, +1.43493040872E+000
+4.00612061206E+009, -1.21452418389E+000, +1.44456889825E+000
+4.00614061406E+009, -1.20253948029E+000, +1.45693781799E+000
+4.00616061606E+009, -1.19021655222E+000, +1.46506987744E+000
+4.00618061806E+009, -1.17783123731E+000, +1.47564210688E+000
+4.00620062006E+009, -1.16534147773E+000, +1.48229709188E+000
+4.00622062206E+009, -1.15285193054E+000, +1.49160870215E+000
+4.00624062406E+009, -1.14009902758E+000, +1.50062130994E+000
+4.00626062606E+009, -1.12750501532E+000, +1.51070864818E+000
+4.00628062806E+009, -1.11467357300E+000, +1.52111403615E+000
+4.00630063006E+009, -1.10170316043E+000, +1.52876645754E+000
