"# Channel 1"
"# Trace 1"
Frequency, Formatted Data, Formatted Data
+5.20000000000E+009, +9.14193530874E-001, -6.03363644607E-001
+5.20002000200E+009, +9.08767038341E-001, -6.10139605660E-001
+5.20004000400E+009, +9.03121874110E-001, -6.17425828821E-001
+5.20006000600E+009, +8.97875963736E-001, -6.23901941668E-001
+5.20008000800E+009, +8.92794089497E-001, -6.32319690960E-001
+5.20010001000E+009, +8.87260474746E-001, -6.39856111160E-001
+5.20012001200E+009, +8.82523472443E-001, -6.48496489212E-001
+5.20014001400E+009, +8.76701990487E-001, -6.55535788332E-001
+5.20016001600E+009, +8.70905180556E-001, -6.62249259896E-001
+5.20018001800E+009, +8.64973736319E-001, -6.69034920556E-001
+5.20020002000E+009, +8.59170184693E-001, -6.76078258349E-001
+5.20022002200E+009, +8.53559672937E-001, -6.84138915699E-001
+5.20024002400E+009, +8.47712326733E-001, -6.91425588686E-001
+5.20026002600E+009, +8.42110922487E-001, -6.99751971641E-001
+5.20028002800E+009, +8.35724545295E-001, -7.05578703240E-001
+5.20030003000E+009, +8.29869595868E-001, -7.12572282633E-001
+5.20032003200E+009, +8.23405672729E-001, -7.18389739382E-001
+5.20034003400E+009, +8.17569969477E-001, -7.26179884933E-001
+5.20036003600E+009, +8.11232783812E-001, -7.33450888584E-001
+5.20038003800E+009, +8.05179155529E-001, -7.41283570192E-001
+5.20040004000E+009, +7.98690764431E-001, -7.47888314979E-001
+5.20042004200E+009, +7.92159926962E-001, -7.54118962820E-001
+5.20044004400E+009, +7.85554799449E-001, -7.59963704085E-001
+5.20046004600E+009, +7.78516062806E-001, -7.65845316843E-001
+5.20048004800E+009, +7.72474188055E-001, -7.73332357035E-001
+5.20050005001E+009, +7.65777958265E-001, -7.80321248418E-001
+5.20052005201E+009, +7.59166512179E-001, -7.87874192739E-001
+5.20054005401E+009, +7.52417593904E-001, -7.93068324257E-001
+5.20056005601E+009, +7.45231608534E-001, -7.99500169044E-001
+5.20058005801E+009, +7.38317950047E-001, -8.04513264335E-001
+5.20060006001E+009, +7.31068591212E-001, -8.11408790089E-001
+5.20062006201E+009, +7.24312863013E-001, -8.17669053762E-001
+5.20064006401E+009, +7.17302548932E-001, -8.25076969710E-001
+5.20066006601E+009, +7.10025765613E-001, -8.30996229507E-001
+5.20068006801E+009, +7.02955851651E-001, -8.36161638391E-001
+5.20070007001E+009, +6.95583560718E-001, -8.41556114345E-001
+5.20072007201E+009, +6.88343446299E-001, -8.46470812247E-001
+5.20074007401E+009, +6.80801388641E-001, -8.53299537564E-001
+5.20076007601E+009, +6.73439651080E-001, -8.59493990614E-001
+5.20078007801E+009, +6.65977579293E-001, -8.66559207095E-001
+5.20080008001E+009, +6.58509343461E-001, -8.70992307658E-001
+5.20082008201E+009, +6.50673041270E-001, -8.76492846468E-001
+5.20084008401E+009, +6.43060021129E-001, -8.80147475397E-001
+5.20086008601E+009, +6.35528878678E-001, -8.86638072322E-001
+5.20088008801E+009, +6.27453069735E-001, -8.91957218804E-001
+5.20090009001E+009, +6.19964810862E-001, -8.98358393465E-001
+5.20092009201E+009, +6.11745267858E-001, -9.03683672805E-001
+5.20094009401E+009, +6.03943963704E-001, -9.07794184814E-001
+5.20096009601E+009, +5.96001776883E-001, -9.12522650459E-001
+5.20098009801E+009, +5.88028189450E-001, -9.16482397444E-001
+5.20100010001E+009, +5.79913756923E-001, -9.22666969908E-001
+5.20102010201E+009, +5.71670989278E-001, -9.27737513472E-001
+5.20104010401E+009, +5.63569691617E-001, -9.33587156513E-001
+5.20106010601E+009, +5.55065598032E-001, -9.36969880717E-001
+5.20108010801E+009, +5.47221519166E-001, -9.41581281188E-001
+5.20110011001E+009, +5.38914270964E-001, -9.44624124029E-001
+5.20112011201E+009, +5.30367020004E-001, -9.49759174437E-001
+5.20114011401E+009, +5.21892115976E-001, -9.54308846983E-001
+5.20116011601E+009, +5.13136525168E-001, -9.59218529454E-001
+5.20118011801E+009, +5.04616973523E-001, -9.63958824537E-001
+5.20120012001E+009, +4.96176519543E-001, -9.67385413524E-001
+5.20122012201E+009, +4.87795908204E-001, -9.70937630250E-001
+5.20124012401E+009, +4.79217794996E-001, -9.73397595464E-001
+5.20126012601E+009, +4.70488115534E-001, -9.78551615379E-001
+5.20128012801E+009, +4.61651871270E-001, -9.82420104977E-001
+5.20130013001E+009, +4.52620920406E-001, -9.87293058075E-001
+5.20132013201E+009, +4.43937217499E-001, -9.89471372081E-001
+5.20134013401E+009, +4.35177200976E-001, -9.93317267044E-001
+5.20136013601E+009, +4.26929942631E-001, -9.95653468385E-001
+5.20138013801E+009, +4.17704870097E-001, -9.99153989248E-001
+5.20140014001E+009, +4.09007462950E-001, -1.00327415467E+000
+5.20142014201E+009, +3.99727984590E-001, -1.00722966383E+000
+5.20144014401E+009, +3.90444997683E-001, -1.01107215882E+000
+5.20146014601E+009, +3.81825109878E-001, -1.01288805649E+000
+5.20148014801E+009, +3.72381176415E-001, -1.01545096512E+000
+5.20150015002E+009, +3.63595307968E-001, -1.01690578720E+000
+5.20152015202E+009, +3.54080371423E-001, -1.02065614688E+000
+5.20154015402E+009, +3.44970810156E-001, -1.02335982965E+000
+5.20156015602E+009, +3.35317464366E-001, -1.02734624568E+000
+5.20158015802E+009, +3.26311173317E-001, -1.02868717300E+000
+5.20160016002E+009, +3.17032685078E-001, -1.03138040055E+000
+5.20162016202E+009, +3.07783664500E-001, -1.03296585288E+000
+5.20164016402E+009, +2.98761784160E-001, -1.03429179057E+000
+5.20166016602E+009, +2.89140713889E-001, -1.03680636478E+000
+5.20168016802E+009, +2.79533876987E-001, -1.03948451279E+000
+5.20170017002E+009, +2.69813449928E-001, -1.04213795944E+000
+5.20172017202E+009, +2.60473280204E-001, -1.04264031130E+000
+5.20174017402E+009, +2.51376329992E-001, -1.04385013259E+000
+5.20176017602E+009, +2.42110188017E-001, -1.04437814915E+000
+5.20178017802E+009, +2.32328724271E-001, -1.04696474167E+000
+5.20180018002E+009, +2.22524645453E-001, -1.04831582488E+000
+5.20182018202E+009, +2.12617268637E-001, -1.05065473476E+000
+5.20184018402E+009, +2.03360231154E-001, -1.05122015654E+000
+5.20186018602E+009, +1.93564165190E-001, -1.05173388540E+000
+5.20188018802E+009, +1.84543002681E-001, -1.05180693245E+000
+5.20190019002E+009, +1.74792951407E-001, -1.05229810591E+000
+5.20192019202E+009, +1.65178318216E-001, -1.05380526311E+000
+5.20194019402E+009, +1.55306677921E-001, -1.05441879362E+000
+5.20196019602E+009, +1.45191878772E-001, -1.05575687215E+000
+5.20198019802E+009, +1.36148448509E-001, -1.05496445433E+000
+5.20200020002E+009, +1.26465289522E-001, -1.05501667598E+000
+5.20202020202E+009, +1.17477290744E-001, -1.05396573506E+000
+5.20204020402E+009, +1.06981629026E-001, -1.05473071983E+000
+5.20206020602E+009, +9.76320999501E-002, -1.05486758829E+000
+5.20208020802E+009, +8.70357863562E-002, -1.05530271917E+000
+5.20210021002E+009, +7.76104718058E-002, -1.05451293798E+000
+5.20212021202E+009, +6.83229999629E-002, -1.05382573913E+000
+5.20214021402E+009, +5.89067756661E-002, -1.05226542200E+000
+5.20216021602E+009, +4.95849425083E-002, -1.05105334722E+000
+5.20218021802E+009, +3.93592825343E-002, -1.05088596400E+000
+5.20220022002E+009, +2.96866804629E-002, -1.05005516299E+000
+5.20222022202E+009, +1.92203020832E-002, -1.04965574687E+000
+5.20224022402E+009, +1.04667102653E-002, -1.04730230005E+000
+5.20226022602E+009, +8.90811322056E-004, -1.04584101388E+000
+5.20228022802E+009, -7.94033311297E-003, -1.04318417754E+000
+5.20230023002E+009, -1.76302385856E-002, -1.04172618346E+000
+5.20232023202E+009, -2.76589885234E-002, -1.03994799153E+000
+5.20234023402E+009, -3.72709882981E-002, -1.03859350283E+000
+5.20236023602E+009, -4.70050763714E-002, -1.03636533725E+000
+5.20238023802E+009, -5.58169949817E-002, -1.03356129137E+000
+5.20240024002E+009, -6.47454816149E-002, -1.03048967615E+000
+5.20242024202E+009, -7.35685891803E-002, -1.02700138540E+000
+5.20244024402E+009, -8.30383709550E-002, -1.02485623051E+000
+5.20246024602E+009, -9.28730065125E-002, -1.02214431695E+000
+5.20248024802E+009, -1.02182858953E-001, -1.02001229989E+000
+5.20250025003E+009, -1.10917047468E-001, -1.01590453793E+000
+5.20252025203E+009, -1.19464758852E-001, -1.01222848169E+000
+5.20254025403E+009, -1.27295895359E-001, -1.00739596744E+000
+5.20256025603E+009, -1.36141798294E-001, -1.00378782515E+000
+5.20258025803E+009, -1.45029917079E-001, -1.00030928965E+000
+5.20260026003E+009, -1.54378542290E-001, -9.96681109618E-001
+5.20262026203E+009, -1.62588411618E-001, -9.92940634515E-001
+5.20264026403E+009, -1.70599127586E-001, -9.87965833103E-001
+5.20266026603E+009, -1.78153380808E-001, -9.82999416023E-001
+5.20268026803E+009, -1.85481100337E-001, -9.77547680759E-001
+5.20270027003E+009, -1.93913781630E-001, -9.73245869783E-001
+5.20272027203E+009, -2.01393642350E-001, -9.68174733748E-001
+5.20274027403E+009, -2.10237300825E-001, -9.63851061512E-001
+5.20276027603E+009, -2.16683470210E-001, -9.57958048232E-001
+5.20278027803E+009, -2.23842059358E-001, -9.52206821770E-001
+5.20280028003E+009, -2.29791533161E-001, -9.45571714946E-001
+5.20282028203E+009, -2.37351034643E-001, -9.39774701739E-001
+5.20284028403E+009, -2.44405685643E-001, -9.34377506040E-001
+5.20286028603E+009, -2.50818279216E-001, -9.28705631602E-001
+5.20288028803E+009, -2.57351226570E-001, -9.22102555655E-001
+5.20290029003E+009, -2.61925803729E-001, -9.15320693342E-001
+5.20292029203E+009, -2.67127871722E-001, -9.08293549264E-001
+5.20294029403E+009, -2.71212968746E-001, -9.00927629912E-001
+5.20296029603E+009, -2.76729587891E-001, -8.94464780009E-001
+5.20298029803E+009, -2.81147004742E-001, -8.87567639714E-001
+5.20300030003E+009, -2.86050865955E-001, -8.80815633853E-001
+5.20302030203E+009, -2.89283729325E-001, -8.73229798240E-001
+5.20304030403E+009, -2.91281459326E-001, -8.66089925566E-001
+5.20306030603E+009, -2.93169328543E-001, -8.57849632538E-001
+5.20308030803E+009, -2.94451848346E-001, -8.51066202368E-001
+5.20310031003E+009, -2.96259577494E-001, -8.44424991640E-001
+5.20312031203E+009, -2.97655166977E-001, -8.37650194154E-001
+5.20314031403E+009, -2.97772091025E-001, -8.31074006654E-001
+5.20316031603E+009, -2.96775024406E-001, -8.23636023011E-001
+5.20318031803E+009, -2.94770823500E-001, -8.17268663188E-001
+5.20320032003E+009, -2.92572155756E-001, -8.10473134209E-001
+5.20322032203E+009, -2.90076253027E-001, -8.06217957111E-001
+5.20324032403E+009, -2.86874439770E-001, -8.00849928684E-001
+5.20326032603E+009, -2.83371518044E-001, -7.97955316182E-001
+5.20328032803E+009, -2.77683766746E-001, -7.94676624974E-001
+5.20330033003E+009, -2.72209392407E-001, -7.91528690024E-001
+5.20332033203E+009, -2.65195437218E-001, -7.90517779315E-001
+5.20334033403E+009, -2.58652624290E-001, -7.89625468554E-001
+5.20336033603E+009, -2.52218212825E-001, -7.92174749271E-001
+5.20338033803E+009, -2.45542352231E-001, -7.94877863694E-001
+5.20340034003E+009, -2.38416158290E-001, -8.00706982337E-001
+5.20342034203E+009, -2.30870358877E-001, -8.07416581524E-001
+5.20344034403E+009, -2.24070608448E-001, -8.15825141403E-001
+5.20346034603E+009, -2.17420591541E-001, -8.26607208323E-001
+5.20348034803E+009, -2.12983767949E-001, -8.38613956936E-001
+5.20350035004E+009, -2.09641729094E-001, -8.54309418806E-001
+5.20352035204E+009, -2.09055445123E-001, -8.70363267172E-001
+5.20354035404E+009, -2.09161233342E-001, -8.88045225284E-001
+5.20356035604E+009, -2.12097242534E-001, -9.07917315276E-001
+5.20358035804E+009, -2.17510705304E-001, -9.27187000225E-001
+5.20360036004E+009, -2.26816772952E-001, -9.48505016728E-001
+5.20362036204E+009, -2.39762763206E-001, -9.69269910354E-001
+5.20364036404E+009, -2.56372357846E-001, -9.90944244983E-001
+5.20366036604E+009, -2.75907466381E-001, -1.01045209742E+000
+5.20368036804E+009, -2.97456065800E-001, -1.02779306305E+000
+5.20370037004E+009, -3.22545428240E-001, -1.04345084363E+000
+5.20372037204E+009, -3.48656918180E-001, -1.05570788175E+000
+5.20374037404E+009, -3.79762223909E-001, -1.06712651103E+000
+5.20376037604E+009, -4.10859099944E-001, -1.07415046473E+000
+5.20378037804E+009, -4.45712454922E-001, -1.07939903568E+000
+5.20380038004E+009, -4.78628225012E-001, -1.07985020221E+000
+5.20382038204E+009, -5.12244292435E-001, -1.07677235089E+000
+5.20384038404E+009, -5.45661988196E-001, -1.07008074106E+000
+5.20386038604E+009, -5.78324004284E-001, -1.06011290830E+000
+5.20388038804E+009, -6.12620891659E-001, -1.04792576380E+000
+5.20390039004E+009, -6.43661327085E-001, -1.03214561313E+000
+5.20392039204E+009, -6.75648957558E-001, -1.01382937360E+000
+5.20394039404E+009, -7.02828271892E-001, -9.92050684826E-001
+5.20396039604E+009, -7.29512950382E-001, -9.67927291518E-001
+5.20398039804E+009, -7.52607524265E-001, -9.41051842234E-001
+5.20400040004E+009, -7.75038571355E-001, -9.12073008802E-001
+5.20402040204E+009, -7.94831169165E-001, -8.81407799719E-001
+5.20404040404E+009, -8.12573318253E-001, -8.48800521686E-001
+5.20406040604E+009, -8.25827476363E-001, -8.13919954515E-001
+5.20408040804E+009, -8.34896739886E-001, -7.77645821819E-001
+5.20410041004E+009, -8.40328967550E-001, -7.39949123412E-001
+5.20412041204E+009, -8.41505032077E-001, -7.01557346655E-001
+5.20414041404E+009, -8.40343125209E-001, -6.62648884915E-001
+5.20416041604E+009, -8.32954527281E-001, -6.24104610655E-001
+5.20418041804E+009, -8.21650999829E-001, -5.85951973699E-001
+5.20420042004E+009, -8.01935608296E-001, -5.49438212074E-001
+5.20422042204E+009, -7.78704968162E-001, -5.15932051674E-001
+5.20424042404E+009, -7.48466219457E-001, -4.86016227901E-001
+5.20426042604E+009, -7.15432548735E-001, -4.61338835611E-001
+5.20428042804E+009, -6.78247649465E-001, -4.42295691155E-001
+5.20430043004E+009, -6.38126850805E-001, -4.30829048711E-001
+5.20432043204E+009, -5.96427357686E-001, -4.26884821176E-001
+5.20434043404E+009, -5.53440814920E-001, -4.31851404743E-001
+5.20436043604E+009, -5.13698534958E-001, -4.44125193671E-001
+5.20438043804E+009, -4.76412615007E-001, -4.65141096889E-001
+5.20440044004E+009, -4.46679605542E-001, -4.91839073178E-001
+5.20442044204E+009, -4.22609360943E-001, -5.23820062403E-001
+5.20444044404E+009, -4.05892132116E-001, -5.59960626846E-001
+5.20446044604E+009, -3.95228981857E-001, -5.96201042855E-001
+5.20448044804E+009, -3.92483352609E-001, -6.35617897540E-001
+5.20450045005E+009, -3.95575793159E-001, -6.71537630752E-001
+5.20452045205E+009, -4.06185427115E-001, -7.07557109989E-001
+5.20454045405E+009, -4.22797357817E-001, -7.40728748275E-001
+5.20456045605E+009, -4.43376962622E-001, -7.70139194779E-001
+5.20458045805E+009, -4.68808187879E-001, -7.96571332226E-001
+5.20460046005E+009, -4.93728414346E-001, -8.16728200039E-001
+5.20462046205E+009, -5.23494629046E-001, -8.35107362689E-001
+5.20464046405E+009, -5.51829395628E-001, -8.47641777936E-001
+5.20466046605E+009, -5.84399293403E-001, -8.58049511184E-001
+5.20468046805E+009, -6.16187912979E-001, -8.64781261824E-001
+5.20470047005E+009, -6.48419273611E-001, -8.68373984575E-001
+5.20472047205E+009, -6.79936324736E-001, -8.68481264947E-001
+5.20474047405E+009, -7.10149748639E-001, -8.65864820109E-001
+5.20476047605E+009, -7.39879872666E-001, -8.60758465421E-001
+5.20478047805E+009, -7.69061062958E-001, -8.53544325162E-001
+5.20480048005E+009, -7.98450039080E-001, -8.44388673292E-001
+5.20482048205E+009, -8.26961242613E-001, -8.33274845341E-001
+5.20484048405E+009, -8.54245284787E-001, -8.20410448716E-001
+5.20486048605E+009, -8.79955702902E-001, -8.05452367048E-001
+5.20488048805E+009, -9.04721599194E-001, -7.89001714886E-001
+5.20490049005E+009, -9.27729801280E-001, -7.70888413255E-001
+5.20492049205E+009, -9.52116619125E-001, -7.51262056855E-001
+5.20494049405E+009, -9.74305531035E-001, -7.30327224047E-001
+5.20496049605E+009, -9.97306854531E-001, -7.07345041998E-001
+5.20498049805E+009, -1.01681304956E+000, -6.83151476971E-001
+5.20500050005E+009, -1.03617294452E+000, -6.56992226535E-001
+5.20502050205E+009, -1.05261147212E+000, -6.28795865181E-001
+5.20504050405E+009, -1.06893446060E+000, -5.98736545164E-001
+5.20506050605E+009, -1.08443539784E+000, -5.66222087691E-001
+5.20508050805E+009, -1.09797042259E+000, -5.32017927675E-001
+5.20510051005E+009, -1.10952324391E+000, -4.94904104673E-001
+5.20512051205E+009, -1.11589134435E+000, -4.55669617584E-001
+5.20514051405E+009, -1.11985743382E+000, -4.14137198036E-001
+5.20516051605E+009, -1.11803095615E+000, -3.69090372597E-001
+5.20518051805E+009, -1.11317316258E+000, -3.22585666225E-001
+5.20520052005E+009, -1.10094376214E+000, -2.73803095340E-001
+5.20522052205E+009, -1.08169403990E+000, -2.23499898580E-001
+5.20524052405E+009, -1.05051913862E+000, -1.75131915468E-001
+5.20526052605E+009, -1.00869702077E+000, -1.28879670058E-001
+5.20528052805E+009, -9.55626957189E-001, -9.05662608630E-002
+5.20530053005E+009, -8.91481075577E-001, -6.23827257738E-002
+5.20532053205E+009, -8.21080905495E-001, -4.89189404726E-002
+5.20534053405E+009, -7.48016447517E-001, -5.25039103429E-002
+5.20536053605E+009, -6.77360130588E-001, -7.49166794064E-002
+5.20538053805E+009, -6.15262118969E-001, -1.14076157599E-001
+5.20540054005E+009, -5.66782948510E-001, -1.66741421170E-001
+5.20542054205E+009, -5.34538792709E-001, -2.26875157209E-001
+5.20544054405E+009, -5.20182616833E-001, -2.88405673351E-001
+5.20546054605E+009, -5.20915777538E-001, -3.49149974198E-001
+5.20548054805E+009, -5.33875014985E-001, -4.02028826887E-001
+5.20550055006E+009, -5.56152326018E-001, -4.49396703365E-001
+5.20552055206E+009, -5.84601024954E-001, -4.87516372726E-001
+5.20554055406E+009, -6.16429166245E-001, -5.17853387061E-001
+5.20556055606E+009, -6.51098221555E-001, -5.40599494172E-001
+5.20558055806E+009, -6.87060399928E-001, -5.56767765119E-001
+5.20560056006E+009, -7.23305480406E-001, -5.67227937945E-001
+5.20562056206E+009, -7.57332978660E-001, -5.72352721935E-001
+5.20564056406E+009, -7.89675280222E-001, -5.73948426050E-001
+5.20566056606E+009, -8.20080535654E-001, -5.71797839370E-001
+5.20568056806E+009, -8.46983919791E-001, -5.67126959491E-001
+5.20570057006E+009, -8.74943236467E-001, -5.60202359632E-001
+5.20572057206E+009, -8.99746474959E-001, -5.51614167346E-001
+5.20574057406E+009, -9.24430413242E-001, -5.41436054531E-001
+5.20576057606E+009, -9.45520654578E-001, -5.30376649791E-001
+5.20578057806E+009, -9.65615859028E-001, -5.18109784968E-001
+5.20580058006E+009, -9.83475526415E-001, -5.05442829011E-001
+5.20582058206E+009, -1.00023259859E+000, -4.92262427126E-001
+5.20584058406E+009, -1.01842544916E+000, -4.77944509254E-001
+5.20586058606E+009, -1.03353140721E+000, -4.63926318711E-001
+5.20588058806E+009, -1.05027548735E+000, -4.48627890271E-001
+5.20590059006E+009, -1.06216304543E+000, -4.34007846024E-001
+5.20592059206E+009, -1.07532568688E+000, -4.18740455299E-001
+5.20594059406E+009, -1.08603636540E+000, -4.03722790445E-001
+5.20596059606E+009, -1.09763454950E+000, -3.87988760845E-001
+5.20598059806E+009, -1.10930853963E+000, -3.71913349176E-001
+5.20600060006E+009, -1.12031442360E+000, -3.55877014049E-001
+5.20602060206E+009, -1.13027868398E+000, -3.39554957289E-001
+5.20604060406E+009, -1.13841242339E+000, -3.23786978472E-001
+5.20606060606E+009, -1.14653276395E+000, -3.07287869607E-001
+5.20608060806E+009, -1.15330999930E+000, -2.91508243572E-001
+5.20610061006E+009, -1.16190977219E+000, -2.74621597397E-001
+5.20612061206E+009, -1.16953044047E+000, -2.57829732609E-001
+5.20614061406E+009, -1.17748713821E+000, -2.40614742009E-001
+5.20616061606E+009, -1.18274980842E+000, -2.24048989224E-001
+5.20618061806E+009, -1.18862888316E+000, -2.06949473136E-001
+5.20620062006E+009, -1.19274024243E+000, -1.90628671031E-001
+5.20622062206E+009, -1.19824108151E+000, -1.73344678931E-001
+5.20624062406E+009, -1.20329326469E+000, -1.55688667335E-001
+5.20626062606E+009, -1.20851560396E+000, -1.37874931146E-001
+5.20628062806E+009, -1.21335665195E+000, -1.19765829343E-001
+5.20630063006E+009, -1.21571220493E+000, -1.02998565593E-001
