!Keysight Technologies,E5063A,MY54502693,A.05.04
!Date: Mon Oct 12 07:09:26 2020
!Data & Calibration Information:
!Freq	S11:NONE(--)	S21:NONE(--)	S12:NONE(--)	S22:NONE(--)
# Hz S RI R 50
5400000000.000	0.000000e+000	0.000000e+000	6.517924e-002	8.378833e-001	0.000000e+000	0.000000e+000	0.000000e+000	0.000000e+000
5400020002.000	0.000000e+000	0.000000e+000	8.304285e-002	8.169028e-001	0.000000e+000	0.000000e+000	0.000000e+000	0.000000e+000
5400040004.000	0.000000e+000	0.000000e+000	1.003331e-001	7.929308e-001	0.000000e+000	0.000000e+000	0.000000e+000	0.000000e+000
5400060006.001	0.000000e+000	0.000000e+000	1.153314e-001	7.655933e-001	0.000000e+000	0.000000e+000	0.000000e+000	0.000000e+000
5400080008.001	0.000000e+000	0.000000e+000	1.270452e-001	7.337521e-001	0.000000e+000	0.000000e+000	0.000000e+000	0.000000e+000
5400100010.001	0.000000e+000	0.000000e+000	1.328003e-001	6.982410e-001	0.000000e+000	0.000000e+000	0.000000e+000	0.000000e+000
5400120012.001	0.000000e+000	0.000000e+000	1.304101e-001	6.588853e-001	0.000000e+000	0.000000e+000	0.000000e+000	0.000000e+000
5400140014.001	0.000000e+000	0.000000e+000	1.201423e-001	6.189122e-001	0.000000e+000	0.000000e+000	0.000000e+000	0.000000e+000
5400160016.002	0.000000e+000	0.000000e+000	1.001403e-001	5.802374e-001	0.000000e+000	0.000000e+000	0.000000e+000	0.000000e+000
5400180018.002	0.000000e+000	0.000000e+000	7.192648e-002	5.473212e-001	0.000000e+000	0.000000e+000	0.000000e+000	0.000000e+000
5400200020.002	0.000000e+000	0.000000e+000	3.610877e-002	5.216249e-001	0.000000e+000	0.000000e+000	0.000000e+000	0.000000e+000
5400220022.002	0.000000e+000	0.000000e+000	-4.108133e-003	5.060885e-001	0.000000e+000	0.000000e+000	0.000000e+000	0.000000e+000
5400240024.002	0.000000e+000	0.000000e+000	-4.729856e-002	5.004841e-001	0.000000e+000	0.000000e+000	0.000000e+000	0.000000e+000
5400260026.003	0.000000e+000	0.000000e+000	-8.862831e-002	5.048458e-001	0.000000e+000	0.000000e+000	0.000000e+000	0.000000e+000
5400280028.003	0.000000e+000	0.000000e+000	-1.263405e-001	5.180861e-001	0.000000e+000	0.000000e+000	0.000000e+000	0.000000e+000
5400300030.003	0.000000e+000	0.000000e+000	-1.574299e-001	5.387642e-001	0.000000e+000	0.000000e+000	0.000000e+000	0.000000e+000
5400320032.003	0.000000e+000	0.000000e+000	-1.819290e-001	5.644000e-001	0.000000e+000	0.000000e+000	0.000000e+000	0.000000e+000
5400340034.003	0.000000e+000	0.000000e+000	-1.996523e-001	5.931105e-001	0.000000e+000	0.000000e+000	0.000000e+000	0.000000e+000
5400360036.004	0.000000e+000	0.000000e+000	-2.105507e-001	6.215739e-001	0.000000e+000	0.000000e+000	0.000000e+000	0.000000e+000
5400380038.004	0.000000e+000	0.000000e+000	-2.164934e-001	6.483485e-001	0.000000e+000	0.000000e+000	0.000000e+000	0.000000e+000
5400400040.004	0.000000e+000	0.000000e+000	-2.181898e-001	6.738175e-001	0.000000e+000	0.000000e+000	0.000000e+000	0.000000e+000
5400420042.004	0.000000e+000	0.000000e+000	-2.163556e-001	6.972447e-001	0.000000e+000	0.000000e+000	0.000000e+000	0.000000e+000
5400440044.004	0.000000e+000	0.000000e+000	-2.113593e-001	7.200771e-001	0.000000e+000	0.000000e+000	0.000000e+000	0.000000e+000
5400460046.005	0.000000e+000	0.000000e+000	-2.044785e-001	7.401635e-001	0.000000e+000	0.000000e+000	0.000000e+000	0.000000e+000
5400480048.005	0.000000e+000	0.000000e+000	-1.958832e-001	7.592163e-001	0.000000e+000	0.000000e+000	0.000000e+000	0.000000e+000
5400500050.005	0.000000e+000	0.000000e+000	-1.868415e-001	7.746863e-001	0.000000e+000	0.000000e+000	0.000000e+000	0.000000e+000
5400520052.005	0.000000e+000	0.000000e+000	-1.769494e-001	7.884328e-001	0.000000e+000	0.000000e+000	0.000000e+000	0.000000e+000
5400540054.005	0.000000e+000	0.000000e+000	-1.669013e-001	8.003137e-001	0.000000e+000	0.000000e+000	0.000000e+000	0.000000e+000
5400560056.006	0.000000e+000	0.000000e+000	-1.561079e-001	8.116719e-001	0.000000e+000	0.000000e+000	0.000000e+000	0.000000e+000
5400580058.006	0.000000e+000	0.000000e+000	-1.446411e-001	8.226229e-001	0.000000e+000	0.000000e+000	0.000000e+000	0.000000e+000
5400600060.006	0.000000e+000	0.000000e+000	-1.329020e-001	8.325954e-001	0.000000e+000	0.000000e+000	0.000000e+000	0.000000e+000
5400620062.006	0.000000e+000	0.000000e+000	-1.213353e-001	8.415723e-001	0.000000e+000	0.000000e+000	0.000000e+000	0.000000e+000
5400640064.006	0.000000e+000	0.000000e+000	-1.104846e-001	8.480812e-001	0.000000e+000	0.000000e+000	0.000000e+000	0.000000e+000
5400660066.007	0.000000e+000	0.000000e+000	-9.957684e-002	8.542362e-001	0.000000e+000	0.000000e+000	0.000000e+000	0.000000e+000
5400680068.007	0.000000e+000	0.000000e+000	-8.885441e-002	8.592003e-001	0.000000e+000	0.000000e+000	0.000000e+000	0.000000e+000
5400700070.007	0.000000e+000	0.000000e+000	-7.746065e-002	8.652417e-001	0.000000e+000	0.000000e+000	0.000000e+000	0.000000e+000
5400720072.007	0.000000e+000	0.000000e+000	-6.631300e-002	8.703818e-001	0.000000e+000	0.000000e+000	0.000000e+000	0.000000e+000
5400740074.007	0.000000e+000	0.000000e+000	-5.462884e-002	8.759619e-001	0.000000e+000	0.000000e+000	0.000000e+000	0.000000e+000
5400760076.008	0.000000e+000	0.000000e+000	-4.398264e-002	8.795296e-001	0.000000e+000	0.000000e+000	0.000000e+000	0.000000e+000
5400780078.008	0.000000e+000	0.000000e+000	-3.340270e-002	8.831468e-001	0.000000e+000	0.000000e+000	0.000000e+000	0.000000e+000
5400800080.008	0.000000e+000	0.000000e+000	-2.315997e-002	8.854200e-001	0.000000e+000	0.000000e+000	0.000000e+000	0.000000e+000
5400820082.008	0.000000e+000	0.000000e+000	-1.297123e-002	8.880500e-001	0.000000e+000	0.000000e+000	0.000000e+000	0.000000e+000
5400840084.008	0.000000e+000	0.000000e+000	-2.301193e-003	8.909131e-001	0.000000e+000	0.000000e+000	0.000000e+000	0.000000e+000
5400860086.009	0.000000e+000	0.000000e+000	8.425080e-003	8.937110e-001	0.000000e+000	0.000000e+000	0.000000e+000	0.000000e+000
5400880088.009	0.000000e+000	0.000000e+000	1.922754e-002	8.966362e-001	0.000000e+000	0.000000e+000	0.000000e+000	0.000000e+000
5400900090.009	0.000000e+000	0.000000e+000	2.902877e-002	8.975428e-001	0.000000e+000	0.000000e+000	0.000000e+000	0.000000e+000
5400920092.009	0.000000e+000	0.000000e+000	3.917204e-002	8.989078e-001	0.000000e+000	0.000000e+000	0.000000e+000	0.000000e+000
5400940094.009	0.000000e+000	0.000000e+000	4.795495e-002	8.990713e-001	0.000000e+000	0.000000e+000	0.000000e+000	0.000000e+000
5400960096.010	0.000000e+000	0.000000e+000	5.839361e-002	9.005147e-001	0.000000e+000	0.000000e+000	0.000000e+000	0.000000e+000
5400980098.010	0.000000e+000	0.000000e+000	6.877364e-002	9.020793e-001	0.000000e+000	0.000000e+000	0.000000e+000	0.000000e+000
5401000100.010	0.000000e+000	0.000000e+000	7.913167e-002	9.037016e-001	0.000000e+000	0.000000e+000	0.000000e+000	0.000000e+000
5401020102.010	0.000000e+000	0.000000e+000	8.822835e-002	9.036837e-001	0.000000e+000	0.000000e+000	0.000000e+000	0.000000e+000
5401040104.010	0.000000e+000	0.000000e+000	9.769919e-002	9.036648e-001	0.000000e+000	0.000000e+000	0.000000e+000	0.000000e+000
5401060106.011	0.000000e+000	0.000000e+000	1.067417e-001	9.033767e-001	0.000000e+000	0.000000e+000	0.000000e+000	0.000000e+000
5401080108.011	0.000000e+000	0.000000e+000	1.159977e-001	9.033170e-001	0.000000e+000	0.000000e+000	0.000000e+000	0.000000e+000
5401100110.011	0.000000e+000	0.000000e+000	1.260862e-001	9.038644e-001	0.000000e+000	0.000000e+000	0.000000e+000	0.000000e+000
5401120112.011	0.000000e+000	0.000000e+000	1.356473e-001	9.038501e-001	0.000000e+000	0.000000e+000	0.000000e+000	0.000000e+000
5401140114.011	0.000000e+000	0.000000e+000	1.455245e-001	9.040198e-001	0.000000e+000	0.000000e+000	0.000000e+000	0.000000e+000
5401160116.012	0.000000e+000	0.000000e+000	1.539786e-001	9.026826e-001	0.000000e+000	0.000000e+000	0.000000e+000	0.000000e+000
5401180118.012	0.000000e+000	0.000000e+000	1.629866e-001	9.021184e-001	0.000000e+000	0.000000e+000	0.000000e+000	0.000000e+000
5401200120.012	0.000000e+000	0.000000e+000	1.715706e-001	9.007963e-001	0.000000e+000	0.000000e+000	0.000000e+000	0.000000e+000
5401220122.012	0.000000e+000	0.000000e+000	1.811919e-001	9.003188e-001	0.000000e+000	0.000000e+000	0.000000e+000	0.000000e+000
5401240124.012	0.000000e+000	0.000000e+000	1.903267e-001	8.996315e-001	0.000000e+000	0.000000e+000	0.000000e+000	0.000000e+000
5401260126.013	0.000000e+000	0.000000e+000	2.000374e-001	8.992609e-001	0.000000e+000	0.000000e+000	0.000000e+000	0.000000e+000
5401280128.013	0.000000e+000	0.000000e+000	2.086999e-001	8.977579e-001	0.000000e+000	0.000000e+000	0.000000e+000	0.000000e+000
5401300130.013	0.000000e+000	0.000000e+000	2.173130e-001	8.963121e-001	0.000000e+000	0.000000e+000	0.000000e+000	0.000000e+000
5401320132.013	0.000000e+000	0.000000e+000	2.255014e-001	8.942434e-001	0.000000e+000	0.000000e+000	0.000000e+000	0.000000e+000
5401340134.013	0.000000e+000	0.000000e+000	2.340195e-001	8.927578e-001	0.000000e+000	0.000000e+000	0.000000e+000	0.000000e+000
5401360136.014	0.000000e+000	0.000000e+000	2.434897e-001	8.916219e-001	0.000000e+000	0.000000e+000	0.000000e+000	0.000000e+000
5401380138.014	0.000000e+000	0.000000e+000	2.526549e-001	8.903720e-001	0.000000e+000	0.000000e+000	0.000000e+000	0.000000e+000
5401400140.014	0.000000e+000	0.000000e+000	2.620517e-001	8.893683e-001	0.000000e+000	0.000000e+000	0.000000e+000	0.000000e+000
5401420142.014	0.000000e+000	0.000000e+000	2.695898e-001	8.865463e-001	0.000000e+000	0.000000e+000	0.000000e+000	0.000000e+000
5401440144.014	0.000000e+000	0.000000e+000	2.778933e-001	8.844051e-001	0.000000e+000	0.000000e+000	0.000000e+000	0.000000e+000
5401460146.015	0.000000e+000	0.000000e+000	2.851757e-001	8.815263e-001	0.000000e+000	0.000000e+000	0.000000e+000	0.000000e+000
5401480148.015	0.000000e+000	0.000000e+000	2.944188e-001	8.799498e-001	0.000000e+000	0.000000e+000	0.000000e+000	0.000000e+000
5401500150.015	0.000000e+000	0.000000e+000	3.033351e-001	8.777759e-001	0.000000e+000	0.000000e+000	0.000000e+000	0.000000e+000
5401520152.015	0.000000e+000	0.000000e+000	3.128581e-001	8.762742e-001	0.000000e+000	0.000000e+000	0.000000e+000	0.000000e+000
5401540154.015	0.000000e+000	0.000000e+000	3.209733e-001	8.736801e-001	0.000000e+000	0.000000e+000	0.000000e+000	0.000000e+000
5401560156.016	0.000000e+000	0.000000e+000	3.288529e-001	8.709241e-001	0.000000e+000	0.000000e+000	0.000000e+000	0.000000e+000
5401580158.016	0.000000e+000	0.000000e+000	3.362253e-001	8.679416e-001	0.000000e+000	0.000000e+000	0.000000e+000	0.000000e+000
5401600160.016	0.000000e+000	0.000000e+000	3.441256e-001	8.649941e-001	0.000000e+000	0.000000e+000	0.000000e+000	0.000000e+000
5401620162.016	0.000000e+000	0.000000e+000	3.533770e-001	8.628029e-001	0.000000e+000	0.000000e+000	0.000000e+000	0.000000e+000
5401640164.016	0.000000e+000	0.000000e+000	3.618783e-001	8.602776e-001	0.000000e+000	0.000000e+000	0.000000e+000	0.000000e+000
5401660166.017	0.000000e+000	0.000000e+000	3.708587e-001	8.579494e-001	0.000000e+000	0.000000e+000	0.000000e+000	0.000000e+000
5401680168.017	0.000000e+000	0.000000e+000	3.780778e-001	8.543810e-001	0.000000e+000	0.000000e+000	0.000000e+000	0.000000e+000
5401700170.017	0.000000e+000	0.000000e+000	3.859450e-001	8.510887e-001	0.000000e+000	0.000000e+000	0.000000e+000	0.000000e+000
5401720172.017	0.000000e+000	0.000000e+000	3.923991e-001	8.471898e-001	0.000000e+000	0.000000e+000	0.000000e+000	0.000000e+000
5401740174.017	0.000000e+000	0.000000e+000	4.011977e-001	8.444511e-001	0.000000e+000	0.000000e+000	0.000000e+000	0.000000e+000
5401760176.018	0.000000e+000	0.000000e+000	4.096248e-001	8.415591e-001	0.000000e+000	0.000000e+000	0.000000e+000	0.000000e+000
5401780178.018	0.000000e+000	0.000000e+000	4.187142e-001	8.389886e-001	0.000000e+000	0.000000e+000	0.000000e+000	0.000000e+000
5401800180.018	0.000000e+000	0.000000e+000	4.264761e-001	8.353727e-001	0.000000e+000	0.000000e+000	0.000000e+000	0.000000e+000
5401820182.018	0.000000e+000	0.000000e+000	4.337995e-001	8.314933e-001	0.000000e+000	0.000000e+000	0.000000e+000	0.000000e+000
5401840184.018	0.000000e+000	0.000000e+000	4.405114e-001	8.274908e-001	0.000000e+000	0.000000e+000	0.000000e+000	0.000000e+000
5401860186.019	0.000000e+000	0.000000e+000	4.478501e-001	8.235377e-001	0.000000e+000	0.000000e+000	0.000000e+000	0.000000e+000
5401880188.019	0.000000e+000	0.000000e+000	4.565446e-001	8.202896e-001	0.000000e+000	0.000000e+000	0.000000e+000	0.000000e+000
5401900190.019	0.000000e+000	0.000000e+000	4.647730e-001	8.168080e-001	0.000000e+000	0.000000e+000	0.000000e+000	0.000000e+000
5401920192.019	0.000000e+000	0.000000e+000	4.738438e-001	8.135371e-001	0.000000e+000	0.000000e+000	0.000000e+000	0.000000e+000
5401940194.019	0.000000e+000	0.000000e+000	4.801543e-001	8.091528e-001	0.000000e+000	0.000000e+000	0.000000e+000	0.000000e+000
5401960196.020	0.000000e+000	0.000000e+000	4.874110e-001	8.047570e-001	0.000000e+000	0.000000e+000	0.000000e+000	0.000000e+000
5401980198.020	0.000000e+000	0.000000e+000	4.935322e-001	8.002290e-001	0.000000e+000	0.000000e+000	0.000000e+000	0.000000e+000
5402000200.020	0.000000e+000	0.000000e+000	5.017550e-001	7.964465e-001	0.000000e+000	0.000000e+000	0.000000e+000	0.000000e+000
5402020202.020	0.000000e+000	0.000000e+000	5.096778e-001	7.923584e-001	0.000000e+000	0.000000e+000	0.000000e+000	0.000000e+000
5402040204.020	0.000000e+000	0.000000e+000	5.185449e-001	7.887081e-001	0.000000e+000	0.000000e+000	0.000000e+000	0.000000e+000
5402060206.021	0.000000e+000	0.000000e+000	5.259551e-001	7.842978e-001	0.000000e+000	0.000000e+000	0.000000e+000	0.000000e+000
5402080208.021	0.000000e+000	0.000000e+000	5.323787e-001	7.795525e-001	0.000000e+000	0.000000e+000	0.000000e+000	0.000000e+000
5402100210.021	0.000000e+000	0.000000e+000	5.387183e-001	7.746136e-001	0.000000e+000	0.000000e+000	0.000000e+000	0.000000e+000
5402120212.021	0.000000e+000	0.000000e+000	5.452668e-001	7.698571e-001	0.000000e+000	0.000000e+000	0.000000e+000	0.000000e+000
5402140214.021	0.000000e+000	0.000000e+000	5.535382e-001	7.654410e-001	0.000000e+000	0.000000e+000	0.000000e+000	0.000000e+000
5402160216.022	0.000000e+000	0.000000e+000	5.612881e-001	7.611169e-001	0.000000e+000	0.000000e+000	0.000000e+000	0.000000e+000
5402180218.022	0.000000e+000	0.000000e+000	5.698470e-001	7.567486e-001	0.000000e+000	0.000000e+000	0.000000e+000	0.000000e+000
5402200220.022	0.000000e+000	0.000000e+000	5.760561e-001	7.514670e-001	0.000000e+000	0.000000e+000	0.000000e+000	0.000000e+000
5402220222.022	0.000000e+000	0.000000e+000	5.823892e-001	7.464861e-001	0.000000e+000	0.000000e+000	0.000000e+000	0.000000e+000
5402240224.022	0.000000e+000	0.000000e+000	5.877968e-001	7.407995e-001	0.000000e+000	0.000000e+000	0.000000e+000	0.000000e+000
5402260226.023	0.000000e+000	0.000000e+000	5.955744e-001	7.361545e-001	0.000000e+000	0.000000e+000	0.000000e+000	0.000000e+000
5402280228.023	0.000000e+000	0.000000e+000	6.032698e-001	7.311450e-001	0.000000e+000	0.000000e+000	0.000000e+000	0.000000e+000
5402300230.023	0.000000e+000	0.000000e+000	6.117690e-001	7.263628e-001	0.000000e+000	0.000000e+000	0.000000e+000	0.000000e+000
5402320232.023	0.000000e+000	0.000000e+000	6.185173e-001	7.210365e-001	0.000000e+000	0.000000e+000	0.000000e+000	0.000000e+000
5402340234.023	0.000000e+000	0.000000e+000	6.244610e-001	7.154624e-001	0.000000e+000	0.000000e+000	0.000000e+000	0.000000e+000
5402360236.024	0.000000e+000	0.000000e+000	6.301529e-001	7.099884e-001	0.000000e+000	0.000000e+000	0.000000e+000	0.000000e+000
5402380238.024	0.000000e+000	0.000000e+000	6.360749e-001	7.041500e-001	0.000000e+000	0.000000e+000	0.000000e+000	0.000000e+000
5402400240.024	0.000000e+000	0.000000e+000	6.440269e-001	6.989062e-001	0.000000e+000	0.000000e+000	0.000000e+000	0.000000e+000
5402420242.024	0.000000e+000	0.000000e+000	6.513805e-001	6.934078e-001	0.000000e+000	0.000000e+000	0.000000e+000	0.000000e+000
5402440244.024	0.000000e+000	0.000000e+000	6.594037e-001	6.881887e-001	0.000000e+000	0.000000e+000	0.000000e+000	0.000000e+000
5402460246.025	0.000000e+000	0.000000e+000	6.648578e-001	6.820196e-001	0.000000e+000	0.000000e+000	0.000000e+000	0.000000e+000
5402480248.025	0.000000e+000	0.000000e+000	6.709353e-001	6.762948e-001	0.000000e+000	0.000000e+000	0.000000e+000	0.000000e+000
5402500250.025	0.000000e+000	0.000000e+000	6.760575e-001	6.701540e-001	0.000000e+000	0.000000e+000	0.000000e+000	0.000000e+000
5402520252.025	0.000000e+000	0.000000e+000	6.831182e-001	6.642205e-001	0.000000e+000	0.000000e+000	0.000000e+000	0.000000e+000
5402540254.025	0.000000e+000	0.000000e+000	6.901668e-001	6.583303e-001	0.000000e+000	0.000000e+000	0.000000e+000	0.000000e+000
5402560256.026	0.000000e+000	0.000000e+000	6.976614e-001	6.523318e-001	0.000000e+000	0.000000e+000	0.000000e+000	0.000000e+000
5402580258.026	0.000000e+000	0.000000e+000	7.043961e-001	6.465025e-001	0.000000e+000	0.000000e+000	0.000000e+000	0.000000e+000
5402600260.026	0.000000e+000	0.000000e+000	7.101448e-001	6.400160e-001	0.000000e+000	0.000000e+000	0.000000e+000	0.000000e+000
5402620262.026	0.000000e+000	0.000000e+000	7.160711e-001	6.337502e-001	0.000000e+000	0.000000e+000	0.000000e+000	0.000000e+000
5402640264.026	0.000000e+000	0.000000e+000	7.212205e-001	6.271936e-001	0.000000e+000	0.000000e+000	0.000000e+000	0.000000e+000
5402660266.027	0.000000e+000	0.000000e+000	7.283249e-001	6.208441e-001	0.000000e+000	0.000000e+000	0.000000e+000	0.000000e+000
5402680268.027	0.000000e+000	0.000000e+000	7.339826e-001	6.143319e-001	0.000000e+000	0.000000e+000	0.000000e+000	0.000000e+000
5402700270.027	0.000000e+000	0.000000e+000	7.413632e-001	6.076999e-001	0.000000e+000	0.000000e+000	0.000000e+000	0.000000e+000
5402720272.027	0.000000e+000	0.000000e+000	7.469666e-001	6.011836e-001	0.000000e+000	0.000000e+000	0.000000e+000	0.000000e+000
5402740274.027	0.000000e+000	0.000000e+000	7.536231e-001	5.945205e-001	0.000000e+000	0.000000e+000	0.000000e+000	0.000000e+000
5402760276.028	0.000000e+000	0.000000e+000	7.577447e-001	5.876803e-001	0.000000e+000	0.000000e+000	0.000000e+000	0.000000e+000
5402780278.028	0.000000e+000	0.000000e+000	7.641630e-001	5.807040e-001	0.000000e+000	0.000000e+000	0.000000e+000	0.000000e+000
5402800280.028	0.000000e+000	0.000000e+000	7.704498e-001	5.737536e-001	0.000000e+000	0.000000e+000	0.000000e+000	0.000000e+000
5402820282.028	0.000000e+000	0.000000e+000	7.769531e-001	5.667448e-001	0.000000e+000	0.000000e+000	0.000000e+000	0.000000e+000
5402840284.028	0.000000e+000	0.000000e+000	7.830653e-001	5.597198e-001	0.000000e+000	0.000000e+000	0.000000e+000	0.000000e+000
5402860286.029	0.000000e+000	0.000000e+000	7.879740e-001	5.523248e-001	0.000000e+000	0.000000e+000	0.000000e+000	0.000000e+000
5402880288.029	0.000000e+000	0.000000e+000	7.935591e-001	5.450471e-001	0.000000e+000	0.000000e+000	0.000000e+000	0.000000e+000
5402900290.029	0.000000e+000	0.000000e+000	7.986930e-001	5.376810e-001	0.000000e+000	0.000000e+000	0.000000e+000	0.000000e+000
5402920292.029	0.000000e+000	0.000000e+000	8.055007e-001	5.305605e-001	0.000000e+000	0.000000e+000	0.000000e+000	0.000000e+000
5402940294.029	0.000000e+000	0.000000e+000	8.110694e-001	5.226551e-001	0.000000e+000	0.000000e+000	0.000000e+000	0.000000e+000
5402960296.030	0.000000e+000	0.000000e+000	8.184077e-001	5.149409e-001	0.000000e+000	0.000000e+000	0.000000e+000	0.000000e+000
5402980298.030	0.000000e+000	0.000000e+000	8.226956e-001	5.074312e-001	0.000000e+000	0.000000e+000	0.000000e+000	0.000000e+000
5403000300.030	0.000000e+000	0.000000e+000	8.277568e-001	4.995496e-001	0.000000e+000	0.000000e+000	0.000000e+000	0.000000e+000
5403020302.030	0.000000e+000	0.000000e+000	8.313738e-001	4.917592e-001	0.000000e+000	0.000000e+000	0.000000e+000	0.000000e+000
5403040304.030	0.000000e+000	0.000000e+000	8.365743e-001	4.838133e-001	0.000000e+000	0.000000e+000	0.000000e+000	0.000000e+000
5403060306.031	0.000000e+000	0.000000e+000	8.433755e-001	4.755357e-001	0.000000e+000	0.000000e+000	0.000000e+000	0.000000e+000
