!Keysight Technologies,E5063A,MY54502693,A.05.04
!Date: Mon Oct 12 07:22:48 2020
!Data & Calibration Information:
!Freq	S11:NONE(--)	S21:NONE(--)	S12:NONE(--)	S22:NONE(--)
# Hz S RI R 50
6000000000.000	0.000000e+000	0.000000e+000	-5.507133e-001	4.467532e-001	0.000000e+000	0.000000e+000	0.000000e+000	0.000000e+000
6000020002.000	0.000000e+000	0.000000e+000	-5.499206e-001	4.599909e-001	0.000000e+000	0.000000e+000	0.000000e+000	0.000000e+000
6000040004.000	0.000000e+000	0.000000e+000	-5.481970e-001	4.751882e-001	0.000000e+000	0.000000e+000	0.000000e+000	0.000000e+000
6000060006.001	0.000000e+000	0.000000e+000	-5.448050e-001	4.894966e-001	0.000000e+000	0.000000e+000	0.000000e+000	0.000000e+000
6000080008.001	0.000000e+000	0.000000e+000	-5.397919e-001	5.046070e-001	0.000000e+000	0.000000e+000	0.000000e+000	0.000000e+000
6000100010.001	0.000000e+000	0.000000e+000	-5.328821e-001	5.193202e-001	0.000000e+000	0.000000e+000	0.000000e+000	0.000000e+000
6000120012.001	0.000000e+000	0.000000e+000	-5.238941e-001	5.358009e-001	0.000000e+000	0.000000e+000	0.000000e+000	0.000000e+000
6000140014.001	0.000000e+000	0.000000e+000	-5.121343e-001	5.522295e-001	0.000000e+000	0.000000e+000	0.000000e+000	0.000000e+000
6000160016.002	0.000000e+000	0.000000e+000	-4.974182e-001	5.680046e-001	0.000000e+000	0.000000e+000	0.000000e+000	0.000000e+000
6000180018.002	0.000000e+000	0.000000e+000	-4.793682e-001	5.814163e-001	0.000000e+000	0.000000e+000	0.000000e+000	0.000000e+000
6000200020.002	0.000000e+000	0.000000e+000	-4.580048e-001	5.910116e-001	0.000000e+000	0.000000e+000	0.000000e+000	0.000000e+000
6000220022.002	0.000000e+000	0.000000e+000	-4.341608e-001	5.965798e-001	0.000000e+000	0.000000e+000	0.000000e+000	0.000000e+000
6000240024.002	0.000000e+000	0.000000e+000	-4.095630e-001	5.961660e-001	0.000000e+000	0.000000e+000	0.000000e+000	0.000000e+000
6000260026.003	0.000000e+000	0.000000e+000	-3.855138e-001	5.912510e-001	0.000000e+000	0.000000e+000	0.000000e+000	0.000000e+000
6000280028.003	0.000000e+000	0.000000e+000	-3.649883e-001	5.803019e-001	0.000000e+000	0.000000e+000	0.000000e+000	0.000000e+000
6000300030.003	0.000000e+000	0.000000e+000	-3.490767e-001	5.655161e-001	0.000000e+000	0.000000e+000	0.000000e+000	0.000000e+000
6000320032.003	0.000000e+000	0.000000e+000	-3.396279e-001	5.479036e-001	0.000000e+000	0.000000e+000	0.000000e+000	0.000000e+000
6000340034.003	0.000000e+000	0.000000e+000	-3.364222e-001	5.305295e-001	0.000000e+000	0.000000e+000	0.000000e+000	0.000000e+000
6000360036.004	0.000000e+000	0.000000e+000	-3.391885e-001	5.145436e-001	0.000000e+000	0.000000e+000	0.000000e+000	0.000000e+000
6000380038.004	0.000000e+000	0.000000e+000	-3.452012e-001	5.030882e-001	0.000000e+000	0.000000e+000	0.000000e+000	0.000000e+000
6000400040.004	0.000000e+000	0.000000e+000	-3.538623e-001	4.960774e-001	0.000000e+000	0.000000e+000	0.000000e+000	0.000000e+000
6000420042.004	0.000000e+000	0.000000e+000	-3.628359e-001	4.935098e-001	0.000000e+000	0.000000e+000	0.000000e+000	0.000000e+000
6000440044.004	0.000000e+000	0.000000e+000	-3.720604e-001	4.942216e-001	0.000000e+000	0.000000e+000	0.000000e+000	0.000000e+000
6000460046.005	0.000000e+000	0.000000e+000	-3.803511e-001	4.965599e-001	0.000000e+000	0.000000e+000	0.000000e+000	0.000000e+000
6000480048.005	0.000000e+000	0.000000e+000	-3.875175e-001	5.018939e-001	0.000000e+000	0.000000e+000	0.000000e+000	0.000000e+000
6000500050.005	0.000000e+000	0.000000e+000	-3.933878e-001	5.080836e-001	0.000000e+000	0.000000e+000	0.000000e+000	0.000000e+000
6000520052.005	0.000000e+000	0.000000e+000	-3.976491e-001	5.170537e-001	0.000000e+000	0.000000e+000	0.000000e+000	0.000000e+000
6000540054.005	0.000000e+000	0.000000e+000	-4.005762e-001	5.264053e-001	0.000000e+000	0.000000e+000	0.000000e+000	0.000000e+000
6000560056.006	0.000000e+000	0.000000e+000	-4.024625e-001	5.373308e-001	0.000000e+000	0.000000e+000	0.000000e+000	0.000000e+000
6000580058.006	0.000000e+000	0.000000e+000	-4.030430e-001	5.479114e-001	0.000000e+000	0.000000e+000	0.000000e+000	0.000000e+000
6000600060.006	0.000000e+000	0.000000e+000	-4.022868e-001	5.587027e-001	0.000000e+000	0.000000e+000	0.000000e+000	0.000000e+000
6000620062.006	0.000000e+000	0.000000e+000	-4.001702e-001	5.696747e-001	0.000000e+000	0.000000e+000	0.000000e+000	0.000000e+000
6000640064.006	0.000000e+000	0.000000e+000	-3.967549e-001	5.819308e-001	0.000000e+000	0.000000e+000	0.000000e+000	0.000000e+000
6000660066.007	0.000000e+000	0.000000e+000	-3.916929e-001	5.946973e-001	0.000000e+000	0.000000e+000	0.000000e+000	0.000000e+000
6000680068.007	0.000000e+000	0.000000e+000	-3.844748e-001	6.081900e-001	0.000000e+000	0.000000e+000	0.000000e+000	0.000000e+000
6000700070.007	0.000000e+000	0.000000e+000	-3.746233e-001	6.214372e-001	0.000000e+000	0.000000e+000	0.000000e+000	0.000000e+000
6000720072.007	0.000000e+000	0.000000e+000	-3.619885e-001	6.318905e-001	0.000000e+000	0.000000e+000	0.000000e+000	0.000000e+000
6000740074.007	0.000000e+000	0.000000e+000	-3.465225e-001	6.395141e-001	0.000000e+000	0.000000e+000	0.000000e+000	0.000000e+000
6000760076.008	0.000000e+000	0.000000e+000	-3.313191e-001	6.416132e-001	0.000000e+000	0.000000e+000	0.000000e+000	0.000000e+000
6000780078.008	0.000000e+000	0.000000e+000	-3.177140e-001	6.421947e-001	0.000000e+000	0.000000e+000	0.000000e+000	0.000000e+000
6000800080.008	0.000000e+000	0.000000e+000	-3.062295e-001	6.404055e-001	0.000000e+000	0.000000e+000	0.000000e+000	0.000000e+000
6000820082.008	0.000000e+000	0.000000e+000	-2.969571e-001	6.361854e-001	0.000000e+000	0.000000e+000	0.000000e+000	0.000000e+000
6000840084.008	0.000000e+000	0.000000e+000	-2.952702e-001	6.304856e-001	0.000000e+000	0.000000e+000	0.000000e+000	0.000000e+000
6000860086.009	0.000000e+000	0.000000e+000	-2.985627e-001	6.308841e-001	0.000000e+000	0.000000e+000	0.000000e+000	0.000000e+000
6000880088.009	0.000000e+000	0.000000e+000	-3.009667e-001	6.379659e-001	0.000000e+000	0.000000e+000	0.000000e+000	0.000000e+000
6000900090.009	0.000000e+000	0.000000e+000	-2.990685e-001	6.496597e-001	0.000000e+000	0.000000e+000	0.000000e+000	0.000000e+000
6000920092.009	0.000000e+000	0.000000e+000	-2.927096e-001	6.632748e-001	0.000000e+000	0.000000e+000	0.000000e+000	0.000000e+000
6000940094.009	0.000000e+000	0.000000e+000	-2.823392e-001	6.772710e-001	0.000000e+000	0.000000e+000	0.000000e+000	0.000000e+000
6000960096.010	0.000000e+000	0.000000e+000	-2.682096e-001	6.909483e-001	0.000000e+000	0.000000e+000	0.000000e+000	0.000000e+000
6000980098.010	0.000000e+000	0.000000e+000	-2.507223e-001	7.019477e-001	0.000000e+000	0.000000e+000	0.000000e+000	0.000000e+000
6001000100.010	0.000000e+000	0.000000e+000	-2.288853e-001	7.114912e-001	0.000000e+000	0.000000e+000	0.000000e+000	0.000000e+000
6001020102.010	0.000000e+000	0.000000e+000	-2.028434e-001	7.168383e-001	0.000000e+000	0.000000e+000	0.000000e+000	0.000000e+000
6001040104.010	0.000000e+000	0.000000e+000	-1.717870e-001	7.172515e-001	0.000000e+000	0.000000e+000	0.000000e+000	0.000000e+000
6001060106.011	0.000000e+000	0.000000e+000	-1.390406e-001	7.083323e-001	0.000000e+000	0.000000e+000	0.000000e+000	0.000000e+000
6001080108.011	0.000000e+000	0.000000e+000	-1.077981e-001	6.882443e-001	0.000000e+000	0.000000e+000	0.000000e+000	0.000000e+000
6001100110.011	0.000000e+000	0.000000e+000	-8.629578e-002	6.570384e-001	0.000000e+000	0.000000e+000	0.000000e+000	0.000000e+000
6001120112.011	0.000000e+000	0.000000e+000	-7.835434e-002	6.202237e-001	0.000000e+000	0.000000e+000	0.000000e+000	0.000000e+000
6001140114.011	0.000000e+000	0.000000e+000	-8.419814e-002	5.861870e-001	0.000000e+000	0.000000e+000	0.000000e+000	0.000000e+000
6001160116.012	0.000000e+000	0.000000e+000	-1.001911e-001	5.590251e-001	0.000000e+000	0.000000e+000	0.000000e+000	0.000000e+000
6001180118.012	0.000000e+000	0.000000e+000	-1.218883e-001	5.434931e-001	0.000000e+000	0.000000e+000	0.000000e+000	0.000000e+000
6001200120.012	0.000000e+000	0.000000e+000	-1.444276e-001	5.377900e-001	0.000000e+000	0.000000e+000	0.000000e+000	0.000000e+000
6001220122.012	0.000000e+000	0.000000e+000	-1.643062e-001	5.416907e-001	0.000000e+000	0.000000e+000	0.000000e+000	0.000000e+000
6001240124.012	0.000000e+000	0.000000e+000	-1.801288e-001	5.497465e-001	0.000000e+000	0.000000e+000	0.000000e+000	0.000000e+000
6001260126.013	0.000000e+000	0.000000e+000	-1.910081e-001	5.620038e-001	0.000000e+000	0.000000e+000	0.000000e+000	0.000000e+000
6001280128.013	0.000000e+000	0.000000e+000	-1.974437e-001	5.752109e-001	0.000000e+000	0.000000e+000	0.000000e+000	0.000000e+000
6001300130.013	0.000000e+000	0.000000e+000	-1.995557e-001	5.900677e-001	0.000000e+000	0.000000e+000	0.000000e+000	0.000000e+000
6001320132.013	0.000000e+000	0.000000e+000	-1.983323e-001	6.054493e-001	0.000000e+000	0.000000e+000	0.000000e+000	0.000000e+000
6001340134.013	0.000000e+000	0.000000e+000	-1.938022e-001	6.209650e-001	0.000000e+000	0.000000e+000	0.000000e+000	0.000000e+000
6001360136.014	0.000000e+000	0.000000e+000	-1.858947e-001	6.364488e-001	0.000000e+000	0.000000e+000	0.000000e+000	0.000000e+000
6001380138.014	0.000000e+000	0.000000e+000	-1.742544e-001	6.511423e-001	0.000000e+000	0.000000e+000	0.000000e+000	0.000000e+000
6001400140.014	0.000000e+000	0.000000e+000	-1.573374e-001	6.650202e-001	0.000000e+000	0.000000e+000	0.000000e+000	0.000000e+000
6001420142.014	0.000000e+000	0.000000e+000	-1.333792e-001	6.754161e-001	0.000000e+000	0.000000e+000	0.000000e+000	0.000000e+000
6001440144.014	0.000000e+000	0.000000e+000	-1.007122e-001	6.772075e-001	0.000000e+000	0.000000e+000	0.000000e+000	0.000000e+000
6001460146.015	0.000000e+000	0.000000e+000	-6.762369e-002	6.607634e-001	0.000000e+000	0.000000e+000	0.000000e+000	0.000000e+000
6001480148.015	0.000000e+000	0.000000e+000	-4.739876e-002	6.332111e-001	0.000000e+000	0.000000e+000	0.000000e+000	0.000000e+000
6001500150.015	0.000000e+000	0.000000e+000	-3.691707e-002	6.002116e-001	0.000000e+000	0.000000e+000	0.000000e+000	0.000000e+000
6001520152.015	0.000000e+000	0.000000e+000	-4.149977e-002	5.613014e-001	0.000000e+000	0.000000e+000	0.000000e+000	0.000000e+000
6001540154.015	0.000000e+000	0.000000e+000	-6.413854e-002	5.344621e-001	0.000000e+000	0.000000e+000	0.000000e+000	0.000000e+000
6001560156.016	0.000000e+000	0.000000e+000	-9.036693e-002	5.271005e-001	0.000000e+000	0.000000e+000	0.000000e+000	0.000000e+000
6001580158.016	0.000000e+000	0.000000e+000	-1.114602e-001	5.322100e-001	0.000000e+000	0.000000e+000	0.000000e+000	0.000000e+000
6001600160.016	0.000000e+000	0.000000e+000	-1.259851e-001	5.438408e-001	0.000000e+000	0.000000e+000	0.000000e+000	0.000000e+000
6001620162.016	0.000000e+000	0.000000e+000	-1.345975e-001	5.575469e-001	0.000000e+000	0.000000e+000	0.000000e+000	0.000000e+000
6001640164.016	0.000000e+000	0.000000e+000	-1.387081e-001	5.702292e-001	0.000000e+000	0.000000e+000	0.000000e+000	0.000000e+000
6001660166.017	0.000000e+000	0.000000e+000	-1.393935e-001	5.818726e-001	0.000000e+000	0.000000e+000	0.000000e+000	0.000000e+000
6001680168.017	0.000000e+000	0.000000e+000	-1.381306e-001	5.916215e-001	0.000000e+000	0.000000e+000	0.000000e+000	0.000000e+000
6001700170.017	0.000000e+000	0.000000e+000	-1.348972e-001	6.015590e-001	0.000000e+000	0.000000e+000	0.000000e+000	0.000000e+000
6001720172.017	0.000000e+000	0.000000e+000	-1.312508e-001	6.094451e-001	0.000000e+000	0.000000e+000	0.000000e+000	0.000000e+000
6001740174.017	0.000000e+000	0.000000e+000	-1.264571e-001	6.174268e-001	0.000000e+000	0.000000e+000	0.000000e+000	0.000000e+000
6001760176.018	0.000000e+000	0.000000e+000	-1.216717e-001	6.231924e-001	0.000000e+000	0.000000e+000	0.000000e+000	0.000000e+000
6001780178.018	0.000000e+000	0.000000e+000	-1.166753e-001	6.286506e-001	0.000000e+000	0.000000e+000	0.000000e+000	0.000000e+000
6001800180.018	0.000000e+000	0.000000e+000	-1.116093e-001	6.330869e-001	0.000000e+000	0.000000e+000	0.000000e+000	0.000000e+000
6001820182.018	0.000000e+000	0.000000e+000	-1.060082e-001	6.376924e-001	0.000000e+000	0.000000e+000	0.000000e+000	0.000000e+000
6001840184.018	0.000000e+000	0.000000e+000	-1.001568e-001	6.424208e-001	0.000000e+000	0.000000e+000	0.000000e+000	0.000000e+000
6001860186.019	0.000000e+000	0.000000e+000	-9.415390e-002	6.468925e-001	0.000000e+000	0.000000e+000	0.000000e+000	0.000000e+000
6001880188.019	0.000000e+000	0.000000e+000	-8.806952e-002	6.508647e-001	0.000000e+000	0.000000e+000	0.000000e+000	0.000000e+000
6001900190.019	0.000000e+000	0.000000e+000	-8.243835e-002	6.533968e-001	0.000000e+000	0.000000e+000	0.000000e+000	0.000000e+000
6001920192.019	0.000000e+000	0.000000e+000	-7.652802e-002	6.563744e-001	0.000000e+000	0.000000e+000	0.000000e+000	0.000000e+000
6001940194.019	0.000000e+000	0.000000e+000	-7.105376e-002	6.584445e-001	0.000000e+000	0.000000e+000	0.000000e+000	0.000000e+000
6001960196.020	0.000000e+000	0.000000e+000	-6.466183e-002	6.614421e-001	0.000000e+000	0.000000e+000	0.000000e+000	0.000000e+000
6001980198.020	0.000000e+000	0.000000e+000	-5.833169e-002	6.639135e-001	0.000000e+000	0.000000e+000	0.000000e+000	0.000000e+000
6002000200.020	0.000000e+000	0.000000e+000	-5.163035e-002	6.671541e-001	0.000000e+000	0.000000e+000	0.000000e+000	0.000000e+000
6002020202.020	0.000000e+000	0.000000e+000	-4.577265e-002	6.686455e-001	0.000000e+000	0.000000e+000	0.000000e+000	0.000000e+000
6002040204.020	0.000000e+000	0.000000e+000	-3.988528e-002	6.702389e-001	0.000000e+000	0.000000e+000	0.000000e+000	0.000000e+000
6002060206.021	0.000000e+000	0.000000e+000	-3.414355e-002	6.713303e-001	0.000000e+000	0.000000e+000	0.000000e+000	0.000000e+000
6002080208.021	0.000000e+000	0.000000e+000	-2.817161e-002	6.729722e-001	0.000000e+000	0.000000e+000	0.000000e+000	0.000000e+000
6002100210.021	0.000000e+000	0.000000e+000	-2.154408e-002	6.747823e-001	0.000000e+000	0.000000e+000	0.000000e+000	0.000000e+000
6002120212.021	0.000000e+000	0.000000e+000	-1.506966e-002	6.766458e-001	0.000000e+000	0.000000e+000	0.000000e+000	0.000000e+000
6002140214.021	0.000000e+000	0.000000e+000	-8.600236e-003	6.784051e-001	0.000000e+000	0.000000e+000	0.000000e+000	0.000000e+000
6002160216.022	0.000000e+000	0.000000e+000	-2.897484e-003	6.788146e-001	0.000000e+000	0.000000e+000	0.000000e+000	0.000000e+000
6002180218.022	0.000000e+000	0.000000e+000	3.389156e-003	6.799737e-001	0.000000e+000	0.000000e+000	0.000000e+000	0.000000e+000
6002200220.022	0.000000e+000	0.000000e+000	8.630968e-003	6.796236e-001	0.000000e+000	0.000000e+000	0.000000e+000	0.000000e+000
6002220222.022	0.000000e+000	0.000000e+000	1.536240e-002	6.812221e-001	0.000000e+000	0.000000e+000	0.000000e+000	0.000000e+000
6002240224.022	0.000000e+000	0.000000e+000	2.152489e-002	6.817054e-001	0.000000e+000	0.000000e+000	0.000000e+000	0.000000e+000
6002260226.023	0.000000e+000	0.000000e+000	2.842452e-002	6.832138e-001	0.000000e+000	0.000000e+000	0.000000e+000	0.000000e+000
6002280228.023	0.000000e+000	0.000000e+000	3.435219e-002	6.834082e-001	0.000000e+000	0.000000e+000	0.000000e+000	0.000000e+000
6002300230.023	0.000000e+000	0.000000e+000	4.020756e-002	6.835182e-001	0.000000e+000	0.000000e+000	0.000000e+000	0.000000e+000
6002320232.023	0.000000e+000	0.000000e+000	4.564051e-002	6.833496e-001	0.000000e+000	0.000000e+000	0.000000e+000	0.000000e+000
6002340234.023	0.000000e+000	0.000000e+000	5.166561e-002	6.832236e-001	0.000000e+000	0.000000e+000	0.000000e+000	0.000000e+000
6002360236.024	0.000000e+000	0.000000e+000	5.818746e-002	6.838686e-001	0.000000e+000	0.000000e+000	0.000000e+000	0.000000e+000
6002380238.024	0.000000e+000	0.000000e+000	6.462246e-002	6.842053e-001	0.000000e+000	0.000000e+000	0.000000e+000	0.000000e+000
6002400240.024	0.000000e+000	0.000000e+000	7.130110e-002	6.848375e-001	0.000000e+000	0.000000e+000	0.000000e+000	0.000000e+000
6002420242.024	0.000000e+000	0.000000e+000	7.684154e-002	6.841718e-001	0.000000e+000	0.000000e+000	0.000000e+000	0.000000e+000
6002440244.024	0.000000e+000	0.000000e+000	8.265052e-002	6.838679e-001	0.000000e+000	0.000000e+000	0.000000e+000	0.000000e+000
6002460246.025	0.000000e+000	0.000000e+000	8.803641e-002	6.828495e-001	0.000000e+000	0.000000e+000	0.000000e+000	0.000000e+000
6002480248.025	0.000000e+000	0.000000e+000	9.440877e-002	6.829222e-001	0.000000e+000	0.000000e+000	0.000000e+000	0.000000e+000
6002500250.025	0.000000e+000	0.000000e+000	1.007471e-001	6.827129e-001	0.000000e+000	0.000000e+000	0.000000e+000	0.000000e+000
6002520252.025	0.000000e+000	0.000000e+000	1.076225e-001	6.831519e-001	0.000000e+000	0.000000e+000	0.000000e+000	0.000000e+000
6002540254.025	0.000000e+000	0.000000e+000	1.133481e-001	6.822871e-001	0.000000e+000	0.000000e+000	0.000000e+000	0.000000e+000
6002560256.026	0.000000e+000	0.000000e+000	1.192045e-001	6.816078e-001	0.000000e+000	0.000000e+000	0.000000e+000	0.000000e+000
6002580258.026	0.000000e+000	0.000000e+000	1.244886e-001	6.804237e-001	0.000000e+000	0.000000e+000	0.000000e+000	0.000000e+000
6002600260.026	0.000000e+000	0.000000e+000	1.302778e-001	6.793799e-001	0.000000e+000	0.000000e+000	0.000000e+000	0.000000e+000
6002620262.026	0.000000e+000	0.000000e+000	1.365219e-001	6.790753e-001	0.000000e+000	0.000000e+000	0.000000e+000	0.000000e+000
6002640264.026	0.000000e+000	0.000000e+000	1.428285e-001	6.782833e-001	0.000000e+000	0.000000e+000	0.000000e+000	0.000000e+000
6002660266.027	0.000000e+000	0.000000e+000	1.495130e-001	6.780005e-001	0.000000e+000	0.000000e+000	0.000000e+000	0.000000e+000
6002680268.027	0.000000e+000	0.000000e+000	1.545633e-001	6.765326e-001	0.000000e+000	0.000000e+000	0.000000e+000	0.000000e+000
6002700270.027	0.000000e+000	0.000000e+000	1.603770e-001	6.754264e-001	0.000000e+000	0.000000e+000	0.000000e+000	0.000000e+000
6002720272.027	0.000000e+000	0.000000e+000	1.654984e-001	6.736291e-001	0.000000e+000	0.000000e+000	0.000000e+000	0.000000e+000
6002740274.027	0.000000e+000	0.000000e+000	1.718309e-001	6.727835e-001	0.000000e+000	0.000000e+000	0.000000e+000	0.000000e+000
6002760276.028	0.000000e+000	0.000000e+000	1.776818e-001	6.717000e-001	0.000000e+000	0.000000e+000	0.000000e+000	0.000000e+000
6002780278.028	0.000000e+000	0.000000e+000	1.841936e-001	6.708977e-001	0.000000e+000	0.000000e+000	0.000000e+000	0.000000e+000
6002800280.028	0.000000e+000	0.000000e+000	1.900515e-001	6.695095e-001	0.000000e+000	0.000000e+000	0.000000e+000	0.000000e+000
6002820282.028	0.000000e+000	0.000000e+000	1.952846e-001	6.678610e-001	0.000000e+000	0.000000e+000	0.000000e+000	0.000000e+000
6002840284.028	0.000000e+000	0.000000e+000	2.006554e-001	6.662292e-001	0.000000e+000	0.000000e+000	0.000000e+000	0.000000e+000
6002860286.029	0.000000e+000	0.000000e+000	2.058510e-001	6.643756e-001	0.000000e+000	0.000000e+000	0.000000e+000	0.000000e+000
6002880288.029	0.000000e+000	0.000000e+000	2.122082e-001	6.633287e-001	0.000000e+000	0.000000e+000	0.000000e+000	0.000000e+000
6002900290.029	0.000000e+000	0.000000e+000	2.182979e-001	6.618625e-001	0.000000e+000	0.000000e+000	0.000000e+000	0.000000e+000
6002920292.029	0.000000e+000	0.000000e+000	2.248155e-001	6.606016e-001	0.000000e+000	0.000000e+000	0.000000e+000	0.000000e+000
6002940294.029	0.000000e+000	0.000000e+000	2.297387e-001	6.585516e-001	0.000000e+000	0.000000e+000	0.000000e+000	0.000000e+000
6002960296.030	0.000000e+000	0.000000e+000	2.351220e-001	6.566821e-001	0.000000e+000	0.000000e+000	0.000000e+000	0.000000e+000
6002980298.030	0.000000e+000	0.000000e+000	2.399270e-001	6.542905e-001	0.000000e+000	0.000000e+000	0.000000e+000	0.000000e+000
6003000300.030	0.000000e+000	0.000000e+000	2.458888e-001	6.524821e-001	0.000000e+000	0.000000e+000	0.000000e+000	0.000000e+000
6003020302.030	0.000000e+000	0.000000e+000	2.517316e-001	6.509680e-001	0.000000e+000	0.000000e+000	0.000000e+000	0.000000e+000
6003040304.030	0.000000e+000	0.000000e+000	2.580820e-001	6.494640e-001	0.000000e+000	0.000000e+000	0.000000e+000	0.000000e+000
