!Keysight Technologies,E5063A,MY54502693,A.05.04
!Date: Mon Oct 12 07:00:32 2020
!Data & Calibration Information:
!Freq	S11:NONE(--)	S21:NONE(--)	S12:NONE(--)	S22:NONE(--)
# Hz S RI R 50
5000000000.000	0.000000e+000	0.000000e+000	-9.690321e-001	4.274511e-002	0.000000e+000	0.000000e+000	0.000000e+000	0.000000e+000
5000020002.000	0.000000e+000	0.000000e+000	-9.677141e-001	5.094345e-002	0.000000e+000	0.000000e+000	0.000000e+000	0.000000e+000
5000040004.000	0.000000e+000	0.000000e+000	-9.670555e-001	5.976396e-002	0.000000e+000	0.000000e+000	0.000000e+000	0.000000e+000
5000060006.001	0.000000e+000	0.000000e+000	-9.661760e-001	6.844719e-002	0.000000e+000	0.000000e+000	0.000000e+000	0.000000e+000
5000080008.001	0.000000e+000	0.000000e+000	-9.654287e-001	7.735599e-002	0.000000e+000	0.000000e+000	0.000000e+000	0.000000e+000
5000100010.001	0.000000e+000	0.000000e+000	-9.629752e-001	8.482437e-002	0.000000e+000	0.000000e+000	0.000000e+000	0.000000e+000
5000120012.001	0.000000e+000	0.000000e+000	-9.611953e-001	9.301678e-002	0.000000e+000	0.000000e+000	0.000000e+000	0.000000e+000
5000140014.001	0.000000e+000	0.000000e+000	-9.587805e-001	1.004630e-001	0.000000e+000	0.000000e+000	0.000000e+000	0.000000e+000
5000160016.002	0.000000e+000	0.000000e+000	-9.574786e-001	1.092592e-001	0.000000e+000	0.000000e+000	0.000000e+000	0.000000e+000
5000180018.002	0.000000e+000	0.000000e+000	-9.558361e-001	1.177235e-001	0.000000e+000	0.000000e+000	0.000000e+000	0.000000e+000
5000200020.002	0.000000e+000	0.000000e+000	-9.550751e-001	1.269011e-001	0.000000e+000	0.000000e+000	0.000000e+000	0.000000e+000
5000220022.002	0.000000e+000	0.000000e+000	-9.526152e-001	1.347439e-001	0.000000e+000	0.000000e+000	0.000000e+000	0.000000e+000
5000240024.002	0.000000e+000	0.000000e+000	-9.506803e-001	1.430592e-001	0.000000e+000	0.000000e+000	0.000000e+000	0.000000e+000
5000260026.003	0.000000e+000	0.000000e+000	-9.477516e-001	1.507019e-001	0.000000e+000	0.000000e+000	0.000000e+000	0.000000e+000
5000280028.003	0.000000e+000	0.000000e+000	-9.451241e-001	1.583027e-001	0.000000e+000	0.000000e+000	0.000000e+000	0.000000e+000
5000300030.003	0.000000e+000	0.000000e+000	-9.431602e-001	1.668238e-001	0.000000e+000	0.000000e+000	0.000000e+000	0.000000e+000
5000320032.003	0.000000e+000	0.000000e+000	-9.409346e-001	1.752313e-001	0.000000e+000	0.000000e+000	0.000000e+000	0.000000e+000
5000340034.003	0.000000e+000	0.000000e+000	-9.392114e-001	1.843799e-001	0.000000e+000	0.000000e+000	0.000000e+000	0.000000e+000
5000360036.004	0.000000e+000	0.000000e+000	-9.359838e-001	1.919118e-001	0.000000e+000	0.000000e+000	0.000000e+000	0.000000e+000
5000380038.004	0.000000e+000	0.000000e+000	-9.333891e-001	2.000090e-001	0.000000e+000	0.000000e+000	0.000000e+000	0.000000e+000
5000400040.004	0.000000e+000	0.000000e+000	-9.296891e-001	2.071988e-001	0.000000e+000	0.000000e+000	0.000000e+000	0.000000e+000
5000420042.004	0.000000e+000	0.000000e+000	-9.273246e-001	2.158667e-001	0.000000e+000	0.000000e+000	0.000000e+000	0.000000e+000
5000440044.004	0.000000e+000	0.000000e+000	-9.242422e-001	2.236192e-001	0.000000e+000	0.000000e+000	0.000000e+000	0.000000e+000
5000460046.005	0.000000e+000	0.000000e+000	-9.217169e-001	2.324316e-001	0.000000e+000	0.000000e+000	0.000000e+000	0.000000e+000
5000480048.005	0.000000e+000	0.000000e+000	-9.187211e-001	2.406282e-001	0.000000e+000	0.000000e+000	0.000000e+000	0.000000e+000
5000500050.005	0.000000e+000	0.000000e+000	-9.153755e-001	2.484333e-001	0.000000e+000	0.000000e+000	0.000000e+000	0.000000e+000
5000520052.005	0.000000e+000	0.000000e+000	-9.115587e-001	2.557330e-001	0.000000e+000	0.000000e+000	0.000000e+000	0.000000e+000
5000540054.005	0.000000e+000	0.000000e+000	-9.076422e-001	2.631686e-001	0.000000e+000	0.000000e+000	0.000000e+000	0.000000e+000
5000560056.006	0.000000e+000	0.000000e+000	-9.046654e-001	2.715940e-001	0.000000e+000	0.000000e+000	0.000000e+000	0.000000e+000
5000580058.006	0.000000e+000	0.000000e+000	-9.009902e-001	2.793879e-001	0.000000e+000	0.000000e+000	0.000000e+000	0.000000e+000
5000600060.006	0.000000e+000	0.000000e+000	-8.979898e-001	2.883395e-001	0.000000e+000	0.000000e+000	0.000000e+000	0.000000e+000
5000620062.006	0.000000e+000	0.000000e+000	-8.937711e-001	2.956189e-001	0.000000e+000	0.000000e+000	0.000000e+000	0.000000e+000
5000640064.006	0.000000e+000	0.000000e+000	-8.899148e-001	3.035440e-001	0.000000e+000	0.000000e+000	0.000000e+000	0.000000e+000
5000660066.007	0.000000e+000	0.000000e+000	-8.850402e-001	3.100358e-001	0.000000e+000	0.000000e+000	0.000000e+000	0.000000e+000
5000680068.007	0.000000e+000	0.000000e+000	-8.808695e-001	3.180716e-001	0.000000e+000	0.000000e+000	0.000000e+000	0.000000e+000
5000700070.007	0.000000e+000	0.000000e+000	-8.769163e-001	3.262077e-001	0.000000e+000	0.000000e+000	0.000000e+000	0.000000e+000
5000720072.007	0.000000e+000	0.000000e+000	-8.733903e-001	3.348257e-001	0.000000e+000	0.000000e+000	0.000000e+000	0.000000e+000
5000740074.007	0.000000e+000	0.000000e+000	-8.689258e-001	3.424277e-001	0.000000e+000	0.000000e+000	0.000000e+000	0.000000e+000
5000760076.008	0.000000e+000	0.000000e+000	-8.639716e-001	3.494215e-001	0.000000e+000	0.000000e+000	0.000000e+000	0.000000e+000
5000780078.008	0.000000e+000	0.000000e+000	-8.589118e-001	3.564251e-001	0.000000e+000	0.000000e+000	0.000000e+000	0.000000e+000
5000800080.008	0.000000e+000	0.000000e+000	-8.537261e-001	3.632808e-001	0.000000e+000	0.000000e+000	0.000000e+000	0.000000e+000
5000820082.008	0.000000e+000	0.000000e+000	-8.494803e-001	3.717206e-001	0.000000e+000	0.000000e+000	0.000000e+000	0.000000e+000
5000840084.008	0.000000e+000	0.000000e+000	-8.445991e-001	3.793354e-001	0.000000e+000	0.000000e+000	0.000000e+000	0.000000e+000
5000860086.009	0.000000e+000	0.000000e+000	-8.401921e-001	3.880423e-001	0.000000e+000	0.000000e+000	0.000000e+000	0.000000e+000
5000880088.009	0.000000e+000	0.000000e+000	-8.345518e-001	3.943589e-001	0.000000e+000	0.000000e+000	0.000000e+000	0.000000e+000
5000900090.009	0.000000e+000	0.000000e+000	-8.292471e-001	4.017192e-001	0.000000e+000	0.000000e+000	0.000000e+000	0.000000e+000
5000920092.009	0.000000e+000	0.000000e+000	-8.231236e-001	4.076372e-001	0.000000e+000	0.000000e+000	0.000000e+000	0.000000e+000
5000940094.009	0.000000e+000	0.000000e+000	-8.177956e-001	4.149972e-001	0.000000e+000	0.000000e+000	0.000000e+000	0.000000e+000
5000960096.010	0.000000e+000	0.000000e+000	-8.121810e-001	4.228347e-001	0.000000e+000	0.000000e+000	0.000000e+000	0.000000e+000
5000980098.010	0.000000e+000	0.000000e+000	-8.066944e-001	4.308537e-001	0.000000e+000	0.000000e+000	0.000000e+000	0.000000e+000
5001000100.010	0.000000e+000	0.000000e+000	-8.007925e-001	4.382228e-001	0.000000e+000	0.000000e+000	0.000000e+000	0.000000e+000
5001020102.010	0.000000e+000	0.000000e+000	-7.944516e-001	4.444791e-001	0.000000e+000	0.000000e+000	0.000000e+000	0.000000e+000
5001040104.010	0.000000e+000	0.000000e+000	-7.881720e-001	4.508539e-001	0.000000e+000	0.000000e+000	0.000000e+000	0.000000e+000
5001060106.011	0.000000e+000	0.000000e+000	-7.812744e-001	4.570141e-001	0.000000e+000	0.000000e+000	0.000000e+000	0.000000e+000
5001080108.011	0.000000e+000	0.000000e+000	-7.753234e-001	4.646457e-001	0.000000e+000	0.000000e+000	0.000000e+000	0.000000e+000
5001100110.011	0.000000e+000	0.000000e+000	-7.685109e-001	4.712609e-001	0.000000e+000	0.000000e+000	0.000000e+000	0.000000e+000
5001120112.011	0.000000e+000	0.000000e+000	-7.623176e-001	4.793676e-001	0.000000e+000	0.000000e+000	0.000000e+000	0.000000e+000
5001140114.011	0.000000e+000	0.000000e+000	-7.548881e-001	4.850456e-001	0.000000e+000	0.000000e+000	0.000000e+000	0.000000e+000
5001160116.012	0.000000e+000	0.000000e+000	-7.479354e-001	4.913454e-001	0.000000e+000	0.000000e+000	0.000000e+000	0.000000e+000
5001180118.012	0.000000e+000	0.000000e+000	-7.401974e-001	4.969494e-001	0.000000e+000	0.000000e+000	0.000000e+000	0.000000e+000
5001200120.012	0.000000e+000	0.000000e+000	-7.327389e-001	5.031908e-001	0.000000e+000	0.000000e+000	0.000000e+000	0.000000e+000
5001220122.012	0.000000e+000	0.000000e+000	-7.253405e-001	5.099915e-001	0.000000e+000	0.000000e+000	0.000000e+000	0.000000e+000
5001240124.012	0.000000e+000	0.000000e+000	-7.177291e-001	5.166524e-001	0.000000e+000	0.000000e+000	0.000000e+000	0.000000e+000
5001260126.013	0.000000e+000	0.000000e+000	-7.101998e-001	5.236497e-001	0.000000e+000	0.000000e+000	0.000000e+000	0.000000e+000
5001280128.013	0.000000e+000	0.000000e+000	-7.014173e-001	5.283087e-001	0.000000e+000	0.000000e+000	0.000000e+000	0.000000e+000
5001300130.013	0.000000e+000	0.000000e+000	-6.933377e-001	5.336191e-001	0.000000e+000	0.000000e+000	0.000000e+000	0.000000e+000
5001320132.013	0.000000e+000	0.000000e+000	-6.843513e-001	5.380966e-001	0.000000e+000	0.000000e+000	0.000000e+000	0.000000e+000
5001340134.013	0.000000e+000	0.000000e+000	-6.758473e-001	5.447702e-001	0.000000e+000	0.000000e+000	0.000000e+000	0.000000e+000
5001360136.014	0.000000e+000	0.000000e+000	-6.671024e-001	5.502248e-001	0.000000e+000	0.000000e+000	0.000000e+000	0.000000e+000
5001380138.014	0.000000e+000	0.000000e+000	-6.581774e-001	5.567366e-001	0.000000e+000	0.000000e+000	0.000000e+000	0.000000e+000
5001400140.014	0.000000e+000	0.000000e+000	-6.489097e-001	5.614927e-001	0.000000e+000	0.000000e+000	0.000000e+000	0.000000e+000
5001420142.014	0.000000e+000	0.000000e+000	-6.389278e-001	5.659243e-001	0.000000e+000	0.000000e+000	0.000000e+000	0.000000e+000
5001440144.014	0.000000e+000	0.000000e+000	-6.290215e-001	5.698530e-001	0.000000e+000	0.000000e+000	0.000000e+000	0.000000e+000
5001460146.015	0.000000e+000	0.000000e+000	-6.190459e-001	5.743223e-001	0.000000e+000	0.000000e+000	0.000000e+000	0.000000e+000
5001480148.015	0.000000e+000	0.000000e+000	-6.086129e-001	5.794699e-001	0.000000e+000	0.000000e+000	0.000000e+000	0.000000e+000
5001500150.015	0.000000e+000	0.000000e+000	-5.982366e-001	5.840353e-001	0.000000e+000	0.000000e+000	0.000000e+000	0.000000e+000
5001520152.015	0.000000e+000	0.000000e+000	-5.875069e-001	5.886995e-001	0.000000e+000	0.000000e+000	0.000000e+000	0.000000e+000
5001540154.015	0.000000e+000	0.000000e+000	-5.763639e-001	5.916827e-001	0.000000e+000	0.000000e+000	0.000000e+000	0.000000e+000
5001560156.016	0.000000e+000	0.000000e+000	-5.647195e-001	5.947032e-001	0.000000e+000	0.000000e+000	0.000000e+000	0.000000e+000
5001580158.016	0.000000e+000	0.000000e+000	-5.526884e-001	5.969216e-001	0.000000e+000	0.000000e+000	0.000000e+000	0.000000e+000
5001600160.016	0.000000e+000	0.000000e+000	-5.406960e-001	6.003880e-001	0.000000e+000	0.000000e+000	0.000000e+000	0.000000e+000
5001620162.016	0.000000e+000	0.000000e+000	-5.282302e-001	6.031231e-001	0.000000e+000	0.000000e+000	0.000000e+000	0.000000e+000
5001640164.016	0.000000e+000	0.000000e+000	-5.154213e-001	6.063399e-001	0.000000e+000	0.000000e+000	0.000000e+000	0.000000e+000
5001660166.017	0.000000e+000	0.000000e+000	-5.020123e-001	6.077819e-001	0.000000e+000	0.000000e+000	0.000000e+000	0.000000e+000
5001680168.017	0.000000e+000	0.000000e+000	-4.882264e-001	6.089150e-001	0.000000e+000	0.000000e+000	0.000000e+000	0.000000e+000
5001700170.017	0.000000e+000	0.000000e+000	-4.740129e-001	6.089189e-001	0.000000e+000	0.000000e+000	0.000000e+000	0.000000e+000
5001720172.017	0.000000e+000	0.000000e+000	-4.595525e-001	6.088874e-001	0.000000e+000	0.000000e+000	0.000000e+000	0.000000e+000
5001740174.017	0.000000e+000	0.000000e+000	-4.441377e-001	6.094333e-001	0.000000e+000	0.000000e+000	0.000000e+000	0.000000e+000
5001760176.018	0.000000e+000	0.000000e+000	-4.283645e-001	6.091138e-001	0.000000e+000	0.000000e+000	0.000000e+000	0.000000e+000
5001780178.018	0.000000e+000	0.000000e+000	-4.117685e-001	6.084469e-001	0.000000e+000	0.000000e+000	0.000000e+000	0.000000e+000
5001800180.018	0.000000e+000	0.000000e+000	-3.946145e-001	6.051214e-001	0.000000e+000	0.000000e+000	0.000000e+000	0.000000e+000
5001820182.018	0.000000e+000	0.000000e+000	-3.762833e-001	6.021659e-001	0.000000e+000	0.000000e+000	0.000000e+000	0.000000e+000
5001840184.018	0.000000e+000	0.000000e+000	-3.572524e-001	5.971257e-001	0.000000e+000	0.000000e+000	0.000000e+000	0.000000e+000
5001860186.019	0.000000e+000	0.000000e+000	-3.365467e-001	5.922034e-001	0.000000e+000	0.000000e+000	0.000000e+000	0.000000e+000
5001880188.019	0.000000e+000	0.000000e+000	-3.141843e-001	5.854059e-001	0.000000e+000	0.000000e+000	0.000000e+000	0.000000e+000
5001900190.019	0.000000e+000	0.000000e+000	-2.894316e-001	5.767197e-001	0.000000e+000	0.000000e+000	0.000000e+000	0.000000e+000
5001920192.019	0.000000e+000	0.000000e+000	-2.616655e-001	5.627436e-001	0.000000e+000	0.000000e+000	0.000000e+000	0.000000e+000
5001940194.019	0.000000e+000	0.000000e+000	-2.305287e-001	5.396709e-001	0.000000e+000	0.000000e+000	0.000000e+000	0.000000e+000
5001960196.020	0.000000e+000	0.000000e+000	-1.998501e-001	5.010755e-001	0.000000e+000	0.000000e+000	0.000000e+000	0.000000e+000
5001980198.020	0.000000e+000	0.000000e+000	-1.811657e-001	4.430820e-001	0.000000e+000	0.000000e+000	0.000000e+000	0.000000e+000
5002000200.020	0.000000e+000	0.000000e+000	-1.872247e-001	3.778339e-001	0.000000e+000	0.000000e+000	0.000000e+000	0.000000e+000
5002020202.020	0.000000e+000	0.000000e+000	-2.079328e-001	3.366217e-001	0.000000e+000	0.000000e+000	0.000000e+000	0.000000e+000
5002040204.020	0.000000e+000	0.000000e+000	-2.189153e-001	3.129263e-001	0.000000e+000	0.000000e+000	0.000000e+000	0.000000e+000
5002060206.021	0.000000e+000	0.000000e+000	-2.252729e-001	2.903307e-001	0.000000e+000	0.000000e+000	0.000000e+000	0.000000e+000
5002080208.021	0.000000e+000	0.000000e+000	-2.296197e-001	2.676114e-001	0.000000e+000	0.000000e+000	0.000000e+000	0.000000e+000
5002100210.021	0.000000e+000	0.000000e+000	-2.348808e-001	2.428340e-001	0.000000e+000	0.000000e+000	0.000000e+000	0.000000e+000
5002120212.021	0.000000e+000	0.000000e+000	-2.425181e-001	2.168654e-001	0.000000e+000	0.000000e+000	0.000000e+000	0.000000e+000
5002140214.021	0.000000e+000	0.000000e+000	-2.531306e-001	1.890257e-001	0.000000e+000	0.000000e+000	0.000000e+000	0.000000e+000
5002160216.022	0.000000e+000	0.000000e+000	-2.688211e-001	1.588613e-001	0.000000e+000	0.000000e+000	0.000000e+000	0.000000e+000
5002180218.022	0.000000e+000	0.000000e+000	-2.912551e-001	1.262852e-001	0.000000e+000	0.000000e+000	0.000000e+000	0.000000e+000
5002200220.022	0.000000e+000	0.000000e+000	-3.218818e-001	9.319142e-002	0.000000e+000	0.000000e+000	0.000000e+000	0.000000e+000
5002220222.022	0.000000e+000	0.000000e+000	-3.613925e-001	6.263408e-002	0.000000e+000	0.000000e+000	0.000000e+000	0.000000e+000
5002240224.022	0.000000e+000	0.000000e+000	-4.097474e-001	3.829449e-002	0.000000e+000	0.000000e+000	0.000000e+000	0.000000e+000
5002260226.023	0.000000e+000	0.000000e+000	-4.667294e-001	2.383838e-002	0.000000e+000	0.000000e+000	0.000000e+000	0.000000e+000
5002280228.023	0.000000e+000	0.000000e+000	-5.273506e-001	2.150208e-002	0.000000e+000	0.000000e+000	0.000000e+000	0.000000e+000
5002300230.023	0.000000e+000	0.000000e+000	-5.900711e-001	3.434235e-002	0.000000e+000	0.000000e+000	0.000000e+000	0.000000e+000
5002320232.023	0.000000e+000	0.000000e+000	-6.469915e-001	6.080124e-002	0.000000e+000	0.000000e+000	0.000000e+000	0.000000e+000
5002340234.023	0.000000e+000	0.000000e+000	-6.951834e-001	1.009314e-001	0.000000e+000	0.000000e+000	0.000000e+000	0.000000e+000
5002360236.024	0.000000e+000	0.000000e+000	-7.275172e-001	1.514828e-001	0.000000e+000	0.000000e+000	0.000000e+000	0.000000e+000
5002380238.024	0.000000e+000	0.000000e+000	-7.401428e-001	2.064292e-001	0.000000e+000	0.000000e+000	0.000000e+000	0.000000e+000
5002400240.024	0.000000e+000	0.000000e+000	-7.290440e-001	2.588386e-001	0.000000e+000	0.000000e+000	0.000000e+000	0.000000e+000
5002420242.024	0.000000e+000	0.000000e+000	-6.905501e-001	2.903852e-001	0.000000e+000	0.000000e+000	0.000000e+000	0.000000e+000
5002440244.024	0.000000e+000	0.000000e+000	-6.361394e-001	2.598547e-001	0.000000e+000	0.000000e+000	0.000000e+000	0.000000e+000
5002460246.025	0.000000e+000	0.000000e+000	-6.681412e-001	1.302973e-001	0.000000e+000	0.000000e+000	0.000000e+000	0.000000e+000
5002480248.025	0.000000e+000	0.000000e+000	-8.345199e-001	8.156189e-002	0.000000e+000	0.000000e+000	0.000000e+000	0.000000e+000
5002500250.025	0.000000e+000	0.000000e+000	-9.596880e-001	1.530780e-001	0.000000e+000	0.000000e+000	0.000000e+000	0.000000e+000
5002520252.025	0.000000e+000	0.000000e+000	-1.021711e+000	2.581497e-001	0.000000e+000	0.000000e+000	0.000000e+000	0.000000e+000
5002540254.025	0.000000e+000	0.000000e+000	-1.040701e+000	3.623474e-001	0.000000e+000	0.000000e+000	0.000000e+000	0.000000e+000
5002560256.026	0.000000e+000	0.000000e+000	-1.029558e+000	4.595184e-001	0.000000e+000	0.000000e+000	0.000000e+000	0.000000e+000
5002580258.026	0.000000e+000	0.000000e+000	-9.942389e-001	5.401830e-001	0.000000e+000	0.000000e+000	0.000000e+000	0.000000e+000
5002600260.026	0.000000e+000	0.000000e+000	-9.428374e-001	6.036431e-001	0.000000e+000	0.000000e+000	0.000000e+000	0.000000e+000
5002620262.026	0.000000e+000	0.000000e+000	-8.782919e-001	6.446745e-001	0.000000e+000	0.000000e+000	0.000000e+000	0.000000e+000
5002640264.026	0.000000e+000	0.000000e+000	-8.098990e-001	6.569877e-001	0.000000e+000	0.000000e+000	0.000000e+000	0.000000e+000
5002660266.027	0.000000e+000	0.000000e+000	-7.607490e-001	6.249374e-001	0.000000e+000	0.000000e+000	0.000000e+000	0.000000e+000
5002680268.027	0.000000e+000	0.000000e+000	-7.744714e-001	5.758461e-001	0.000000e+000	0.000000e+000	0.000000e+000	0.000000e+000
5002700270.027	0.000000e+000	0.000000e+000	-8.272732e-001	5.596450e-001	0.000000e+000	0.000000e+000	0.000000e+000	0.000000e+000
5002720272.027	0.000000e+000	0.000000e+000	-8.962942e-001	5.834472e-001	0.000000e+000	0.000000e+000	0.000000e+000	0.000000e+000
5002740274.027	0.000000e+000	0.000000e+000	-9.297952e-001	6.518419e-001	0.000000e+000	0.000000e+000	0.000000e+000	0.000000e+000
5002760276.028	0.000000e+000	0.000000e+000	-9.248954e-001	7.267355e-001	0.000000e+000	0.000000e+000	0.000000e+000	0.000000e+000
5002780278.028	0.000000e+000	0.000000e+000	-8.960617e-001	7.965568e-001	0.000000e+000	0.000000e+000	0.000000e+000	0.000000e+000
5002800280.028	0.000000e+000	0.000000e+000	-8.531626e-001	8.540683e-001	0.000000e+000	0.000000e+000	0.000000e+000	0.000000e+000
5002820282.028	0.000000e+000	0.000000e+000	-8.018216e-001	9.006993e-001	0.000000e+000	0.000000e+000	0.000000e+000	0.000000e+000
5002840284.028	0.000000e+000	0.000000e+000	-7.468168e-001	9.336110e-001	0.000000e+000	0.000000e+000	0.000000e+000	0.000000e+000
5002860286.029	0.000000e+000	0.000000e+000	-6.905532e-001	9.570227e-001	0.000000e+000	0.000000e+000	0.000000e+000	0.000000e+000
5002880288.029	0.000000e+000	0.000000e+000	-6.351209e-001	9.711952e-001	0.000000e+000	0.000000e+000	0.000000e+000	0.000000e+000
5002900290.029	0.000000e+000	0.000000e+000	-5.796884e-001	9.791631e-001	0.000000e+000	0.000000e+000	0.000000e+000	0.000000e+000
5002920292.029	0.000000e+000	0.000000e+000	-5.248574e-001	9.806341e-001	0.000000e+000	0.000000e+000	0.000000e+000	0.000000e+000
5002940294.029	0.000000e+000	0.000000e+000	-4.713368e-001	9.749604e-001	0.000000e+000	0.000000e+000	0.000000e+000	0.000000e+000
5002960296.030	0.000000e+000	0.000000e+000	-4.187545e-001	9.606572e-001	0.000000e+000	0.000000e+000	0.000000e+000	0.000000e+000
5002980298.030	0.000000e+000	0.000000e+000	-3.705524e-001	9.360910e-001	0.000000e+000	0.000000e+000	0.000000e+000	0.000000e+000
5003000300.030	0.000000e+000	0.000000e+000	-3.265181e-001	9.032070e-001	0.000000e+000	0.000000e+000	0.000000e+000	0.000000e+000
5003020302.030	0.000000e+000	0.000000e+000	-2.907161e-001	8.612587e-001	0.000000e+000	0.000000e+000	0.000000e+000	0.000000e+000
5003040304.030	0.000000e+000	0.000000e+000	-2.652088e-001	8.136608e-001	0.000000e+000	0.000000e+000	0.000000e+000	0.000000e+000
