!Keysight Technologies,E5063A,MY54502693,A.05.04
!Date: Mon Oct 12 06:33:48 2020
!Data & Calibration Information:
!Freq	S11:NONE(--)	S21:NONE(--)	S12:NONE(--)	S22:NONE(--)
# Hz S RI R 50
4000000000.000	0.000000e+000	0.000000e+000	1.948295e-001	-1.932677e+000	0.000000e+000	0.000000e+000	0.000000e+000	0.000000e+000
4000400040.004	0.000000e+000	0.000000e+000	-1.254389e-001	-1.937094e+000	0.000000e+000	0.000000e+000	0.000000e+000	0.000000e+000
4000800080.008	0.000000e+000	0.000000e+000	-4.365811e-001	-1.883562e+000	0.000000e+000	0.000000e+000	0.000000e+000	0.000000e+000
4001200120.012	0.000000e+000	0.000000e+000	-7.500910e-001	-1.789665e+000	0.000000e+000	0.000000e+000	0.000000e+000	0.000000e+000
4001600160.016	0.000000e+000	0.000000e+000	-1.030625e+000	-1.637839e+000	0.000000e+000	0.000000e+000	0.000000e+000	0.000000e+000
4002000200.020	0.000000e+000	0.000000e+000	-1.288514e+000	-1.443535e+000	0.000000e+000	0.000000e+000	0.000000e+000	0.000000e+000
4002400240.024	0.000000e+000	0.000000e+000	-1.521950e+000	-1.208489e+000	0.000000e+000	0.000000e+000	0.000000e+000	0.000000e+000
4002800280.028	0.000000e+000	0.000000e+000	-1.693426e+000	-9.386306e-001	0.000000e+000	0.000000e+000	0.000000e+000	0.000000e+000
4003200320.032	0.000000e+000	0.000000e+000	-1.827472e+000	-6.422843e-001	0.000000e+000	0.000000e+000	0.000000e+000	0.000000e+000
4003600360.036	0.000000e+000	0.000000e+000	-1.906562e+000	-3.287592e-001	0.000000e+000	0.000000e+000	0.000000e+000	0.000000e+000
4004000400.040	0.000000e+000	0.000000e+000	-1.919653e+000	-1.631942e-002	0.000000e+000	0.000000e+000	0.000000e+000	0.000000e+000
4004400440.044	0.000000e+000	0.000000e+000	-1.891575e+000	3.019544e-001	0.000000e+000	0.000000e+000	0.000000e+000	0.000000e+000
4004800480.048	0.000000e+000	0.000000e+000	-1.811079e+000	6.098463e-001	0.000000e+000	0.000000e+000	0.000000e+000	0.000000e+000
4005200520.052	0.000000e+000	0.000000e+000	-1.676857e+000	8.908903e-001	0.000000e+000	0.000000e+000	0.000000e+000	0.000000e+000
4005600560.056	0.000000e+000	0.000000e+000	-1.503476e+000	1.158543e+000	0.000000e+000	0.000000e+000	0.000000e+000	0.000000e+000
4006000600.060	0.000000e+000	0.000000e+000	-1.288234e+000	1.390699e+000	0.000000e+000	0.000000e+000	0.000000e+000	0.000000e+000
4006400640.064	0.000000e+000	0.000000e+000	-1.037783e+000	1.570995e+000	0.000000e+000	0.000000e+000	0.000000e+000	0.000000e+000
4006800680.068	0.000000e+000	0.000000e+000	-7.612696e-001	1.718141e+000	0.000000e+000	0.000000e+000	0.000000e+000	0.000000e+000
4007200720.072	0.000000e+000	0.000000e+000	-4.682303e-001	1.809071e+000	0.000000e+000	0.000000e+000	0.000000e+000	0.000000e+000
4007600760.076	0.000000e+000	0.000000e+000	-1.723917e-001	1.840942e+000	0.000000e+000	0.000000e+000	0.000000e+000	0.000000e+000
4008000800.080	0.000000e+000	0.000000e+000	1.344661e-001	1.840833e+000	0.000000e+000	0.000000e+000	0.000000e+000	0.000000e+000
4008400840.084	0.000000e+000	0.000000e+000	4.267478e-001	1.781703e+000	0.000000e+000	0.000000e+000	0.000000e+000	0.000000e+000
4008800880.088	0.000000e+000	0.000000e+000	7.058946e-001	1.678837e+000	0.000000e+000	0.000000e+000	0.000000e+000	0.000000e+000
4009200920.092	0.000000e+000	0.000000e+000	9.754146e-001	1.538328e+000	0.000000e+000	0.000000e+000	0.000000e+000	0.000000e+000
4009600960.096	0.000000e+000	0.000000e+000	1.201189e+000	1.351327e+000	0.000000e+000	0.000000e+000	0.000000e+000	0.000000e+000
4010001000.100	0.000000e+000	0.000000e+000	1.397910e+000	1.132677e+000	0.000000e+000	0.000000e+000	0.000000e+000	0.000000e+000
4010401040.104	0.000000e+000	0.000000e+000	1.558379e+000	8.857634e-001	0.000000e+000	0.000000e+000	0.000000e+000	0.000000e+000
4010801080.108	0.000000e+000	0.000000e+000	1.662695e+000	6.210075e-001	0.000000e+000	0.000000e+000	0.000000e+000	0.000000e+000
4011201120.112	0.000000e+000	0.000000e+000	1.729728e+000	3.429116e-001	0.000000e+000	0.000000e+000	0.000000e+000	0.000000e+000
4011601160.116	0.000000e+000	0.000000e+000	1.755091e+000	5.741958e-002	0.000000e+000	0.000000e+000	0.000000e+000	0.000000e+000
4012001200.120	0.000000e+000	0.000000e+000	1.724290e+000	-2.188453e-001	0.000000e+000	0.000000e+000	0.000000e+000	0.000000e+000
4012401240.124	0.000000e+000	0.000000e+000	1.659739e+000	-4.939201e-001	0.000000e+000	0.000000e+000	0.000000e+000	0.000000e+000
4012801280.128	0.000000e+000	0.000000e+000	1.553290e+000	-7.549700e-001	0.000000e+000	0.000000e+000	0.000000e+000	0.000000e+000
4013201320.132	0.000000e+000	0.000000e+000	1.401420e+000	-9.801606e-001	0.000000e+000	0.000000e+000	0.000000e+000	0.000000e+000
4013601360.136	0.000000e+000	0.000000e+000	1.220611e+000	-1.190374e+000	0.000000e+000	0.000000e+000	0.000000e+000	0.000000e+000
4014001400.140	0.000000e+000	0.000000e+000	1.009399e+000	-1.361237e+000	0.000000e+000	0.000000e+000	0.000000e+000	0.000000e+000
4014401440.144	0.000000e+000	0.000000e+000	7.765025e-001	-1.483543e+000	0.000000e+000	0.000000e+000	0.000000e+000	0.000000e+000
4014801480.148	0.000000e+000	0.000000e+000	5.257968e-001	-1.585305e+000	0.000000e+000	0.000000e+000	0.000000e+000	0.000000e+000
4015201520.152	0.000000e+000	0.000000e+000	2.668295e-001	-1.636681e+000	0.000000e+000	0.000000e+000	0.000000e+000	0.000000e+000
4015601560.156	0.000000e+000	0.000000e+000	6.493982e-003	-1.644346e+000	0.000000e+000	0.000000e+000	0.000000e+000	0.000000e+000
4016001600.160	0.000000e+000	0.000000e+000	-2.587640e-001	-1.621837e+000	0.000000e+000	0.000000e+000	0.000000e+000	0.000000e+000
4016401640.164	0.000000e+000	0.000000e+000	-5.061016e-001	-1.549745e+000	0.000000e+000	0.000000e+000	0.000000e+000	0.000000e+000
4016801680.168	0.000000e+000	0.000000e+000	-7.401234e-001	-1.441775e+000	0.000000e+000	0.000000e+000	0.000000e+000	0.000000e+000
4017201720.172	0.000000e+000	0.000000e+000	-9.574871e-001	-1.301615e+000	0.000000e+000	0.000000e+000	0.000000e+000	0.000000e+000
4017601760.176	0.000000e+000	0.000000e+000	-1.137702e+000	-1.127387e+000	0.000000e+000	0.000000e+000	0.000000e+000	0.000000e+000
4018001800.180	0.000000e+000	0.000000e+000	-1.288962e+000	-9.290988e-001	0.000000e+000	0.000000e+000	0.000000e+000	0.000000e+000
4018401840.184	0.000000e+000	0.000000e+000	-1.417259e+000	-7.109411e-001	0.000000e+000	0.000000e+000	0.000000e+000	0.000000e+000
4018801880.188	0.000000e+000	0.000000e+000	-1.496484e+000	-4.797820e-001	0.000000e+000	0.000000e+000	0.000000e+000	0.000000e+000
4019201920.192	0.000000e+000	0.000000e+000	-1.547948e+000	-2.374619e-001	0.000000e+000	0.000000e+000	0.000000e+000	0.000000e+000
4019601960.196	0.000000e+000	0.000000e+000	-1.565460e+000	1.216730e-002	0.000000e+000	0.000000e+000	0.000000e+000	0.000000e+000
4020002000.200	0.000000e+000	0.000000e+000	-1.531399e+000	2.494502e-001	0.000000e+000	0.000000e+000	0.000000e+000	0.000000e+000
4020402040.204	0.000000e+000	0.000000e+000	-1.470508e+000	4.872277e-001	0.000000e+000	0.000000e+000	0.000000e+000	0.000000e+000
4020802080.208	0.000000e+000	0.000000e+000	-1.371509e+000	7.086401e-001	0.000000e+000	0.000000e+000	0.000000e+000	0.000000e+000
4021202120.212	0.000000e+000	0.000000e+000	-1.235952e+000	8.996813e-001	0.000000e+000	0.000000e+000	0.000000e+000	0.000000e+000
4021602160.216	0.000000e+000	0.000000e+000	-1.077421e+000	1.081899e+000	0.000000e+000	0.000000e+000	0.000000e+000	0.000000e+000
4022002200.220	0.000000e+000	0.000000e+000	-8.926913e-001	1.231041e+000	0.000000e+000	0.000000e+000	0.000000e+000	0.000000e+000
4022402240.224	0.000000e+000	0.000000e+000	-6.882221e-001	1.345030e+000	0.000000e+000	0.000000e+000	0.000000e+000	0.000000e+000
4022802280.228	0.000000e+000	0.000000e+000	-4.670847e-001	1.438372e+000	0.000000e+000	0.000000e+000	0.000000e+000	0.000000e+000
4023202320.232	0.000000e+000	0.000000e+000	-2.365699e-001	1.489099e+000	0.000000e+000	0.000000e+000	0.000000e+000	0.000000e+000
4023602360.236	0.000000e+000	0.000000e+000	-4.057053e-003	1.499972e+000	0.000000e+000	0.000000e+000	0.000000e+000	0.000000e+000
4024002400.240	0.000000e+000	0.000000e+000	2.319300e-001	1.481619e+000	0.000000e+000	0.000000e+000	0.000000e+000	0.000000e+000
4024402440.244	0.000000e+000	0.000000e+000	4.545725e-001	1.421158e+000	0.000000e+000	0.000000e+000	0.000000e+000	0.000000e+000
4024802480.248	0.000000e+000	0.000000e+000	6.605942e-001	1.326233e+000	0.000000e+000	0.000000e+000	0.000000e+000	0.000000e+000
4025202520.252	0.000000e+000	0.000000e+000	8.629400e-001	1.207439e+000	0.000000e+000	0.000000e+000	0.000000e+000	0.000000e+000
4025602560.256	0.000000e+000	0.000000e+000	1.032166e+000	1.056101e+000	0.000000e+000	0.000000e+000	0.000000e+000	0.000000e+000
4026002600.260	0.000000e+000	0.000000e+000	1.181860e+000	8.815930e-001	0.000000e+000	0.000000e+000	0.000000e+000	0.000000e+000
4026402640.264	0.000000e+000	0.000000e+000	1.311277e+000	6.845873e-001	0.000000e+000	0.000000e+000	0.000000e+000	0.000000e+000
4026802680.268	0.000000e+000	0.000000e+000	1.392514e+000	4.734196e-001	0.000000e+000	0.000000e+000	0.000000e+000	0.000000e+000
4027202720.272	0.000000e+000	0.000000e+000	1.448903e+000	2.496112e-001	0.000000e+000	0.000000e+000	0.000000e+000	0.000000e+000
4027602760.276	0.000000e+000	0.000000e+000	1.469733e+000	2.015898e-002	0.000000e+000	0.000000e+000	0.000000e+000	0.000000e+000
4028002800.280	0.000000e+000	0.000000e+000	1.445717e+000	-2.010829e-001	0.000000e+000	0.000000e+000	0.000000e+000	0.000000e+000
4028402840.284	0.000000e+000	0.000000e+000	1.396921e+000	-4.239441e-001	0.000000e+000	0.000000e+000	0.000000e+000	0.000000e+000
4028802880.288	0.000000e+000	0.000000e+000	1.313638e+000	-6.353842e-001	0.000000e+000	0.000000e+000	0.000000e+000	0.000000e+000
4029202920.292	0.000000e+000	0.000000e+000	1.196462e+000	-8.240124e-001	0.000000e+000	0.000000e+000	0.000000e+000	0.000000e+000
4029602960.296	0.000000e+000	0.000000e+000	1.054427e+000	-1.004649e+000	0.000000e+000	0.000000e+000	0.000000e+000	0.000000e+000
4030003000.300	0.000000e+000	0.000000e+000	8.856784e-001	-1.158732e+000	0.000000e+000	0.000000e+000	0.000000e+000	0.000000e+000
4030403040.304	0.000000e+000	0.000000e+000	6.955567e-001	-1.276314e+000	0.000000e+000	0.000000e+000	0.000000e+000	0.000000e+000
4030803080.308	0.000000e+000	0.000000e+000	4.872179e-001	-1.373811e+000	0.000000e+000	0.000000e+000	0.000000e+000	0.000000e+000
4031203120.312	0.000000e+000	0.000000e+000	2.692919e-001	-1.431156e+000	0.000000e+000	0.000000e+000	0.000000e+000	0.000000e+000
4031603160.316	0.000000e+000	0.000000e+000	4.932204e-002	-1.447897e+000	0.000000e+000	0.000000e+000	0.000000e+000	0.000000e+000
4032003200.320	0.000000e+000	0.000000e+000	-1.810574e-001	-1.443726e+000	0.000000e+000	0.000000e+000	0.000000e+000	0.000000e+000
4032403240.324	0.000000e+000	0.000000e+000	-4.000113e-001	-1.396079e+000	0.000000e+000	0.000000e+000	0.000000e+000	0.000000e+000
4032803280.328	0.000000e+000	0.000000e+000	-6.108611e-001	-1.316695e+000	0.000000e+000	0.000000e+000	0.000000e+000	0.000000e+000
4033203320.332	0.000000e+000	0.000000e+000	-8.173310e-001	-1.210060e+000	0.000000e+000	0.000000e+000	0.000000e+000	0.000000e+000
4033603360.336	0.000000e+000	0.000000e+000	-9.919854e-001	-1.068030e+000	0.000000e+000	0.000000e+000	0.000000e+000	0.000000e+000
4034003400.340	0.000000e+000	0.000000e+000	-1.148237e+000	-9.012351e-001	0.000000e+000	0.000000e+000	0.000000e+000	0.000000e+000
4034403440.344	0.000000e+000	0.000000e+000	-1.279969e+000	-7.112860e-001	0.000000e+000	0.000000e+000	0.000000e+000	0.000000e+000
4034803480.348	0.000000e+000	0.000000e+000	-1.369983e+000	-5.053597e-001	0.000000e+000	0.000000e+000	0.000000e+000	0.000000e+000
4035203520.352	0.000000e+000	0.000000e+000	-1.432873e+000	-2.856752e-001	0.000000e+000	0.000000e+000	0.000000e+000	0.000000e+000
4035603560.356	0.000000e+000	0.000000e+000	-1.464317e+000	-5.576139e-002	0.000000e+000	0.000000e+000	0.000000e+000	0.000000e+000
4036003600.360	0.000000e+000	0.000000e+000	-1.451877e+000	1.698563e-001	0.000000e+000	0.000000e+000	0.000000e+000	0.000000e+000
4036403640.364	0.000000e+000	0.000000e+000	-1.411565e+000	3.990438e-001	0.000000e+000	0.000000e+000	0.000000e+000	0.000000e+000
4036803680.368	0.000000e+000	0.000000e+000	-1.336166e+000	6.220705e-001	0.000000e+000	0.000000e+000	0.000000e+000	0.000000e+000
4037203720.372	0.000000e+000	0.000000e+000	-1.220891e+000	8.176748e-001	0.000000e+000	0.000000e+000	0.000000e+000	0.000000e+000
4037603760.376	0.000000e+000	0.000000e+000	-1.079890e+000	1.005181e+000	0.000000e+000	0.000000e+000	0.000000e+000	0.000000e+000
4038003800.380	0.000000e+000	0.000000e+000	-9.096275e-001	1.163660e+000	0.000000e+000	0.000000e+000	0.000000e+000	0.000000e+000
4038403840.384	0.000000e+000	0.000000e+000	-7.176912e-001	1.283598e+000	0.000000e+000	0.000000e+000	0.000000e+000	0.000000e+000
4038803880.388	0.000000e+000	0.000000e+000	-5.059744e-001	1.388787e+000	0.000000e+000	0.000000e+000	0.000000e+000	0.000000e+000
4039203920.392	0.000000e+000	0.000000e+000	-2.831895e-001	1.450090e+000	0.000000e+000	0.000000e+000	0.000000e+000	0.000000e+000
4039603960.396	0.000000e+000	0.000000e+000	-5.381833e-002	1.475769e+000	0.000000e+000	0.000000e+000	0.000000e+000	0.000000e+000
4040004000.400	0.000000e+000	0.000000e+000	1.856649e-001	1.473986e+000	0.000000e+000	0.000000e+000	0.000000e+000	0.000000e+000
4040404040.404	0.000000e+000	0.000000e+000	4.137358e-001	1.426648e+000	0.000000e+000	0.000000e+000	0.000000e+000	0.000000e+000
4040804080.408	0.000000e+000	0.000000e+000	6.336933e-001	1.345395e+000	0.000000e+000	0.000000e+000	0.000000e+000	0.000000e+000
4041204120.412	0.000000e+000	0.000000e+000	8.438284e-001	1.231478e+000	0.000000e+000	0.000000e+000	0.000000e+000	0.000000e+000
4041604160.416	0.000000e+000	0.000000e+000	1.023667e+000	1.083408e+000	0.000000e+000	0.000000e+000	0.000000e+000	0.000000e+000
4042004200.420	0.000000e+000	0.000000e+000	1.179472e+000	9.092031e-001	0.000000e+000	0.000000e+000	0.000000e+000	0.000000e+000
4042404240.424	0.000000e+000	0.000000e+000	1.314856e+000	7.115903e-001	0.000000e+000	0.000000e+000	0.000000e+000	0.000000e+000
4042804280.428	0.000000e+000	0.000000e+000	1.406479e+000	4.972807e-001	0.000000e+000	0.000000e+000	0.000000e+000	0.000000e+000
4043204320.432	0.000000e+000	0.000000e+000	1.471162e+000	2.679078e-001	0.000000e+000	0.000000e+000	0.000000e+000	0.000000e+000
4043604360.436	0.000000e+000	0.000000e+000	1.502943e+000	2.706152e-002	0.000000e+000	0.000000e+000	0.000000e+000	0.000000e+000
4044004400.440	0.000000e+000	0.000000e+000	1.485054e+000	-2.063896e-001	0.000000e+000	0.000000e+000	0.000000e+000	0.000000e+000
4044404440.444	0.000000e+000	0.000000e+000	1.438122e+000	-4.430095e-001	0.000000e+000	0.000000e+000	0.000000e+000	0.000000e+000
4044804480.448	0.000000e+000	0.000000e+000	1.351783e+000	-6.668240e-001	0.000000e+000	0.000000e+000	0.000000e+000	0.000000e+000
4045204520.452	0.000000e+000	0.000000e+000	1.227115e+000	-8.633032e-001	0.000000e+000	0.000000e+000	0.000000e+000	0.000000e+000
4045604560.456	0.000000e+000	0.000000e+000	1.076595e+000	-1.052784e+000	0.000000e+000	0.000000e+000	0.000000e+000	0.000000e+000
4046004600.460	0.000000e+000	0.000000e+000	8.966135e-001	-1.210883e+000	0.000000e+000	0.000000e+000	0.000000e+000	0.000000e+000
4046404640.464	0.000000e+000	0.000000e+000	6.953016e-001	-1.333363e+000	0.000000e+000	0.000000e+000	0.000000e+000	0.000000e+000
4046804680.468	0.000000e+000	0.000000e+000	4.726835e-001	-1.435115e+000	0.000000e+000	0.000000e+000	0.000000e+000	0.000000e+000
4047204720.472	0.000000e+000	0.000000e+000	2.393242e-001	-1.493347e+000	0.000000e+000	0.000000e+000	0.000000e+000	0.000000e+000
4047604760.476	0.000000e+000	0.000000e+000	1.753829e-003	-1.510230e+000	0.000000e+000	0.000000e+000	0.000000e+000	0.000000e+000
4048004800.480	0.000000e+000	0.000000e+000	-2.416148e-001	-1.495955e+000	0.000000e+000	0.000000e+000	0.000000e+000	0.000000e+000
4048404840.484	0.000000e+000	0.000000e+000	-4.735084e-001	-1.437601e+000	0.000000e+000	0.000000e+000	0.000000e+000	0.000000e+000
4048804880.488	0.000000e+000	0.000000e+000	-6.892902e-001	-1.342247e+000	0.000000e+000	0.000000e+000	0.000000e+000	0.000000e+000
4049204920.492	0.000000e+000	0.000000e+000	-9.004582e-001	-1.218468e+000	0.000000e+000	0.000000e+000	0.000000e+000	0.000000e+000
4049604960.496	0.000000e+000	0.000000e+000	-1.077466e+000	-1.059980e+000	0.000000e+000	0.000000e+000	0.000000e+000	0.000000e+000
4050005000.500	0.000000e+000	0.000000e+000	-1.232827e+000	-8.761533e-001	0.000000e+000	0.000000e+000	0.000000e+000	0.000000e+000
4050405040.504	0.000000e+000	0.000000e+000	-1.365151e+000	-6.683161e-001	0.000000e+000	0.000000e+000	0.000000e+000	0.000000e+000
4050805080.508	0.000000e+000	0.000000e+000	-1.448503e+000	-4.455515e-001	0.000000e+000	0.000000e+000	0.000000e+000	0.000000e+000
4051205120.512	0.000000e+000	0.000000e+000	-1.504707e+000	-2.084523e-001	0.000000e+000	0.000000e+000	0.000000e+000	0.000000e+000
4051605160.516	0.000000e+000	0.000000e+000	-1.521625e+000	3.478976e-002	0.000000e+000	0.000000e+000	0.000000e+000	0.000000e+000
4052005200.520	0.000000e+000	0.000000e+000	-1.491212e+000	2.693618e-001	0.000000e+000	0.000000e+000	0.000000e+000	0.000000e+000
4052405240.524	0.000000e+000	0.000000e+000	-1.431613e+000	5.049155e-001	0.000000e+000	0.000000e+000	0.000000e+000	0.000000e+000
4052805280.528	0.000000e+000	0.000000e+000	-1.334163e+000	7.267618e-001	0.000000e+000	0.000000e+000	0.000000e+000	0.000000e+000
4053205320.532	0.000000e+000	0.000000e+000	-1.200335e+000	9.233083e-001	0.000000e+000	0.000000e+000	0.000000e+000	0.000000e+000
4053605360.536	0.000000e+000	0.000000e+000	-1.039980e+000	1.108977e+000	0.000000e+000	0.000000e+000	0.000000e+000	0.000000e+000
4054005400.540	0.000000e+000	0.000000e+000	-8.509414e-001	1.263098e+000	0.000000e+000	0.000000e+000	0.000000e+000	0.000000e+000
4054405440.544	0.000000e+000	0.000000e+000	-6.409677e-001	1.376642e+000	0.000000e+000	0.000000e+000	0.000000e+000	0.000000e+000
4054805480.548	0.000000e+000	0.000000e+000	-4.129879e-001	1.466090e+000	0.000000e+000	0.000000e+000	0.000000e+000	0.000000e+000
4055205520.552	0.000000e+000	0.000000e+000	-1.761067e-001	1.512059e+000	0.000000e+000	0.000000e+000	0.000000e+000	0.000000e+000
4055605560.556	0.000000e+000	0.000000e+000	5.968601e-002	1.513673e+000	0.000000e+000	0.000000e+000	0.000000e+000	0.000000e+000
4056005600.560	0.000000e+000	0.000000e+000	3.045779e-001	1.490379e+000	0.000000e+000	0.000000e+000	0.000000e+000	0.000000e+000
4056405640.564	0.000000e+000	0.000000e+000	5.337182e-001	1.421618e+000	0.000000e+000	0.000000e+000	0.000000e+000	0.000000e+000
4056805680.568	0.000000e+000	0.000000e+000	7.506274e-001	1.318443e+000	0.000000e+000	0.000000e+000	0.000000e+000	0.000000e+000
4057205720.572	0.000000e+000	0.000000e+000	9.583080e-001	1.185610e+000	0.000000e+000	0.000000e+000	0.000000e+000	0.000000e+000
4057605760.576	0.000000e+000	0.000000e+000	1.129448e+000	1.018322e+000	0.000000e+000	0.000000e+000	0.000000e+000	0.000000e+000
4058005800.580	0.000000e+000	0.000000e+000	1.278609e+000	8.270424e-001	0.000000e+000	0.000000e+000	0.000000e+000	0.000000e+000
4058405840.584	0.000000e+000	0.000000e+000	1.398141e+000	6.134618e-001	0.000000e+000	0.000000e+000	0.000000e+000	0.000000e+000
4058805880.588	0.000000e+000	0.000000e+000	1.471547e+000	3.864421e-001	0.000000e+000	0.000000e+000	0.000000e+000	0.000000e+000
4059205920.592	0.000000e+000	0.000000e+000	1.514258e+000	1.485787e-001	0.000000e+000	0.000000e+000	0.000000e+000	0.000000e+000
4059605960.596	0.000000e+000	0.000000e+000	1.522218e+000	-9.572142e-002	0.000000e+000	0.000000e+000	0.000000e+000	0.000000e+000
4060006000.600	0.000000e+000	0.000000e+000	1.483277e+000	-3.307702e-001	0.000000e+000	0.000000e+000	0.000000e+000	0.000000e+000
4060406040.604	0.000000e+000	0.000000e+000	1.415010e+000	-5.656160e-001	0.000000e+000	0.000000e+000	0.000000e+000	0.000000e+000
4060806080.608	0.000000e+000	0.000000e+000	1.310380e+000	-7.892352e-001	0.000000e+000	0.000000e+000	0.000000e+000	0.000000e+000
