!Keysight Technologies,E5063A,MY54502693,A.05.04
!Date: Mon Oct 12 07:13:54 2020
!Data & Calibration Information:
!Freq	S11:NONE(--)	S21:NONE(--)	S12:NONE(--)	S22:NONE(--)
# Hz S RI R 50
5600000000.000	0.000000e+000	0.000000e+000	-5.262438e-001	-7.610075e-001	0.000000e+000	0.000000e+000	0.000000e+000	0.000000e+000
5600020002.000	0.000000e+000	0.000000e+000	-5.324145e-001	-7.566030e-001	0.000000e+000	0.000000e+000	0.000000e+000	0.000000e+000
5600040004.000	0.000000e+000	0.000000e+000	-5.389666e-001	-7.528534e-001	0.000000e+000	0.000000e+000	0.000000e+000	0.000000e+000
5600060006.001	0.000000e+000	0.000000e+000	-5.459368e-001	-7.487483e-001	0.000000e+000	0.000000e+000	0.000000e+000	0.000000e+000
5600080008.001	0.000000e+000	0.000000e+000	-5.513932e-001	-7.443397e-001	0.000000e+000	0.000000e+000	0.000000e+000	0.000000e+000
5600100010.001	0.000000e+000	0.000000e+000	-5.577353e-001	-7.401471e-001	0.000000e+000	0.000000e+000	0.000000e+000	0.000000e+000
5600120012.001	0.000000e+000	0.000000e+000	-5.627071e-001	-7.352516e-001	0.000000e+000	0.000000e+000	0.000000e+000	0.000000e+000
5600140014.001	0.000000e+000	0.000000e+000	-5.693796e-001	-7.312453e-001	0.000000e+000	0.000000e+000	0.000000e+000	0.000000e+000
5600160016.002	0.000000e+000	0.000000e+000	-5.748370e-001	-7.264637e-001	0.000000e+000	0.000000e+000	0.000000e+000	0.000000e+000
5600180018.002	0.000000e+000	0.000000e+000	-5.822888e-001	-7.223501e-001	0.000000e+000	0.000000e+000	0.000000e+000	0.000000e+000
5600200020.002	0.000000e+000	0.000000e+000	-5.880057e-001	-7.177507e-001	0.000000e+000	0.000000e+000	0.000000e+000	0.000000e+000
5600220022.002	0.000000e+000	0.000000e+000	-5.936447e-001	-7.129304e-001	0.000000e+000	0.000000e+000	0.000000e+000	0.000000e+000
5600240024.002	0.000000e+000	0.000000e+000	-5.983627e-001	-7.082063e-001	0.000000e+000	0.000000e+000	0.000000e+000	0.000000e+000
5600260026.003	0.000000e+000	0.000000e+000	-6.041969e-001	-7.033930e-001	0.000000e+000	0.000000e+000	0.000000e+000	0.000000e+000
5600280028.003	0.000000e+000	0.000000e+000	-6.107019e-001	-6.989505e-001	0.000000e+000	0.000000e+000	0.000000e+000	0.000000e+000
5600300030.003	0.000000e+000	0.000000e+000	-6.170454e-001	-6.940420e-001	0.000000e+000	0.000000e+000	0.000000e+000	0.000000e+000
5600320032.003	0.000000e+000	0.000000e+000	-6.232885e-001	-6.892235e-001	0.000000e+000	0.000000e+000	0.000000e+000	0.000000e+000
5600340034.003	0.000000e+000	0.000000e+000	-6.283192e-001	-6.842704e-001	0.000000e+000	0.000000e+000	0.000000e+000	0.000000e+000
5600360036.004	0.000000e+000	0.000000e+000	-6.335577e-001	-6.794216e-001	0.000000e+000	0.000000e+000	0.000000e+000	0.000000e+000
5600380038.004	0.000000e+000	0.000000e+000	-6.383948e-001	-6.740158e-001	0.000000e+000	0.000000e+000	0.000000e+000	0.000000e+000
5600400040.004	0.000000e+000	0.000000e+000	-6.446543e-001	-6.692385e-001	0.000000e+000	0.000000e+000	0.000000e+000	0.000000e+000
5600420042.004	0.000000e+000	0.000000e+000	-6.503650e-001	-6.641456e-001	0.000000e+000	0.000000e+000	0.000000e+000	0.000000e+000
5600440044.004	0.000000e+000	0.000000e+000	-6.570933e-001	-6.592223e-001	0.000000e+000	0.000000e+000	0.000000e+000	0.000000e+000
5600460046.005	0.000000e+000	0.000000e+000	-6.618865e-001	-6.538297e-001	0.000000e+000	0.000000e+000	0.000000e+000	0.000000e+000
5600480048.005	0.000000e+000	0.000000e+000	-6.668645e-001	-6.486599e-001	0.000000e+000	0.000000e+000	0.000000e+000	0.000000e+000
5600500050.005	0.000000e+000	0.000000e+000	-6.710796e-001	-6.431352e-001	0.000000e+000	0.000000e+000	0.000000e+000	0.000000e+000
5600520052.005	0.000000e+000	0.000000e+000	-6.765201e-001	-6.378586e-001	0.000000e+000	0.000000e+000	0.000000e+000	0.000000e+000
5600540054.005	0.000000e+000	0.000000e+000	-6.823976e-001	-6.327034e-001	0.000000e+000	0.000000e+000	0.000000e+000	0.000000e+000
5600560056.006	0.000000e+000	0.000000e+000	-6.885636e-001	-6.273530e-001	0.000000e+000	0.000000e+000	0.000000e+000	0.000000e+000
5600580058.006	0.000000e+000	0.000000e+000	-6.941534e-001	-6.221383e-001	0.000000e+000	0.000000e+000	0.000000e+000	0.000000e+000
5600600060.006	0.000000e+000	0.000000e+000	-6.986316e-001	-6.165303e-001	0.000000e+000	0.000000e+000	0.000000e+000	0.000000e+000
5600620062.006	0.000000e+000	0.000000e+000	-7.034763e-001	-6.108909e-001	0.000000e+000	0.000000e+000	0.000000e+000	0.000000e+000
5600640064.006	0.000000e+000	0.000000e+000	-7.074139e-001	-6.050684e-001	0.000000e+000	0.000000e+000	0.000000e+000	0.000000e+000
5600660066.007	0.000000e+000	0.000000e+000	-7.133334e-001	-5.995583e-001	0.000000e+000	0.000000e+000	0.000000e+000	0.000000e+000
5600680068.007	0.000000e+000	0.000000e+000	-7.183966e-001	-5.938368e-001	0.000000e+000	0.000000e+000	0.000000e+000	0.000000e+000
5600700070.007	0.000000e+000	0.000000e+000	-7.248235e-001	-5.882846e-001	0.000000e+000	0.000000e+000	0.000000e+000	0.000000e+000
5600720072.007	0.000000e+000	0.000000e+000	-7.292178e-001	-5.825340e-001	0.000000e+000	0.000000e+000	0.000000e+000	0.000000e+000
5600740074.007	0.000000e+000	0.000000e+000	-7.337400e-001	-5.767481e-001	0.000000e+000	0.000000e+000	0.000000e+000	0.000000e+000
5600760076.008	0.000000e+000	0.000000e+000	-7.373293e-001	-5.707661e-001	0.000000e+000	0.000000e+000	0.000000e+000	0.000000e+000
5600780078.008	0.000000e+000	0.000000e+000	-7.415265e-001	-5.647434e-001	0.000000e+000	0.000000e+000	0.000000e+000	0.000000e+000
5600800080.008	0.000000e+000	0.000000e+000	-7.474481e-001	-5.590502e-001	0.000000e+000	0.000000e+000	0.000000e+000	0.000000e+000
5600820082.008	0.000000e+000	0.000000e+000	-7.524172e-001	-5.531074e-001	0.000000e+000	0.000000e+000	0.000000e+000	0.000000e+000
5600840084.008	0.000000e+000	0.000000e+000	-7.580208e-001	-5.473346e-001	0.000000e+000	0.000000e+000	0.000000e+000	0.000000e+000
5600860086.009	0.000000e+000	0.000000e+000	-7.616683e-001	-5.409067e-001	0.000000e+000	0.000000e+000	0.000000e+000	0.000000e+000
5600880088.009	0.000000e+000	0.000000e+000	-7.658728e-001	-5.349451e-001	0.000000e+000	0.000000e+000	0.000000e+000	0.000000e+000
5600900090.009	0.000000e+000	0.000000e+000	-7.693885e-001	-5.288255e-001	0.000000e+000	0.000000e+000	0.000000e+000	0.000000e+000
5600920092.009	0.000000e+000	0.000000e+000	-7.745680e-001	-5.225876e-001	0.000000e+000	0.000000e+000	0.000000e+000	0.000000e+000
5600940094.009	0.000000e+000	0.000000e+000	-7.790527e-001	-5.165315e-001	0.000000e+000	0.000000e+000	0.000000e+000	0.000000e+000
5600960096.010	0.000000e+000	0.000000e+000	-7.846933e-001	-5.102039e-001	0.000000e+000	0.000000e+000	0.000000e+000	0.000000e+000
5600980098.010	0.000000e+000	0.000000e+000	-7.885606e-001	-5.038101e-001	0.000000e+000	0.000000e+000	0.000000e+000	0.000000e+000
5601000100.010	0.000000e+000	0.000000e+000	-7.924625e-001	-4.976378e-001	0.000000e+000	0.000000e+000	0.000000e+000	0.000000e+000
5601020102.010	0.000000e+000	0.000000e+000	-7.959307e-001	-4.912735e-001	0.000000e+000	0.000000e+000	0.000000e+000	0.000000e+000
5601040104.010	0.000000e+000	0.000000e+000	-7.997230e-001	-4.849895e-001	0.000000e+000	0.000000e+000	0.000000e+000	0.000000e+000
5601060106.011	0.000000e+000	0.000000e+000	-8.045174e-001	-4.785669e-001	0.000000e+000	0.000000e+000	0.000000e+000	0.000000e+000
5601080108.011	0.000000e+000	0.000000e+000	-8.088851e-001	-4.719111e-001	0.000000e+000	0.000000e+000	0.000000e+000	0.000000e+000
5601100110.011	0.000000e+000	0.000000e+000	-8.136912e-001	-4.652228e-001	0.000000e+000	0.000000e+000	0.000000e+000	0.000000e+000
5601120112.011	0.000000e+000	0.000000e+000	-8.167112e-001	-4.588972e-001	0.000000e+000	0.000000e+000	0.000000e+000	0.000000e+000
5601140114.011	0.000000e+000	0.000000e+000	-8.204995e-001	-4.521605e-001	0.000000e+000	0.000000e+000	0.000000e+000	0.000000e+000
5601160116.012	0.000000e+000	0.000000e+000	-8.232046e-001	-4.459650e-001	0.000000e+000	0.000000e+000	0.000000e+000	0.000000e+000
5601180118.012	0.000000e+000	0.000000e+000	-8.277585e-001	-4.393483e-001	0.000000e+000	0.000000e+000	0.000000e+000	0.000000e+000
5601200120.012	0.000000e+000	0.000000e+000	-8.317371e-001	-4.324415e-001	0.000000e+000	0.000000e+000	0.000000e+000	0.000000e+000
5601220122.012	0.000000e+000	0.000000e+000	-8.365771e-001	-4.256397e-001	0.000000e+000	0.000000e+000	0.000000e+000	0.000000e+000
5601240124.012	0.000000e+000	0.000000e+000	-8.397340e-001	-4.190018e-001	0.000000e+000	0.000000e+000	0.000000e+000	0.000000e+000
5601260126.013	0.000000e+000	0.000000e+000	-8.429533e-001	-4.121866e-001	0.000000e+000	0.000000e+000	0.000000e+000	0.000000e+000
5601280128.013	0.000000e+000	0.000000e+000	-8.456895e-001	-4.057440e-001	0.000000e+000	0.000000e+000	0.000000e+000	0.000000e+000
5601300130.013	0.000000e+000	0.000000e+000	-8.486046e-001	-3.989315e-001	0.000000e+000	0.000000e+000	0.000000e+000	0.000000e+000
5601320132.013	0.000000e+000	0.000000e+000	-8.529871e-001	-3.919914e-001	0.000000e+000	0.000000e+000	0.000000e+000	0.000000e+000
5601340134.013	0.000000e+000	0.000000e+000	-8.565280e-001	-3.849010e-001	0.000000e+000	0.000000e+000	0.000000e+000	0.000000e+000
5601360136.014	0.000000e+000	0.000000e+000	-8.609300e-001	-3.780216e-001	0.000000e+000	0.000000e+000	0.000000e+000	0.000000e+000
5601380138.014	0.000000e+000	0.000000e+000	-8.631352e-001	-3.712594e-001	0.000000e+000	0.000000e+000	0.000000e+000	0.000000e+000
5601400140.014	0.000000e+000	0.000000e+000	-8.661389e-001	-3.645691e-001	0.000000e+000	0.000000e+000	0.000000e+000	0.000000e+000
5601420142.014	0.000000e+000	0.000000e+000	-8.679916e-001	-3.577268e-001	0.000000e+000	0.000000e+000	0.000000e+000	0.000000e+000
5601440144.014	0.000000e+000	0.000000e+000	-8.719292e-001	-3.504398e-001	0.000000e+000	0.000000e+000	0.000000e+000	0.000000e+000
5601460146.015	0.000000e+000	0.000000e+000	-8.752243e-001	-3.432423e-001	0.000000e+000	0.000000e+000	0.000000e+000	0.000000e+000
5601480148.015	0.000000e+000	0.000000e+000	-8.788165e-001	-3.359743e-001	0.000000e+000	0.000000e+000	0.000000e+000	0.000000e+000
5601500150.015	0.000000e+000	0.000000e+000	-8.816383e-001	-3.288804e-001	0.000000e+000	0.000000e+000	0.000000e+000	0.000000e+000
5601520152.015	0.000000e+000	0.000000e+000	-8.843767e-001	-3.221274e-001	0.000000e+000	0.000000e+000	0.000000e+000	0.000000e+000
5601540154.015	0.000000e+000	0.000000e+000	-8.862332e-001	-3.149822e-001	0.000000e+000	0.000000e+000	0.000000e+000	0.000000e+000
5601560156.016	0.000000e+000	0.000000e+000	-8.884232e-001	-3.080575e-001	0.000000e+000	0.000000e+000	0.000000e+000	0.000000e+000
5601580158.016	0.000000e+000	0.000000e+000	-8.919323e-001	-3.006689e-001	0.000000e+000	0.000000e+000	0.000000e+000	0.000000e+000
5601600160.016	0.000000e+000	0.000000e+000	-8.947661e-001	-2.933874e-001	0.000000e+000	0.000000e+000	0.000000e+000	0.000000e+000
5601620162.016	0.000000e+000	0.000000e+000	-8.985787e-001	-2.856566e-001	0.000000e+000	0.000000e+000	0.000000e+000	0.000000e+000
5601640164.016	0.000000e+000	0.000000e+000	-9.000494e-001	-2.787185e-001	0.000000e+000	0.000000e+000	0.000000e+000	0.000000e+000
5601660166.017	0.000000e+000	0.000000e+000	-9.022061e-001	-2.715835e-001	0.000000e+000	0.000000e+000	0.000000e+000	0.000000e+000
5601680168.017	0.000000e+000	0.000000e+000	-9.033179e-001	-2.646153e-001	0.000000e+000	0.000000e+000	0.000000e+000	0.000000e+000
5601700170.017	0.000000e+000	0.000000e+000	-9.062884e-001	-2.572635e-001	0.000000e+000	0.000000e+000	0.000000e+000	0.000000e+000
5601720172.017	0.000000e+000	0.000000e+000	-9.086055e-001	-2.495580e-001	0.000000e+000	0.000000e+000	0.000000e+000	0.000000e+000
5601740174.017	0.000000e+000	0.000000e+000	-9.117398e-001	-2.420052e-001	0.000000e+000	0.000000e+000	0.000000e+000	0.000000e+000
5601760176.018	0.000000e+000	0.000000e+000	-9.138361e-001	-2.348446e-001	0.000000e+000	0.000000e+000	0.000000e+000	0.000000e+000
5601780178.018	0.000000e+000	0.000000e+000	-9.158127e-001	-2.273117e-001	0.000000e+000	0.000000e+000	0.000000e+000	0.000000e+000
5601800180.018	0.000000e+000	0.000000e+000	-9.175288e-001	-2.199031e-001	0.000000e+000	0.000000e+000	0.000000e+000	0.000000e+000
5601820182.018	0.000000e+000	0.000000e+000	-9.184704e-001	-2.129236e-001	0.000000e+000	0.000000e+000	0.000000e+000	0.000000e+000
5601840184.018	0.000000e+000	0.000000e+000	-9.208878e-001	-2.053489e-001	0.000000e+000	0.000000e+000	0.000000e+000	0.000000e+000
5601860186.019	0.000000e+000	0.000000e+000	-9.223375e-001	-1.978179e-001	0.000000e+000	0.000000e+000	0.000000e+000	0.000000e+000
5601880188.019	0.000000e+000	0.000000e+000	-9.252578e-001	-1.900102e-001	0.000000e+000	0.000000e+000	0.000000e+000	0.000000e+000
5601900190.019	0.000000e+000	0.000000e+000	-9.268714e-001	-1.825163e-001	0.000000e+000	0.000000e+000	0.000000e+000	0.000000e+000
5601920192.019	0.000000e+000	0.000000e+000	-9.288571e-001	-1.748052e-001	0.000000e+000	0.000000e+000	0.000000e+000	0.000000e+000
5601940194.019	0.000000e+000	0.000000e+000	-9.293215e-001	-1.676889e-001	0.000000e+000	0.000000e+000	0.000000e+000	0.000000e+000
5601960196.020	0.000000e+000	0.000000e+000	-9.308412e-001	-1.602694e-001	0.000000e+000	0.000000e+000	0.000000e+000	0.000000e+000
5601980198.020	0.000000e+000	0.000000e+000	-9.324298e-001	-1.524478e-001	0.000000e+000	0.000000e+000	0.000000e+000	0.000000e+000
5602000200.020	0.000000e+000	0.000000e+000	-9.345175e-001	-1.443966e-001	0.000000e+000	0.000000e+000	0.000000e+000	0.000000e+000
5602020202.020	0.000000e+000	0.000000e+000	-9.362600e-001	-1.366259e-001	0.000000e+000	0.000000e+000	0.000000e+000	0.000000e+000
5602040204.020	0.000000e+000	0.000000e+000	-9.368429e-001	-1.293293e-001	0.000000e+000	0.000000e+000	0.000000e+000	0.000000e+000
5602060206.021	0.000000e+000	0.000000e+000	-9.374520e-001	-1.221655e-001	0.000000e+000	0.000000e+000	0.000000e+000	0.000000e+000
5602080208.021	0.000000e+000	0.000000e+000	-9.382195e-001	-1.148899e-001	0.000000e+000	0.000000e+000	0.000000e+000	0.000000e+000
5602100210.021	0.000000e+000	0.000000e+000	-9.397281e-001	-1.070342e-001	0.000000e+000	0.000000e+000	0.000000e+000	0.000000e+000
5602120212.021	0.000000e+000	0.000000e+000	-9.412351e-001	-9.897115e-002	0.000000e+000	0.000000e+000	0.000000e+000	0.000000e+000
5602140214.021	0.000000e+000	0.000000e+000	-9.431910e-001	-9.073424e-002	0.000000e+000	0.000000e+000	0.000000e+000	0.000000e+000
5602160216.022	0.000000e+000	0.000000e+000	-9.433789e-001	-8.348953e-002	0.000000e+000	0.000000e+000	0.000000e+000	0.000000e+000
5602180218.022	0.000000e+000	0.000000e+000	-9.440072e-001	-7.580813e-002	0.000000e+000	0.000000e+000	0.000000e+000	0.000000e+000
5602200220.022	0.000000e+000	0.000000e+000	-9.438979e-001	-6.873468e-002	0.000000e+000	0.000000e+000	0.000000e+000	0.000000e+000
5602220222.022	0.000000e+000	0.000000e+000	-9.450588e-001	-6.083059e-002	0.000000e+000	0.000000e+000	0.000000e+000	0.000000e+000
5602240224.022	0.000000e+000	0.000000e+000	-9.457188e-001	-5.302812e-002	0.000000e+000	0.000000e+000	0.000000e+000	0.000000e+000
5602260226.023	0.000000e+000	0.000000e+000	-9.468787e-001	-4.490091e-002	0.000000e+000	0.000000e+000	0.000000e+000	0.000000e+000
5602280228.023	0.000000e+000	0.000000e+000	-9.477072e-001	-3.704339e-002	0.000000e+000	0.000000e+000	0.000000e+000	0.000000e+000
5602300230.023	0.000000e+000	0.000000e+000	-9.474852e-001	-2.957222e-002	0.000000e+000	0.000000e+000	0.000000e+000	0.000000e+000
5602320232.023	0.000000e+000	0.000000e+000	-9.477876e-001	-2.186528e-002	0.000000e+000	0.000000e+000	0.000000e+000	0.000000e+000
5602340234.023	0.000000e+000	0.000000e+000	-9.470880e-001	-1.500836e-002	0.000000e+000	0.000000e+000	0.000000e+000	0.000000e+000
5602360236.024	0.000000e+000	0.000000e+000	-9.483759e-001	-6.700182e-003	0.000000e+000	0.000000e+000	0.000000e+000	0.000000e+000
5602380238.024	0.000000e+000	0.000000e+000	-9.485591e-001	1.168524e-003	0.000000e+000	0.000000e+000	0.000000e+000	0.000000e+000
5602400240.024	0.000000e+000	0.000000e+000	-9.496552e-001	9.817066e-003	0.000000e+000	0.000000e+000	0.000000e+000	0.000000e+000
5602420242.024	0.000000e+000	0.000000e+000	-9.491806e-001	1.686272e-002	0.000000e+000	0.000000e+000	0.000000e+000	0.000000e+000
5602440244.024	0.000000e+000	0.000000e+000	-9.489568e-001	2.448440e-002	0.000000e+000	0.000000e+000	0.000000e+000	0.000000e+000
5602460246.025	0.000000e+000	0.000000e+000	-9.481624e-001	3.162429e-002	0.000000e+000	0.000000e+000	0.000000e+000	0.000000e+000
5602480248.025	0.000000e+000	0.000000e+000	-9.479525e-001	3.951536e-002	0.000000e+000	0.000000e+000	0.000000e+000	0.000000e+000
5602500250.025	0.000000e+000	0.000000e+000	-9.484135e-001	4.761756e-002	0.000000e+000	0.000000e+000	0.000000e+000	0.000000e+000
5602520252.025	0.000000e+000	0.000000e+000	-9.485995e-001	5.599565e-002	0.000000e+000	0.000000e+000	0.000000e+000	0.000000e+000
5602540254.025	0.000000e+000	0.000000e+000	-9.488675e-001	6.406602e-002	0.000000e+000	0.000000e+000	0.000000e+000	0.000000e+000
5602560256.026	0.000000e+000	0.000000e+000	-9.477783e-001	7.116851e-002	0.000000e+000	0.000000e+000	0.000000e+000	0.000000e+000
5602580258.026	0.000000e+000	0.000000e+000	-9.469945e-001	7.868759e-002	0.000000e+000	0.000000e+000	0.000000e+000	0.000000e+000
5602600260.026	0.000000e+000	0.000000e+000	-9.455430e-001	8.573836e-002	0.000000e+000	0.000000e+000	0.000000e+000	0.000000e+000
5602620262.026	0.000000e+000	0.000000e+000	-9.456258e-001	9.389635e-002	0.000000e+000	0.000000e+000	0.000000e+000	0.000000e+000
5602640264.026	0.000000e+000	0.000000e+000	-9.453247e-001	1.020127e-001	0.000000e+000	0.000000e+000	0.000000e+000	0.000000e+000
5602660266.027	0.000000e+000	0.000000e+000	-9.454692e-001	1.102397e-001	0.000000e+000	0.000000e+000	0.000000e+000	0.000000e+000
5602680268.027	0.000000e+000	0.000000e+000	-9.444054e-001	1.178379e-001	0.000000e+000	0.000000e+000	0.000000e+000	0.000000e+000
5602700270.027	0.000000e+000	0.000000e+000	-9.433507e-001	1.253018e-001	0.000000e+000	0.000000e+000	0.000000e+000	0.000000e+000
5602720272.027	0.000000e+000	0.000000e+000	-9.415620e-001	1.323707e-001	0.000000e+000	0.000000e+000	0.000000e+000	0.000000e+000
5602740274.027	0.000000e+000	0.000000e+000	-9.407819e-001	1.400971e-001	0.000000e+000	0.000000e+000	0.000000e+000	0.000000e+000
5602760276.028	0.000000e+000	0.000000e+000	-9.399594e-001	1.482508e-001	0.000000e+000	0.000000e+000	0.000000e+000	0.000000e+000
5602780278.028	0.000000e+000	0.000000e+000	-9.393367e-001	1.564013e-001	0.000000e+000	0.000000e+000	0.000000e+000	0.000000e+000
5602800280.028	0.000000e+000	0.000000e+000	-9.389626e-001	1.647360e-001	0.000000e+000	0.000000e+000	0.000000e+000	0.000000e+000
5602820282.028	0.000000e+000	0.000000e+000	-9.370475e-001	1.718246e-001	0.000000e+000	0.000000e+000	0.000000e+000	0.000000e+000
5602840284.028	0.000000e+000	0.000000e+000	-9.354658e-001	1.793176e-001	0.000000e+000	0.000000e+000	0.000000e+000	0.000000e+000
5602860286.029	0.000000e+000	0.000000e+000	-9.334005e-001	1.862344e-001	0.000000e+000	0.000000e+000	0.000000e+000	0.000000e+000
5602880288.029	0.000000e+000	0.000000e+000	-9.325855e-001	1.942458e-001	0.000000e+000	0.000000e+000	0.000000e+000	0.000000e+000
5602900290.029	0.000000e+000	0.000000e+000	-9.314814e-001	2.023829e-001	0.000000e+000	0.000000e+000	0.000000e+000	0.000000e+000
5602920292.029	0.000000e+000	0.000000e+000	-9.303077e-001	2.107302e-001	0.000000e+000	0.000000e+000	0.000000e+000	0.000000e+000
5602940294.029	0.000000e+000	0.000000e+000	-9.285949e-001	2.181698e-001	0.000000e+000	0.000000e+000	0.000000e+000	0.000000e+000
5602960296.030	0.000000e+000	0.000000e+000	-9.267943e-001	2.255398e-001	0.000000e+000	0.000000e+000	0.000000e+000	0.000000e+000
5602980298.030	0.000000e+000	0.000000e+000	-9.243518e-001	2.324239e-001	0.000000e+000	0.000000e+000	0.000000e+000	0.000000e+000
5603000300.030	0.000000e+000	0.000000e+000	-9.227256e-001	2.399594e-001	0.000000e+000	0.000000e+000	0.000000e+000	0.000000e+000
5603020302.030	0.000000e+000	0.000000e+000	-9.211731e-001	2.479609e-001	0.000000e+000	0.000000e+000	0.000000e+000	0.000000e+000
