"# Channel 1"
"# Trace 1"
Frequency, Formatted Data, Formatted Data
+4.00000000000E+009, +1.96788732955E-001, -1.92919671992E+000
+4.00040004000E+009, -1.22778986139E-001, -1.93448742910E+000
+4.00080008001E+009, -4.43130099531E-001, -1.88912330993E+000
+4.00120012001E+009, -7.55883580751E-001, -1.79320855245E+000
+4.00160016002E+009, -1.03518556235E+000, -1.63963031181E+000
+4.00200020002E+009, -1.28958119837E+000, -1.44365868789E+000
+4.00240024002E+009, -1.51777612696E+000, -1.20840714417E+000
+4.00280028003E+009, -1.68692188698E+000, -9.40095800685E-001
+4.00320032003E+009, -1.82029795252E+000, -6.44482406974E-001
+4.00360036004E+009, -1.90652511692E+000, -3.28796919693E-001
+4.00400040004E+009, -1.92196144193E+000, -1.45502489184E-002
+4.00440044004E+009, -1.89686081011E+000, +3.07160376293E-001
+4.00480048005E+009, -1.81510959786E+000, +6.15394178914E-001
+4.00520052005E+009, -1.67726307407E+000, +8.91400425914E-001
+4.00560056006E+009, -1.50384149816E+000, +1.15915704719E+000
+4.00600060006E+009, -1.28734095381E+000, +1.38376476304E+000
+4.00640064006E+009, -1.03838257899E+000, +1.56354955181E+000
+4.00680068007E+009, -7.62161098770E-001, +1.71431026886E+000
+4.00720072007E+009, -4.69893192051E-001, +1.80636449898E+000
+4.00760076008E+009, -1.68384083159E-001, +1.84772405114E+000
+4.00800080008E+009, +1.38975805894E-001, +1.84602579512E+000
+4.00840084008E+009, +4.31590372977E-001, +1.78596120786E+000
+4.00880088009E+009, +7.06284321735E-001, +1.67894811845E+000
+4.00920092009E+009, +9.71682203008E-001, +1.53644407254E+000
+4.00960096010E+009, +1.19389086934E+000, +1.34943397899E+000
+4.01000100010E+009, +1.39157277834E+000, +1.13200304195E+000
+4.01040104010E+009, +1.55816904156E+000, +8.85451094715E-001
+4.01080108011E+009, +1.66496807467E+000, +6.20333321885E-001
+4.01120112011E+009, +1.73672272302E+000, +3.39908628070E-001
+4.01160116012E+009, +1.76004969612E+000, +5.41616594132E-002
+4.01200120012E+009, +1.72606303472E+000, -2.19829799547E-001
+4.01240124012E+009, +1.65949989489E+000, -4.93322979499E-001
+4.01280128013E+009, +1.54996348610E+000, -7.48374549229E-001
+4.01320132013E+009, +1.39943831966E+000, -9.74732401206E-001
+4.01360136014E+009, +1.21953606036E+000, -1.18658706433E+000
+4.01400140014E+009, +1.00895656205E+000, -1.36131237976E+000
+4.01440144014E+009, +7.75390268124E-001, -1.49111723816E+000
+4.01480148015E+009, +5.23597394178E-001, -1.59148177096E+000
+4.01520152015E+009, +2.64375709956E-001, -1.64163621490E+000
+4.01560156016E+009, +7.08509200824E-003, -1.64352389140E+000
+4.01600160016E+009, -2.56662003281E-001, -1.61971769897E+000
+4.01640164016E+009, -5.02253922329E-001, -1.54669319932E+000
+4.01680168017E+009, -7.35535044075E-001, -1.43952486663E+000
+4.01720172017E+009, -9.57893301994E-001, -1.30169149789E+000
+4.01760176018E+009, -1.13904538792E+000, -1.12729222488E+000
+4.01800180018E+009, -1.29703272223E+000, -9.29711846364E-001
+4.01840184018E+009, -1.42271092750E+000, -7.10279623825E-001
+4.01880188019E+009, -1.49921150451E+000, -4.79121988106E-001
+4.01920192019E+009, -1.54731253337E+000, -2.37918171004E-001
+4.01960196020E+009, -1.55977251901E+000, +7.97639885168E-003
+4.02000200020E+009, -1.52745717017E+000, +2.45254038797E-001
+4.02040204020E+009, -1.46750007239E+000, +4.83238898990E-001
+4.02080208021E+009, -1.37184521799E+000, +7.09184656049E-001
+4.02120212021E+009, -1.23776594103E+000, +9.05019562937E-001
+4.02160216022E+009, -1.07859610510E+000, +1.08874887771E+000
+4.02200220022E+009, -8.92662373884E-001, +1.23706517611E+000
+4.02240224022E+009, -6.88459192229E-001, +1.34404104930E+000
+4.02280228023E+009, -4.67439869521E-001, +1.43609732007E+000
+4.02320232023E+009, -2.39180716984E-001, +1.48318351587E+000
+4.02360236024E+009, -6.90384811511E-003, +1.49537427981E+000
+4.02400240024E+009, +2.31540590681E-001, +1.48119887181E+000
+4.02440244024E+009, +4.54904106046E-001, +1.42192191482E+000
+4.02480248025E+009, +6.68025813844E-001, +1.33056680224E+000
+4.02520252025E+009, +8.67781859256E-001, +1.20928884648E+000
+4.02560256026E+009, +1.03540307311E+000, +1.05688031501E+000
+4.02600260026E+009, +1.18091141989E+000, +8.81523219000E-001
+4.02640264026E+009, +1.30541900666E+000, +6.85743735562E-001
+4.02680268027E+009, +1.38766894054E+000, +4.75059876310E-001
+4.02720272027E+009, +1.44488573151E+000, +2.51743871476E-001
+4.02760276028E+009, +1.47066288883E+000, +1.96680365282E-002
+4.02800280028E+009, +1.44866433972E+000, -2.03614583085E-001
+4.02840284028E+009, +1.40091432659E+000, -4.28796804097E-001
+4.02880288029E+009, +1.31660997322E+000, -6.39861646585E-001
+4.02920292029E+009, +1.19674026715E+000, -8.24731719874E-001
+4.02960296030E+009, +1.05486964547E+000, -1.00392851647E+000
+4.03000300030E+009, +8.85801090088E-001, -1.15239513367E+000
+4.03040304030E+009, +6.96342068252E-001, -1.27132961351E+000
+4.03080308031E+009, +4.88216580621E-001, -1.37240865236E+000
+4.03120312031E+009, +2.69421188853E-001, -1.43099242477E+000
+4.03160316032E+009, +4.53046676804E-002, -1.45402398694E+000
+4.03200320032E+009, -1.84565568304E-001, -1.44750589745E+000
+4.03240324032E+009, -4.02844106337E-001, -1.39851309043E+000
+4.03280328033E+009, -6.09010752918E-001, -1.31590237257E+000
+4.03320332033E+009, -8.12498162641E-001, -1.20825949185E+000
+4.03360336034E+009, -9.86004870725E-001, -1.06692093999E+000
+4.03400340034E+009, -1.14304038457E+000, -9.01063410866E-001
+4.03440344034E+009, -1.28082626029E+000, -7.11265830547E-001
+4.03480348035E+009, -1.37183384607E+000, -5.05131523060E-001
+4.03520352035E+009, -1.43908651869E+000, -2.82621722853E-001
+4.03560356036E+009, -1.46847363255E+000, -5.31299577215E-002
+4.03600360036E+009, -1.45271944458E+000, +1.70556357781E-001
+4.03640364036E+009, -1.41144014676E+000, +3.98951260934E-001
+4.03680368037E+009, -1.33291486758E+000, +6.16143481746E-001
+4.03720372037E+009, -1.21922830027E+000, +8.13010722898E-001
+4.03760376038E+009, -1.07953830614E+000, +1.00278656134E+000
+4.03800380038E+009, -9.09397929428E-001, +1.16375593472E+000
+4.03840384038E+009, -7.17001293877E-001, +1.28944946488E+000
+4.03880388039E+009, -5.04635377582E-001, +1.39318798499E+000
+4.03920392039E+009, -2.80920619994E-001, +1.45492833981E+000
+4.03960396040E+009, -5.42500362825E-002, +1.47493522222E+000
+4.04000400040E+009, +1.83624504160E-001, +1.47167846700E+000
+4.04040404040E+009, +4.09680149635E-001, +1.42364754297E+000
+4.04080408041E+009, +6.29415759848E-001, +1.34247702155E+000
+4.04120412041E+009, +8.44056706972E-001, +1.23122084230E+000
+4.04160416042E+009, +1.02479011141E+000, +1.08338922637E+000
+4.04200420042E+009, +1.18653168946E+000, +9.09265171035E-001
+4.04240424042E+009, +1.31953978036E+000, +7.10705024671E-001
+4.04280428043E+009, +1.40849262709E+000, +4.96929333549E-001
+4.04320432043E+009, +1.47052234206E+000, +2.68357340231E-001
+4.04360436044E+009, +1.49784212326E+000, +3.10002777116E-002
+4.04400440044E+009, +1.48126957791E+000, -2.02350307308E-001
+4.04440444044E+009, +1.43543577564E+000, -4.39429492716E-001
+4.04480448045E+009, +1.35186706901E+000, -6.67508489639E-001
+4.04520452045E+009, +1.22850566659E+000, -8.68629603226E-001
+4.04560456046E+009, +1.07729128487E+000, -1.05815706080E+000
+4.04600460046E+009, +8.96809124032E-001, -1.21539261189E+000
+4.04640464046E+009, +6.95446882983E-001, -1.33229456039E+000
+4.04680468047E+009, +4.73646129831E-001, -1.43248324476E+000
+4.04720472047E+009, +2.41999829554E-001, -1.48803217049E+000
+4.04760476048E+009, +4.54858721649E-003, -1.50618586549E+000
+4.04800480048E+009, -2.40841011211E-001, -1.49540316981E+000
+4.04840484048E+009, -4.73232522279E-001, -1.43770883890E+000
+4.04880488049E+009, -6.95887405276E-001, -1.34537692967E+000
+4.04920492049E+009, -9.04647685176E-001, -1.21988838781E+000
+4.04960496050E+009, -1.08037348658E+000, -1.06081448252E+000
+4.05000500050E+009, -1.23207708087E+000, -8.76354855136E-001
+4.05040504050E+009, -1.36093454881E+000, -6.69099520629E-001
+4.05080508051E+009, -1.44443281072E+000, -4.46951965267E-001
+4.05120512051E+009, -1.50071534991E+000, -2.10398430225E-001
+4.05160516052E+009, -1.52243773462E+000, +3.52637808540E-002
+4.05200520052E+009, -1.49309931480E+000, +2.71515537997E-001
+4.05240524052E+009, -1.43443682154E+000, +5.09202435395E-001
+4.05280528053E+009, -1.33620180319E+000, +7.30962249277E-001
+4.05320532053E+009, -1.20064982646E+000, +9.23498564189E-001
+4.05360536054E+009, -1.03969415681E+000, +1.10691956665E+000
+4.05400540054E+009, -8.51213869614E-001, +1.25668495233E+000
+4.05440544054E+009, -6.42227033364E-001, +1.37135217762E+000
+4.05480548055E+009, -4.13448499898E-001, +1.46445871870E+000
+4.05520552055E+009, -1.75899348870E-001, +1.51229275114E+000
+4.05560556056E+009, +6.42541506388E-002, +1.51955223275E+000
+4.05600560056E+009, +3.08030921772E-001, +1.49376603450E+000
+4.05640564056E+009, +5.37244579465E-001, +1.42386087764E+000
+4.05680568057E+009, +7.49579456807E-001, +1.31800778613E+000
+4.05720572057E+009, +9.55071607450E-001, +1.18461815304E+000
+4.05760576058E+009, +1.12550965222E+000, +1.01807030951E+000
+4.05800580058E+009, +1.27388035142E+000, +8.27175120803E-001
+4.05840584058E+009, +1.39916375490E+000, +6.13284040921E-001
+4.05880588059E+009, +1.47344862243E+000, +3.85920553947E-001
+4.05920592059E+009, +1.51994591272E+000, +1.45854139917E-001
+4.05960596060E+009, +1.52584813583E+000, -9.85503447816E-002
+4.06000600060E+009, +1.48448542618E+000, -3.31946520384E-001
+4.06040604060E+009, +1.41487278203E+000, -5.65581171215E-001
+4.06080608061E+009, +1.30772191677E+000, -7.82794592142E-001
+4.06120612061E+009, +1.16565925273E+000, -9.75219844396E-001
+4.06160616062E+009, +9.97475619482E-001, -1.15557273553E+000
+4.06200620062E+009, +8.01412217274E-001, -1.30341439329E+000
+4.06240624062E+009, +5.85568958209E-001, -1.41130283991E+000
+4.06280628063E+009, +3.52839479556E-001, -1.49159081393E+000
+4.06320632063E+009, +1.13414691247E-001, -1.52648874531E+000
+4.06360636064E+009, -1.23917266338E-001, -1.51747655017E+000
+4.06400640064E+009, -3.68404431063E-001, -1.48347363046E+000
+4.06440644064E+009, -5.95485021262E-001, -1.40430675974E+000
+4.06480648065E+009, -8.10909239565E-001, -1.29243202822E+000
+4.06520652065E+009, -1.01594694034E+000, -1.15004068717E+000
+4.06560656066E+009, -1.18146757178E+000, -9.74424438655E-001
+4.06600660066E+009, -1.32335296392E+000, -7.74634027911E-001
+4.06640664066E+009, -1.43356311912E+000, -5.54327344025E-001
+4.06680668067E+009, -1.49521635800E+000, -3.23021771057E-001
+4.06720672067E+009, -1.52743015358E+000, -8.17969399188E-002
+4.06760676068E+009, -1.52369231784E+000, +1.63486976829E-001
+4.06800680068E+009, -1.47498917007E+000, +3.98441773753E-001
+4.06840684068E+009, -1.39608345406E+000, +6.32673952444E-001
+4.06880688069E+009, -1.28102421087E+000, +8.53517716858E-001
+4.06920692069E+009, -1.12821252159E+000, +1.04031219192E+000
+4.06960696070E+009, -9.49395447970E-001, +1.21284466610E+000
+4.07000700070E+009, -7.45045147067E-001, +1.34806923098E+000
+4.07040704070E+009, -5.24529418646E-001, +1.43841430323E+000
+4.07080708071E+009, -2.86655125064E-001, +1.51022635267E+000
+4.07120712071E+009, -4.47819968534E-002, +1.53404040906E+000
+4.07160716072E+009, +1.98016006737E-001, +1.52010365831E+000
+4.07200720072E+009, +4.45695221622E-001, +1.47605398627E+000
+4.07240724072E+009, +6.73125600510E-001, +1.38597820248E+000
+4.07280728073E+009, +8.86004466901E-001, +1.26181319164E+000
+4.07320732073E+009, +1.07955701388E+000, +1.10553843061E+000
+4.07360736074E+009, +1.23477990053E+000, +9.19758342580E-001
+4.07400740074E+009, +1.36123878796E+000, +7.12237214209E-001
+4.07440744074E+009, +1.46257761559E+000, +4.84966560630E-001
+4.07480748075E+009, +1.51498552932E+000, +2.48997931467E-001
+4.07520752075E+009, +1.53858958809E+000, +2.43841849763E-003
+4.07560756076E+009, +1.52658200706E+000, -2.48800886204E-001
+4.07600760076E+009, +1.46385411061E+000, -4.83650081264E-001
+4.07640764076E+009, +1.37096396547E+000, -7.15479469247E-001
+4.07680768077E+009, +1.23968176327E+000, -9.25389315023E-001
+4.07720772077E+009, +1.07494311495E+000, -1.09901995927E+000
+4.07760776078E+009, +8.86267975586E-001, -1.26178862620E+000
+4.07800780078E+009, +6.74603215269E-001, -1.38542715551E+000
+4.07840784078E+009, +4.46985007609E-001, -1.47089760365E+000
+4.07880788079E+009, +2.02599291692E-001, -1.53160341102E+000
+4.07920792079E+009, -4.42766858037E-002, -1.54489686156E+000
+4.07960796080E+009, -2.88283264977E-001, -1.51675273223E+000
+4.08000800080E+009, -5.30578344198E-001, -1.45504862799E+000
+4.08040804080E+009, -7.51434747334E-001, -1.34977525487E+000
+4.08080808081E+009, -9.49316477908E-001, -1.21107967966E+000
+4.08120812081E+009, -1.13643041864E+000, -1.04528094234E+000
+4.08160816082E+009, -1.28243263508E+000, -8.51556047529E-001
+4.08200820082E+009, -1.40330972344E+000, -6.36213965180E-001
+4.08240824082E+009, -1.49726287302E+000, -4.00584341357E-001
+4.08280828083E+009, -1.53794389967E+000, -1.59288018948E-001
+4.08320832083E+009, -1.54756809619E+000, +9.05444940297E-002
+4.08360836084E+009, -1.51508119742E+000, +3.37884342946E-001
+4.08400840084E+009, -1.43707969736E+000, +5.66730510629E-001
+4.08440844084E+009, -1.32984693708E+000, +7.91835729313E-001
+4.08480848085E+009, -1.18715382724E+000, +9.95974456783E-001
+4.08520852085E+009, -1.01247327579E+000, +1.16808622308E+000
+4.08560856086E+009, -8.12169472854E-001, +1.32486177887E+000
+4.08600860086E+009, -5.88499993341E-001, +1.44338282790E+000
+4.08640864086E+009, -3.51297324741E-001, +1.51657044935E+000
+4.08680868087E+009, -9.84267365955E-002, +1.56053357594E+000
+4.08720872087E+009, +1.54205548660E-001, +1.55656527135E+000
+4.08760876088E+009, +3.97657249569E-001, +1.50702831801E+000
+4.08800880088E+009, +6.47112451045E-001, +1.42810497284E+000
+4.08840884088E+009, +8.72192051427E-001, +1.30311761650E+000
+4.08880888089E+009, +1.08174588227E+000, +1.14167490607E+000
+4.08920892089E+009, +1.27854075279E+000, +9.42061316870E-001
+4.08960896090E+009, +1.43240099771E+000, +6.98701947562E-001
+4.09000900090E+009, +1.55909774173E+000, +3.88541517146E-001
+4.09040904090E+009, +1.57685885032E+000, -1.55691353778E-001
+4.09080908091E+009, +1.06092970727E+000, +4.93249442314E-001
+4.09120912091E+009, +1.52718870163E+000, -7.67124722939E-003
+4.09160916092E+009, +1.54354217224E+000, -3.90506070081E-001
+4.09200920092E+009, +1.44463695748E+000, -8.04219147571E-001
+4.09240924092E+009, +2.08615185399E-001, -5.29287962546E-001
+4.09280928093E+009, +1.18443981188E+000, -7.87992305171E-001
+4.09320932093E+009, +1.03777624822E+000, -1.10016681487E+000
+4.09360936094E+009, +8.28233124758E-001, -1.32076397114E+000
+4.09400940094E+009, +5.78055198803E-001, -1.48651803373E+000
+4.09440944094E+009, +2.78740099562E-001, -1.61452652933E+000
+4.09480948095E+009, -2.75052581735E-001, -1.76216314702E+000
+4.09520952095E+009, +1.38349075317E-001, -1.02958695524E+000
+4.09560956096E+009, -2.32727419688E-001, -1.41198747222E+000
+4.09600960096E+009, -5.53773763019E-001, -1.41683168068E+000
+4.09640964096E+009, -8.50119888467E-001, -1.33398561731E+000
+4.09680968097E+009, -1.20349832045E+000, -1.18074937519E+000
+4.09720972097E+009, -9.43371677073E-001, +1.72404269687E-001
+4.09760976098E+009, -1.09268160741E+000, -7.80719022616E-001
+4.09800980098E+009, -1.34347351494E+000, -5.96310126262E-001
+4.09840984098E+009, -1.52779286942E+000, -3.36257962839E-001
+4.09880988099E+009, -1.65953929940E+000, +5.15017266021E-001
+4.09920992099E+009, -1.32176339356E+000, +6.01270532327E-002
+4.09960996100E+009, -1.39776421866E+000, +3.19233357114E-001
+4.10001000100E+009, -1.35671010205E+000, +5.61116987179E-001
+4.10041004100E+009, -1.26748021482E+000, +7.97690226205E-001
+4.10081008101E+009, -1.13459280628E+000, +1.01279168496E+000
+4.10121012101E+009, -9.64344515954E-001, +1.19825041572E+000
+4.10161016102E+009, -7.61775659049E-001, +1.39276401887E+000
+4.10201020102E+009, -4.17483019957E-001, +1.73619378242E+000
+4.10241024102E+009, -2.93865919342E-001, +1.27559309425E+000
+4.10281028103E+009, -7.48020054163E-002, +1.44721068061E+000
+4.10321032103E+009, +1.73369443056E-001, +1.47803473872E+000
+4.10361036104E+009, +4.21596680607E-001, +1.45070189579E+000
+4.10401040104E+009, +6.70039109893E-001, +1.38279537634E+000
+4.10441044104E+009, +9.12469002739E-001, +1.27713287553E+000
+4.10481048105E+009, +1.52875481624E+000, +5.51480627245E-001
+4.10521052105E+009, +1.16856809225E+000, +8.71287560817E-001
+4.10561056106E+009, +1.32902473038E+000, +6.83181668234E-001
+4.10601060106E+009, +1.44074969470E+000, +4.57205594342E-001
+4.10641064106E+009, +1.51448399867E+000, +2.08050723121E-001
+4.10681068107E+009, +1.52891592211E+000, -4.51512908051E-002
+4.10721072107E+009, +1.50065146523E+000, -3.07210216408E-001
+4.10761076108E+009, +1.45147935046E+000, -5.50562679104E-001
+4.10801080108E+009, +1.32249735557E+000, -7.84444744018E-001
+4.10841084108E+009, +1.16000442611E+000, -1.00077555501E+000
+4.10881088109E+009, +9.48139554664E-001, -1.17395151862E+000
+4.10921092109E+009, +6.50648935331E-001, -1.17685208503E+000
+4.10961096110E+009, +5.60507517472E-001, -1.57485679286E+000
+4.11001100110E+009, +1.99567437454E-001, -1.57486167930E+000
+4.11041104110E+009, -1.35085292070E-001, -1.51951542081E+000
+4.11081108111E+009, -4.56807257667E-001, -1.32843158334E+000
+4.11121112111E+009, +5.42863427480E-001, -9.62060968892E-001
+4.11161116112E+009, -1.10886725468E+000, -8.76159506009E-001
+4.11201120112E+009, -1.68317983580E-001, -4.85609135237E-001
+4.11241124112E+009, -6.48611702472E-002, -5.08393585068E-001
+4.11281128113E+009, -4.75420371064E-002, -1.24149597514E+000
+4.11321132113E+009, -7.72989532914E-001, -5.25710119045E-001
+4.11361136114E+009, -1.77051795388E+000, -7.17674559462E-002
+4.11401140114E+009, -1.14104783603E+000, -9.07930973974E-001
+4.11441144114E+009, -1.42779919984E+000, -6.46512500381E-001
+4.11481148115E+009, -1.56851029394E+000, -3.48312007914E-001
+4.11521152115E+009, -1.63544071356E+000, -3.82095392034E-002
+4.11561156116E+009, -1.63807926459E+000, +2.72492859054E-001
+4.11601160116E+009, -1.57467690837E+000, +5.65164071656E-001
+4.11641164116E+009, -1.46463806411E+000, +8.49132327289E-001
+4.11681168117E+009, -1.30503475360E+000, +1.10942579378E+000
+4.11721172117E+009, -1.09934539541E+000, +1.32220966204E+000
+4.11761176118E+009, -8.59196461778E-001, +1.50818150518E+000
+4.11801180118E+009, -5.90741533700E-001, +1.64170427840E+000
+4.11841184118E+009, -3.07061918296E-001, +1.71603076378E+000
+4.11881188119E+009, -4.47307382241E-003, +1.75817797925E+000
+4.11921192119E+009, +2.95229968656E-001, +1.73846404199E+000
+4.11961196120E+009, +5.88918852576E-001, +1.66729644920E+000
+4.12001200120E+009, +8.80267001584E-001, +1.55295946428E+000
+4.12041204120E+009, +1.13569017426E+000, +1.38276982225E+000
+4.12081208121E+009, +1.36093714035E+000, +1.16966635455E+000
+4.12121212121E+009, +1.55256324192E+000, +9.17526833116E-001
+4.12161216122E+009, +1.68401672285E+000, +6.35231997794E-001
+4.12201220122E+009, +1.76537111754E+000, +3.30360268819E-001
+4.12241224122E+009, +1.79861421360E+000, +4.99329699319E-003
+4.12281228123E+009, +1.75657028018E+000, -3.19495207670E-001
+4.12321232123E+009, +1.64807760147E+000, -6.49455885000E-001
+4.12361236124E+009, +1.43485840794E+000, -9.70735282689E-001
+4.12401240124E+009, +9.52028041099E-001, -1.17490384617E+000
+4.12441244124E+009, +1.52787869245E+000, -3.90402203379E-001
+4.12481248125E+009, +1.26204040157E+000, -1.45474972024E+000
+4.12521252125E+009, +8.13124958771E-001, -1.69830198855E+000
+4.12561256126E+009, +3.59552083082E-001, -1.80626040193E+000
+4.12601260126E+009, -1.99262378123E-001, -1.69068518873E+000
