!Keysight Technologies,E5063A,MY54502693,A.05.04
!Date: Mon Oct 12 07:04:59 2020
!Data & Calibration Information:
!Freq	S11:NONE(--)	S21:NONE(--)	S12:NONE(--)	S22:NONE(--)
# Hz S RI R 50
5200000000.000	0.000000e+000	0.000000e+000	9.141935e-001	-6.033636e-001	0.000000e+000	0.000000e+000	0.000000e+000	0.000000e+000
5200020002.000	0.000000e+000	0.000000e+000	9.087670e-001	-6.101396e-001	0.000000e+000	0.000000e+000	0.000000e+000	0.000000e+000
5200040004.000	0.000000e+000	0.000000e+000	9.031219e-001	-6.174258e-001	0.000000e+000	0.000000e+000	0.000000e+000	0.000000e+000
5200060006.001	0.000000e+000	0.000000e+000	8.978760e-001	-6.239019e-001	0.000000e+000	0.000000e+000	0.000000e+000	0.000000e+000
5200080008.001	0.000000e+000	0.000000e+000	8.927941e-001	-6.323197e-001	0.000000e+000	0.000000e+000	0.000000e+000	0.000000e+000
5200100010.001	0.000000e+000	0.000000e+000	8.872605e-001	-6.398561e-001	0.000000e+000	0.000000e+000	0.000000e+000	0.000000e+000
5200120012.001	0.000000e+000	0.000000e+000	8.825235e-001	-6.484965e-001	0.000000e+000	0.000000e+000	0.000000e+000	0.000000e+000
5200140014.001	0.000000e+000	0.000000e+000	8.767020e-001	-6.555358e-001	0.000000e+000	0.000000e+000	0.000000e+000	0.000000e+000
5200160016.002	0.000000e+000	0.000000e+000	8.709052e-001	-6.622493e-001	0.000000e+000	0.000000e+000	0.000000e+000	0.000000e+000
5200180018.002	0.000000e+000	0.000000e+000	8.649737e-001	-6.690349e-001	0.000000e+000	0.000000e+000	0.000000e+000	0.000000e+000
5200200020.002	0.000000e+000	0.000000e+000	8.591702e-001	-6.760783e-001	0.000000e+000	0.000000e+000	0.000000e+000	0.000000e+000
5200220022.002	0.000000e+000	0.000000e+000	8.535597e-001	-6.841389e-001	0.000000e+000	0.000000e+000	0.000000e+000	0.000000e+000
5200240024.002	0.000000e+000	0.000000e+000	8.477123e-001	-6.914256e-001	0.000000e+000	0.000000e+000	0.000000e+000	0.000000e+000
5200260026.003	0.000000e+000	0.000000e+000	8.421109e-001	-6.997520e-001	0.000000e+000	0.000000e+000	0.000000e+000	0.000000e+000
5200280028.003	0.000000e+000	0.000000e+000	8.357245e-001	-7.055787e-001	0.000000e+000	0.000000e+000	0.000000e+000	0.000000e+000
5200300030.003	0.000000e+000	0.000000e+000	8.298696e-001	-7.125723e-001	0.000000e+000	0.000000e+000	0.000000e+000	0.000000e+000
5200320032.003	0.000000e+000	0.000000e+000	8.234057e-001	-7.183897e-001	0.000000e+000	0.000000e+000	0.000000e+000	0.000000e+000
5200340034.003	0.000000e+000	0.000000e+000	8.175700e-001	-7.261799e-001	0.000000e+000	0.000000e+000	0.000000e+000	0.000000e+000
5200360036.004	0.000000e+000	0.000000e+000	8.112328e-001	-7.334509e-001	0.000000e+000	0.000000e+000	0.000000e+000	0.000000e+000
5200380038.004	0.000000e+000	0.000000e+000	8.051792e-001	-7.412836e-001	0.000000e+000	0.000000e+000	0.000000e+000	0.000000e+000
5200400040.004	0.000000e+000	0.000000e+000	7.986908e-001	-7.478883e-001	0.000000e+000	0.000000e+000	0.000000e+000	0.000000e+000
5200420042.004	0.000000e+000	0.000000e+000	7.921599e-001	-7.541190e-001	0.000000e+000	0.000000e+000	0.000000e+000	0.000000e+000
5200440044.004	0.000000e+000	0.000000e+000	7.855548e-001	-7.599637e-001	0.000000e+000	0.000000e+000	0.000000e+000	0.000000e+000
5200460046.005	0.000000e+000	0.000000e+000	7.785161e-001	-7.658453e-001	0.000000e+000	0.000000e+000	0.000000e+000	0.000000e+000
5200480048.005	0.000000e+000	0.000000e+000	7.724742e-001	-7.733324e-001	0.000000e+000	0.000000e+000	0.000000e+000	0.000000e+000
5200500050.005	0.000000e+000	0.000000e+000	7.657780e-001	-7.803212e-001	0.000000e+000	0.000000e+000	0.000000e+000	0.000000e+000
5200520052.005	0.000000e+000	0.000000e+000	7.591665e-001	-7.878742e-001	0.000000e+000	0.000000e+000	0.000000e+000	0.000000e+000
5200540054.005	0.000000e+000	0.000000e+000	7.524176e-001	-7.930683e-001	0.000000e+000	0.000000e+000	0.000000e+000	0.000000e+000
5200560056.006	0.000000e+000	0.000000e+000	7.452316e-001	-7.995002e-001	0.000000e+000	0.000000e+000	0.000000e+000	0.000000e+000
5200580058.006	0.000000e+000	0.000000e+000	7.383180e-001	-8.045133e-001	0.000000e+000	0.000000e+000	0.000000e+000	0.000000e+000
5200600060.006	0.000000e+000	0.000000e+000	7.310686e-001	-8.114088e-001	0.000000e+000	0.000000e+000	0.000000e+000	0.000000e+000
5200620062.006	0.000000e+000	0.000000e+000	7.243129e-001	-8.176691e-001	0.000000e+000	0.000000e+000	0.000000e+000	0.000000e+000
5200640064.006	0.000000e+000	0.000000e+000	7.173025e-001	-8.250770e-001	0.000000e+000	0.000000e+000	0.000000e+000	0.000000e+000
5200660066.007	0.000000e+000	0.000000e+000	7.100258e-001	-8.309962e-001	0.000000e+000	0.000000e+000	0.000000e+000	0.000000e+000
5200680068.007	0.000000e+000	0.000000e+000	7.029559e-001	-8.361616e-001	0.000000e+000	0.000000e+000	0.000000e+000	0.000000e+000
5200700070.007	0.000000e+000	0.000000e+000	6.955836e-001	-8.415561e-001	0.000000e+000	0.000000e+000	0.000000e+000	0.000000e+000
5200720072.007	0.000000e+000	0.000000e+000	6.883434e-001	-8.464708e-001	0.000000e+000	0.000000e+000	0.000000e+000	0.000000e+000
5200740074.007	0.000000e+000	0.000000e+000	6.808014e-001	-8.532995e-001	0.000000e+000	0.000000e+000	0.000000e+000	0.000000e+000
5200760076.008	0.000000e+000	0.000000e+000	6.734397e-001	-8.594940e-001	0.000000e+000	0.000000e+000	0.000000e+000	0.000000e+000
5200780078.008	0.000000e+000	0.000000e+000	6.659776e-001	-8.665592e-001	0.000000e+000	0.000000e+000	0.000000e+000	0.000000e+000
5200800080.008	0.000000e+000	0.000000e+000	6.585093e-001	-8.709923e-001	0.000000e+000	0.000000e+000	0.000000e+000	0.000000e+000
5200820082.008	0.000000e+000	0.000000e+000	6.506730e-001	-8.764928e-001	0.000000e+000	0.000000e+000	0.000000e+000	0.000000e+000
5200840084.008	0.000000e+000	0.000000e+000	6.430600e-001	-8.801475e-001	0.000000e+000	0.000000e+000	0.000000e+000	0.000000e+000
5200860086.009	0.000000e+000	0.000000e+000	6.355289e-001	-8.866381e-001	0.000000e+000	0.000000e+000	0.000000e+000	0.000000e+000
5200880088.009	0.000000e+000	0.000000e+000	6.274531e-001	-8.919572e-001	0.000000e+000	0.000000e+000	0.000000e+000	0.000000e+000
5200900090.009	0.000000e+000	0.000000e+000	6.199648e-001	-8.983584e-001	0.000000e+000	0.000000e+000	0.000000e+000	0.000000e+000
5200920092.009	0.000000e+000	0.000000e+000	6.117453e-001	-9.036837e-001	0.000000e+000	0.000000e+000	0.000000e+000	0.000000e+000
5200940094.009	0.000000e+000	0.000000e+000	6.039440e-001	-9.077942e-001	0.000000e+000	0.000000e+000	0.000000e+000	0.000000e+000
5200960096.010	0.000000e+000	0.000000e+000	5.960018e-001	-9.125227e-001	0.000000e+000	0.000000e+000	0.000000e+000	0.000000e+000
5200980098.010	0.000000e+000	0.000000e+000	5.880282e-001	-9.164824e-001	0.000000e+000	0.000000e+000	0.000000e+000	0.000000e+000
5201000100.010	0.000000e+000	0.000000e+000	5.799138e-001	-9.226670e-001	0.000000e+000	0.000000e+000	0.000000e+000	0.000000e+000
5201020102.010	0.000000e+000	0.000000e+000	5.716710e-001	-9.277375e-001	0.000000e+000	0.000000e+000	0.000000e+000	0.000000e+000
5201040104.010	0.000000e+000	0.000000e+000	5.635697e-001	-9.335872e-001	0.000000e+000	0.000000e+000	0.000000e+000	0.000000e+000
5201060106.011	0.000000e+000	0.000000e+000	5.550656e-001	-9.369699e-001	0.000000e+000	0.000000e+000	0.000000e+000	0.000000e+000
5201080108.011	0.000000e+000	0.000000e+000	5.472215e-001	-9.415813e-001	0.000000e+000	0.000000e+000	0.000000e+000	0.000000e+000
5201100110.011	0.000000e+000	0.000000e+000	5.389143e-001	-9.446241e-001	0.000000e+000	0.000000e+000	0.000000e+000	0.000000e+000
5201120112.011	0.000000e+000	0.000000e+000	5.303670e-001	-9.497592e-001	0.000000e+000	0.000000e+000	0.000000e+000	0.000000e+000
5201140114.011	0.000000e+000	0.000000e+000	5.218921e-001	-9.543088e-001	0.000000e+000	0.000000e+000	0.000000e+000	0.000000e+000
5201160116.012	0.000000e+000	0.000000e+000	5.131365e-001	-9.592185e-001	0.000000e+000	0.000000e+000	0.000000e+000	0.000000e+000
5201180118.012	0.000000e+000	0.000000e+000	5.046170e-001	-9.639588e-001	0.000000e+000	0.000000e+000	0.000000e+000	0.000000e+000
5201200120.012	0.000000e+000	0.000000e+000	4.961765e-001	-9.673854e-001	0.000000e+000	0.000000e+000	0.000000e+000	0.000000e+000
5201220122.012	0.000000e+000	0.000000e+000	4.877959e-001	-9.709376e-001	0.000000e+000	0.000000e+000	0.000000e+000	0.000000e+000
5201240124.012	0.000000e+000	0.000000e+000	4.792178e-001	-9.733976e-001	0.000000e+000	0.000000e+000	0.000000e+000	0.000000e+000
5201260126.013	0.000000e+000	0.000000e+000	4.704881e-001	-9.785516e-001	0.000000e+000	0.000000e+000	0.000000e+000	0.000000e+000
5201280128.013	0.000000e+000	0.000000e+000	4.616519e-001	-9.824201e-001	0.000000e+000	0.000000e+000	0.000000e+000	0.000000e+000
5201300130.013	0.000000e+000	0.000000e+000	4.526209e-001	-9.872931e-001	0.000000e+000	0.000000e+000	0.000000e+000	0.000000e+000
5201320132.013	0.000000e+000	0.000000e+000	4.439372e-001	-9.894714e-001	0.000000e+000	0.000000e+000	0.000000e+000	0.000000e+000
5201340134.013	0.000000e+000	0.000000e+000	4.351772e-001	-9.933173e-001	0.000000e+000	0.000000e+000	0.000000e+000	0.000000e+000
5201360136.014	0.000000e+000	0.000000e+000	4.269299e-001	-9.956535e-001	0.000000e+000	0.000000e+000	0.000000e+000	0.000000e+000
5201380138.014	0.000000e+000	0.000000e+000	4.177049e-001	-9.991540e-001	0.000000e+000	0.000000e+000	0.000000e+000	0.000000e+000
5201400140.014	0.000000e+000	0.000000e+000	4.090075e-001	-1.003274e+000	0.000000e+000	0.000000e+000	0.000000e+000	0.000000e+000
5201420142.014	0.000000e+000	0.000000e+000	3.997280e-001	-1.007230e+000	0.000000e+000	0.000000e+000	0.000000e+000	0.000000e+000
5201440144.014	0.000000e+000	0.000000e+000	3.904450e-001	-1.011072e+000	0.000000e+000	0.000000e+000	0.000000e+000	0.000000e+000
5201460146.015	0.000000e+000	0.000000e+000	3.818251e-001	-1.012888e+000	0.000000e+000	0.000000e+000	0.000000e+000	0.000000e+000
5201480148.015	0.000000e+000	0.000000e+000	3.723812e-001	-1.015451e+000	0.000000e+000	0.000000e+000	0.000000e+000	0.000000e+000
5201500150.015	0.000000e+000	0.000000e+000	3.635953e-001	-1.016906e+000	0.000000e+000	0.000000e+000	0.000000e+000	0.000000e+000
5201520152.015	0.000000e+000	0.000000e+000	3.540804e-001	-1.020656e+000	0.000000e+000	0.000000e+000	0.000000e+000	0.000000e+000
5201540154.015	0.000000e+000	0.000000e+000	3.449708e-001	-1.023360e+000	0.000000e+000	0.000000e+000	0.000000e+000	0.000000e+000
5201560156.016	0.000000e+000	0.000000e+000	3.353175e-001	-1.027346e+000	0.000000e+000	0.000000e+000	0.000000e+000	0.000000e+000
5201580158.016	0.000000e+000	0.000000e+000	3.263112e-001	-1.028687e+000	0.000000e+000	0.000000e+000	0.000000e+000	0.000000e+000
5201600160.016	0.000000e+000	0.000000e+000	3.170327e-001	-1.031380e+000	0.000000e+000	0.000000e+000	0.000000e+000	0.000000e+000
5201620162.016	0.000000e+000	0.000000e+000	3.077837e-001	-1.032966e+000	0.000000e+000	0.000000e+000	0.000000e+000	0.000000e+000
5201640164.016	0.000000e+000	0.000000e+000	2.987618e-001	-1.034292e+000	0.000000e+000	0.000000e+000	0.000000e+000	0.000000e+000
5201660166.017	0.000000e+000	0.000000e+000	2.891407e-001	-1.036806e+000	0.000000e+000	0.000000e+000	0.000000e+000	0.000000e+000
5201680168.017	0.000000e+000	0.000000e+000	2.795339e-001	-1.039485e+000	0.000000e+000	0.000000e+000	0.000000e+000	0.000000e+000
5201700170.017	0.000000e+000	0.000000e+000	2.698134e-001	-1.042138e+000	0.000000e+000	0.000000e+000	0.000000e+000	0.000000e+000
5201720172.017	0.000000e+000	0.000000e+000	2.604733e-001	-1.042640e+000	0.000000e+000	0.000000e+000	0.000000e+000	0.000000e+000
5201740174.017	0.000000e+000	0.000000e+000	2.513763e-001	-1.043850e+000	0.000000e+000	0.000000e+000	0.000000e+000	0.000000e+000
5201760176.018	0.000000e+000	0.000000e+000	2.421102e-001	-1.044378e+000	0.000000e+000	0.000000e+000	0.000000e+000	0.000000e+000
5201780178.018	0.000000e+000	0.000000e+000	2.323287e-001	-1.046965e+000	0.000000e+000	0.000000e+000	0.000000e+000	0.000000e+000
5201800180.018	0.000000e+000	0.000000e+000	2.225246e-001	-1.048316e+000	0.000000e+000	0.000000e+000	0.000000e+000	0.000000e+000
5201820182.018	0.000000e+000	0.000000e+000	2.126173e-001	-1.050655e+000	0.000000e+000	0.000000e+000	0.000000e+000	0.000000e+000
5201840184.018	0.000000e+000	0.000000e+000	2.033602e-001	-1.051220e+000	0.000000e+000	0.000000e+000	0.000000e+000	0.000000e+000
5201860186.019	0.000000e+000	0.000000e+000	1.935642e-001	-1.051734e+000	0.000000e+000	0.000000e+000	0.000000e+000	0.000000e+000
5201880188.019	0.000000e+000	0.000000e+000	1.845430e-001	-1.051807e+000	0.000000e+000	0.000000e+000	0.000000e+000	0.000000e+000
5201900190.019	0.000000e+000	0.000000e+000	1.747930e-001	-1.052298e+000	0.000000e+000	0.000000e+000	0.000000e+000	0.000000e+000
5201920192.019	0.000000e+000	0.000000e+000	1.651783e-001	-1.053805e+000	0.000000e+000	0.000000e+000	0.000000e+000	0.000000e+000
5201940194.019	0.000000e+000	0.000000e+000	1.553067e-001	-1.054419e+000	0.000000e+000	0.000000e+000	0.000000e+000	0.000000e+000
5201960196.020	0.000000e+000	0.000000e+000	1.451919e-001	-1.055757e+000	0.000000e+000	0.000000e+000	0.000000e+000	0.000000e+000
5201980198.020	0.000000e+000	0.000000e+000	1.361484e-001	-1.054964e+000	0.000000e+000	0.000000e+000	0.000000e+000	0.000000e+000
5202000200.020	0.000000e+000	0.000000e+000	1.264653e-001	-1.055017e+000	0.000000e+000	0.000000e+000	0.000000e+000	0.000000e+000
5202020202.020	0.000000e+000	0.000000e+000	1.174773e-001	-1.053966e+000	0.000000e+000	0.000000e+000	0.000000e+000	0.000000e+000
5202040204.020	0.000000e+000	0.000000e+000	1.069816e-001	-1.054731e+000	0.000000e+000	0.000000e+000	0.000000e+000	0.000000e+000
5202060206.021	0.000000e+000	0.000000e+000	9.763210e-002	-1.054868e+000	0.000000e+000	0.000000e+000	0.000000e+000	0.000000e+000
5202080208.021	0.000000e+000	0.000000e+000	8.703579e-002	-1.055303e+000	0.000000e+000	0.000000e+000	0.000000e+000	0.000000e+000
5202100210.021	0.000000e+000	0.000000e+000	7.761047e-002	-1.054513e+000	0.000000e+000	0.000000e+000	0.000000e+000	0.000000e+000
5202120212.021	0.000000e+000	0.000000e+000	6.832300e-002	-1.053826e+000	0.000000e+000	0.000000e+000	0.000000e+000	0.000000e+000
5202140214.021	0.000000e+000	0.000000e+000	5.890678e-002	-1.052265e+000	0.000000e+000	0.000000e+000	0.000000e+000	0.000000e+000
5202160216.022	0.000000e+000	0.000000e+000	4.958494e-002	-1.051053e+000	0.000000e+000	0.000000e+000	0.000000e+000	0.000000e+000
5202180218.022	0.000000e+000	0.000000e+000	3.935928e-002	-1.050886e+000	0.000000e+000	0.000000e+000	0.000000e+000	0.000000e+000
5202200220.022	0.000000e+000	0.000000e+000	2.968668e-002	-1.050055e+000	0.000000e+000	0.000000e+000	0.000000e+000	0.000000e+000
5202220222.022	0.000000e+000	0.000000e+000	1.922030e-002	-1.049656e+000	0.000000e+000	0.000000e+000	0.000000e+000	0.000000e+000
5202240224.022	0.000000e+000	0.000000e+000	1.046671e-002	-1.047302e+000	0.000000e+000	0.000000e+000	0.000000e+000	0.000000e+000
5202260226.023	0.000000e+000	0.000000e+000	8.908113e-004	-1.045841e+000	0.000000e+000	0.000000e+000	0.000000e+000	0.000000e+000
5202280228.023	0.000000e+000	0.000000e+000	-7.940333e-003	-1.043184e+000	0.000000e+000	0.000000e+000	0.000000e+000	0.000000e+000
5202300230.023	0.000000e+000	0.000000e+000	-1.763024e-002	-1.041726e+000	0.000000e+000	0.000000e+000	0.000000e+000	0.000000e+000
5202320232.023	0.000000e+000	0.000000e+000	-2.765899e-002	-1.039948e+000	0.000000e+000	0.000000e+000	0.000000e+000	0.000000e+000
5202340234.023	0.000000e+000	0.000000e+000	-3.727099e-002	-1.038594e+000	0.000000e+000	0.000000e+000	0.000000e+000	0.000000e+000
5202360236.024	0.000000e+000	0.000000e+000	-4.700508e-002	-1.036365e+000	0.000000e+000	0.000000e+000	0.000000e+000	0.000000e+000
5202380238.024	0.000000e+000	0.000000e+000	-5.581699e-002	-1.033561e+000	0.000000e+000	0.000000e+000	0.000000e+000	0.000000e+000
5202400240.024	0.000000e+000	0.000000e+000	-6.474548e-002	-1.030490e+000	0.000000e+000	0.000000e+000	0.000000e+000	0.000000e+000
5202420242.024	0.000000e+000	0.000000e+000	-7.356859e-002	-1.027001e+000	0.000000e+000	0.000000e+000	0.000000e+000	0.000000e+000
5202440244.024	0.000000e+000	0.000000e+000	-8.303837e-002	-1.024856e+000	0.000000e+000	0.000000e+000	0.000000e+000	0.000000e+000
5202460246.025	0.000000e+000	0.000000e+000	-9.287301e-002	-1.022144e+000	0.000000e+000	0.000000e+000	0.000000e+000	0.000000e+000
5202480248.025	0.000000e+000	0.000000e+000	-1.021829e-001	-1.020012e+000	0.000000e+000	0.000000e+000	0.000000e+000	0.000000e+000
5202500250.025	0.000000e+000	0.000000e+000	-1.109170e-001	-1.015905e+000	0.000000e+000	0.000000e+000	0.000000e+000	0.000000e+000
5202520252.025	0.000000e+000	0.000000e+000	-1.194648e-001	-1.012228e+000	0.000000e+000	0.000000e+000	0.000000e+000	0.000000e+000
5202540254.025	0.000000e+000	0.000000e+000	-1.272959e-001	-1.007396e+000	0.000000e+000	0.000000e+000	0.000000e+000	0.000000e+000
5202560256.026	0.000000e+000	0.000000e+000	-1.361418e-001	-1.003788e+000	0.000000e+000	0.000000e+000	0.000000e+000	0.000000e+000
5202580258.026	0.000000e+000	0.000000e+000	-1.450299e-001	-1.000309e+000	0.000000e+000	0.000000e+000	0.000000e+000	0.000000e+000
5202600260.026	0.000000e+000	0.000000e+000	-1.543785e-001	-9.966811e-001	0.000000e+000	0.000000e+000	0.000000e+000	0.000000e+000
5202620262.026	0.000000e+000	0.000000e+000	-1.625884e-001	-9.929406e-001	0.000000e+000	0.000000e+000	0.000000e+000	0.000000e+000
5202640264.026	0.000000e+000	0.000000e+000	-1.705991e-001	-9.879658e-001	0.000000e+000	0.000000e+000	0.000000e+000	0.000000e+000
5202660266.027	0.000000e+000	0.000000e+000	-1.781534e-001	-9.829994e-001	0.000000e+000	0.000000e+000	0.000000e+000	0.000000e+000
5202680268.027	0.000000e+000	0.000000e+000	-1.854811e-001	-9.775477e-001	0.000000e+000	0.000000e+000	0.000000e+000	0.000000e+000
5202700270.027	0.000000e+000	0.000000e+000	-1.939138e-001	-9.732459e-001	0.000000e+000	0.000000e+000	0.000000e+000	0.000000e+000
5202720272.027	0.000000e+000	0.000000e+000	-2.013936e-001	-9.681747e-001	0.000000e+000	0.000000e+000	0.000000e+000	0.000000e+000
5202740274.027	0.000000e+000	0.000000e+000	-2.102373e-001	-9.638511e-001	0.000000e+000	0.000000e+000	0.000000e+000	0.000000e+000
5202760276.028	0.000000e+000	0.000000e+000	-2.166835e-001	-9.579580e-001	0.000000e+000	0.000000e+000	0.000000e+000	0.000000e+000
5202780278.028	0.000000e+000	0.000000e+000	-2.238421e-001	-9.522068e-001	0.000000e+000	0.000000e+000	0.000000e+000	0.000000e+000
5202800280.028	0.000000e+000	0.000000e+000	-2.297915e-001	-9.455717e-001	0.000000e+000	0.000000e+000	0.000000e+000	0.000000e+000
5202820282.028	0.000000e+000	0.000000e+000	-2.373510e-001	-9.397747e-001	0.000000e+000	0.000000e+000	0.000000e+000	0.000000e+000
5202840284.028	0.000000e+000	0.000000e+000	-2.444057e-001	-9.343775e-001	0.000000e+000	0.000000e+000	0.000000e+000	0.000000e+000
5202860286.029	0.000000e+000	0.000000e+000	-2.508183e-001	-9.287056e-001	0.000000e+000	0.000000e+000	0.000000e+000	0.000000e+000
5202880288.029	0.000000e+000	0.000000e+000	-2.573512e-001	-9.221026e-001	0.000000e+000	0.000000e+000	0.000000e+000	0.000000e+000
5202900290.029	0.000000e+000	0.000000e+000	-2.619258e-001	-9.153207e-001	0.000000e+000	0.000000e+000	0.000000e+000	0.000000e+000
5202920292.029	0.000000e+000	0.000000e+000	-2.671279e-001	-9.082935e-001	0.000000e+000	0.000000e+000	0.000000e+000	0.000000e+000
5202940294.029	0.000000e+000	0.000000e+000	-2.712130e-001	-9.009276e-001	0.000000e+000	0.000000e+000	0.000000e+000	0.000000e+000
5202960296.030	0.000000e+000	0.000000e+000	-2.767296e-001	-8.944648e-001	0.000000e+000	0.000000e+000	0.000000e+000	0.000000e+000
5202980298.030	0.000000e+000	0.000000e+000	-2.811470e-001	-8.875676e-001	0.000000e+000	0.000000e+000	0.000000e+000	0.000000e+000
5203000300.030	0.000000e+000	0.000000e+000	-2.860509e-001	-8.808156e-001	0.000000e+000	0.000000e+000	0.000000e+000	0.000000e+000
5203020302.030	0.000000e+000	0.000000e+000	-2.892837e-001	-8.732298e-001	0.000000e+000	0.000000e+000	0.000000e+000	0.000000e+000
5203040304.030	0.000000e+000	0.000000e+000	-2.912815e-001	-8.660899e-001	0.000000e+000	0.000000e+000	0.000000e+000	0.000000e+000
