"# Channel 1"
"# Trace 1"
Frequency, Formatted Data, Formatted Data
+5.80000000000E+009, +8.00642543404E-001, +1.09768412318E-001
+5.80002000200E+009, +8.01137487686E-001, +1.03065333259E-001
+5.80004000400E+009, +8.01870874077E-001, +9.64247170503E-002
+5.80006000600E+009, +8.02360753829E-001, +8.96680465832E-002
+5.80008000800E+009, +8.03958001599E-001, +8.21712070582E-002
+5.80010001000E+009, +8.04961993737E-001, +7.50914132847E-002
+5.80012001200E+009, +8.06838264434E-001, +6.74988964789E-002
+5.80014001400E+009, +8.07302029889E-001, +6.04635357008E-002
+5.80016001600E+009, +8.07806423136E-001, +5.34653605764E-002
+5.80018001800E+009, +8.07810524267E-001, +4.65994616146E-002
+5.80020002000E+009, +8.08262676984E-001, +3.96819795819E-002
+5.80022002200E+009, +8.09443123690E-001, +3.17590700901E-002
+5.80024002400E+009, +8.10448956825E-001, +2.43395503517E-002
+5.80026002600E+009, +8.11562685839E-001, +1.63815686812E-002
+5.80028002800E+009, +8.11213476945E-001, +9.58662690531E-003
+5.80030003000E+009, +8.11687562617E-001, +2.22767307635E-003
+5.80032003200E+009, +8.11123268362E-001, -4.61737493047E-003
+5.80034003400E+009, +8.11859730767E-001, -1.25451764679E-002
+5.80036003600E+009, +8.12047516403E-001, -2.03241200111E-002
+5.80038003800E+009, +8.13005066143E-001, -2.83288895627E-002
+5.80040004000E+009, +8.13002983297E-001, -3.58290663946E-002
+5.80042004200E+009, +8.12635894153E-001, -4.32380998864E-002
+5.80044004400E+009, +8.12061499085E-001, -5.07389484020E-002
+5.80046004600E+009, +8.11512344387E-001, -5.82685061222E-002
+5.80048004800E+009, +8.11822297480E-001, -6.66290588710E-002
+5.80050005001E+009, +8.11593396256E-001, -7.44763460147E-002
+5.80052005201E+009, +8.11810732057E-001, -8.31921924370E-002
+5.80054005401E+009, +8.10883220224E-001, -9.05452984022E-002
+5.80056005601E+009, +8.10260612435E-001, -9.90168077056E-002
+5.80058005801E+009, +8.08938389713E-001, -1.06250334229E-001
+5.80060006001E+009, +8.08717786466E-001, -1.15086576476E-001
+5.80062006201E+009, +8.07794449551E-001, -1.23449689641E-001
+5.80064006401E+009, +8.07491948611E-001, -1.32661924808E-001
+5.80066006601E+009, +8.06464938781E-001, -1.41315459232E-001
+5.80068006801E+009, +8.04895207770E-001, -1.49588536624E-001
+5.80070007001E+009, +8.03382551859E-001, -1.58326273632E-001
+5.80072007201E+009, +8.01501154748E-001, -1.66809999934E-001
+5.80074007401E+009, +8.00570412233E-001, -1.76842763976E-001
+5.80076007601E+009, +7.98868128676E-001, -1.86385361897E-001
+5.80078007801E+009, +7.97604524172E-001, -1.96813870438E-001
+5.80080008001E+009, +7.95102588918E-001, -2.06051177061E-001
+5.80082008201E+009, +7.92451314133E-001, -2.16305830267E-001
+5.80084008401E+009, +7.88803773868E-001, -2.25666840368E-001
+5.80086008601E+009, +7.85520321890E-001, -2.36126398614E-001
+5.80088008801E+009, +7.81623442682E-001, -2.46799070482E-001
+5.80090009001E+009, +7.77840754742E-001, -2.58401368386E-001
+5.80092009201E+009, +7.73110140520E-001, -2.70050709030E-001
+5.80094009401E+009, +7.67425260575E-001, -2.81447979863E-001
+5.80096009601E+009, +7.60794899828E-001, -2.93030535185E-001
+5.80098009801E+009, +7.52555925070E-001, -3.03774926607E-001
+5.80100010001E+009, +7.44363770674E-001, -3.15848777865E-001
+5.80102010201E+009, +7.34316111059E-001, -3.26727399297E-001
+5.80104010401E+009, +7.23715020958E-001, -3.38082264629E-001
+5.80106010601E+009, +7.10825141219E-001, -3.47950843315E-001
+5.80108010801E+009, +6.97215169236E-001, -3.56668989841E-001
+5.80110011001E+009, +6.81513328626E-001, -3.63415274208E-001
+5.80112011201E+009, +6.65587049346E-001, -3.68379978278E-001
+5.80114011401E+009, +6.49195885752E-001, -3.71683642107E-001
+5.80116011601E+009, +6.32827820074E-001, -3.72900265186E-001
+5.80118011801E+009, +6.17160379145E-001, -3.71993044539E-001
+5.80120012001E+009, +6.01644065655E-001, -3.68068992376E-001
+5.80122012201E+009, +5.88050291091E-001, -3.62855775741E-001
+5.80124012401E+009, +5.75915762545E-001, -3.55546409681E-001
+5.80126012601E+009, +5.65613684854E-001, -3.47730144612E-001
+5.80128012801E+009, +5.57074261077E-001, -3.39537998641E-001
+5.80130013001E+009, +5.50870342721E-001, -3.31519719719E-001
+5.80132013201E+009, +5.45933250767E-001, -3.22788416029E-001
+5.80134013401E+009, +5.42847491064E-001, -3.14268875004E-001
+5.80136013601E+009, +5.40370825655E-001, -3.05836236258E-001
+5.80138013801E+009, +5.39405989306E-001, -2.99191628054E-001
+5.80140014001E+009, +5.39073521020E-001, -2.93151298947E-001
+5.80142014201E+009, +5.39352966976E-001, -2.88465158424E-001
+5.80144014401E+009, +5.39622084050E-001, -2.83388473699E-001
+5.80146014601E+009, +5.39106319150E-001, -2.77480672948E-001
+5.80148014801E+009, +5.39263986687E-001, -2.71696466238E-001
+5.80150015002E+009, +5.39455943739E-001, -2.64023261900E-001
+5.80152015202E+009, +5.41392282304E-001, -2.56529419113E-001
+5.80154015402E+009, +5.45770497662E-001, -2.46962554656E-001
+5.80156015602E+009, +5.53422193496E-001, -2.37756154867E-001
+5.80158015802E+009, +5.64045148220E-001, -2.29060573026E-001
+5.80160016002E+009, +5.77585878926E-001, -2.22906374956E-001
+5.80162016202E+009, +5.92724701283E-001, -2.18496832513E-001
+5.80164016402E+009, +6.11236623364E-001, -2.16993648803E-001
+5.80166016602E+009, +6.31020973517E-001, -2.21075091461E-001
+5.80168016802E+009, +6.50306470083E-001, -2.30626896706E-001
+5.80170017002E+009, +6.66328077667E-001, -2.45655298518E-001
+5.80172017202E+009, +6.77034335967E-001, -2.62378730334E-001
+5.80174017402E+009, +6.83930530809E-001, -2.80732079146E-001
+5.80176017602E+009, +6.86637888007E-001, -2.98011415620E-001
+5.80178017802E+009, +6.87159151951E-001, -3.15300947440E-001
+5.80180018002E+009, +6.85573566678E-001, -3.30817069231E-001
+5.80182018202E+009, +6.82899748792E-001, -3.45631893988E-001
+5.80184018402E+009, +6.79391000114E-001, -3.58004393242E-001
+5.80186018602E+009, +6.74852698019E-001, -3.68939773977E-001
+5.80188018802E+009, +6.70360110882E-001, -3.78991860434E-001
+5.80190019002E+009, +6.65961049601E-001, -3.88232760550E-001
+5.80192019202E+009, +6.61827559761E-001, -3.97802348166E-001
+5.80194019402E+009, +6.57366961281E-001, -4.06272265643E-001
+5.80196019602E+009, +6.53441704936E-001, -4.15195343564E-001
+5.80198019802E+009, +6.48674868469E-001, -4.22327128024E-001
+5.80200020002E+009, +6.44472705853E-001, -4.29609844540E-001
+5.80202020202E+009, +6.39745170563E-001, -4.35645223139E-001
+5.80204020402E+009, +6.35495255217E-001, -4.43342541903E-001
+5.80206020602E+009, +6.31194212272E-001, -4.50253887352E-001
+5.80208020802E+009, +6.27209739987E-001, -4.57648858854E-001
+5.80210021002E+009, +6.22875609922E-001, -4.63984111678E-001
+5.80212021202E+009, +6.18398850170E-001, -4.69752552922E-001
+5.80214021402E+009, +6.13879019116E-001, -4.75483723933E-001
+5.80216021602E+009, +6.09467884516E-001, -4.80746230511E-001
+5.80218021802E+009, +6.05247499205E-001, -4.87503599532E-001
+5.80220022002E+009, +6.00826183456E-001, -4.93522582269E-001
+5.80222022202E+009, +5.96671057804E-001, -5.00081108630E-001
+5.80224022402E+009, +5.92043565552E-001, -5.05190000844E-001
+5.80226022602E+009, +5.87584949598E-001, -5.10915243569E-001
+5.80228022802E+009, +5.82906931954E-001, -5.15165545808E-001
+5.80230023002E+009, +5.78480293561E-001, -5.21032066256E-001
+5.80232023202E+009, +5.74051397741E-001, -5.26781534500E-001
+5.80234023402E+009, +5.69394216409E-001, -5.32599772803E-001
+5.80236023602E+009, +5.64953463265E-001, -5.37804529995E-001
+5.80238023802E+009, +5.60244351680E-001, -5.42576665018E-001
+5.80240024002E+009, +5.55633236357E-001, -5.47215506707E-001
+5.80242024202E+009, +5.50693950167E-001, -5.51536400014E-001
+5.80244024402E+009, +5.46102889166E-001, -5.57107307861E-001
+5.80246024602E+009, +5.41424952171E-001, -5.62301574937E-001
+5.80248024802E+009, +5.36825246998E-001, -5.67883772163E-001
+5.80250025003E+009, +5.31941166641E-001, -5.72269046568E-001
+5.80252025203E+009, +5.27113954632E-001, -5.76947291613E-001
+5.80254025403E+009, +5.22100776381E-001, -5.80724500373E-001
+5.80256025603E+009, +5.17243187430E-001, -5.85501138154E-001
+5.80258025803E+009, +5.12489636403E-001, -5.90218416765E-001
+5.80260026003E+009, +5.07467951761E-001, -5.95391388643E-001
+5.80262026203E+009, +5.02623473761E-001, -6.00326387904E-001
+5.80264026403E+009, +4.97586900667E-001, -6.04369865382E-001
+5.80266026603E+009, +4.92586536975E-001, -6.08598060677E-001
+5.80268026803E+009, +4.87482966793E-001, -6.12074641895E-001
+5.80270027003E+009, +4.82293457467E-001, -6.16961635912E-001
+5.80272027203E+009, +4.77079941875E-001, -6.20982692408E-001
+5.80274027403E+009, +4.72110058552E-001, -6.26105158748E-001
+5.80276027603E+009, +4.66983772273E-001, -6.30170049329E-001
+5.80278027803E+009, +4.61673420106E-001, -6.34335554231E-001
+5.80280028003E+009, +4.56280044093E-001, -6.37774679165E-001
+5.80282028203E+009, +4.50946024398E-001, -6.41561232467E-001
+5.80284028403E+009, +4.45725235355E-001, -6.45685912421E-001
+5.80286028603E+009, +4.40278736394E-001, -6.49682861877E-001
+5.80288028803E+009, +4.35055532659E-001, -6.54421905960E-001
+5.80290029003E+009, +4.29490237774E-001, -6.57976363153E-001
+5.80292029203E+009, +4.23854084853E-001, -6.61860655753E-001
+5.80294029403E+009, +4.18415059004E-001, -6.64552978505E-001
+5.80296029603E+009, +4.12849434620E-001, -6.68816686116E-001
+5.80298029803E+009, +4.07140030222E-001, -6.71762007648E-001
+5.80300030003E+009, +4.01471905775E-001, -6.76180291832E-001
+5.80302030203E+009, +3.95955673192E-001, -6.79522162179E-001
+5.80304030403E+009, +3.90160923001E-001, -6.83260555203E-001
+5.80306030603E+009, +3.84410271693E-001, -6.86083762364E-001
+5.80308030803E+009, +3.78843846936E-001, -6.88862619908E-001
+5.80310031003E+009, +3.73184609578E-001, -6.92591925930E-001
+5.80312031203E+009, +3.67111962548E-001, -6.96246797387E-001
+5.80314031403E+009, +3.61288239170E-001, -6.99984010049E-001
+5.80316031603E+009, +3.55506541019E-001, -7.02293605947E-001
+5.80318031803E+009, +3.49689849676E-001, -7.05088873618E-001
+5.80320032003E+009, +3.43935946977E-001, -7.07173033439E-001
+5.80322032203E+009, +3.37838697989E-001, -7.11018960844E-001
+5.80324032403E+009, +3.32083701482E-001, -7.13928421347E-001
+5.80326032603E+009, +3.25859681796E-001, -7.17589196765E-001
+5.80328032803E+009, +3.19946654428E-001, -7.20198024147E-001
+5.80330033003E+009, +3.14108100867E-001, -7.22666314595E-001
+5.80332033203E+009, +3.08074927934E-001, -7.24812002402E-001
+5.80334033403E+009, +3.02255770894E-001, -7.26811585878E-001
+5.80336033603E+009, +2.95933576833E-001, -7.30116974325E-001
+5.80338033803E+009, +2.89956266997E-001, -7.32818749414E-001
+5.80340034003E+009, +2.83595856396E-001, -7.36217409496E-001
+5.80342034203E+009, +2.77618732136E-001, -7.37882921081E-001
+5.80344034403E+009, +2.71684333097E-001, -7.39878624051E-001
+5.80346034603E+009, +2.65723434163E-001, -7.41546283702E-001
+5.80348034803E+009, +2.59379426765E-001, -7.44279111720E-001
+5.80350035004E+009, +2.53217926793E-001, -7.46492148588E-001
+5.80352035204E+009, +2.46895832859E-001, -7.49299560845E-001
+5.80354035404E+009, +2.40560629871E-001, -7.51414120309E-001
+5.80356035604E+009, +2.34494140030E-001, -7.53106623487E-001
+5.80358035804E+009, +2.28373523028E-001, -7.54703531968E-001
+5.80360036004E+009, +2.22339223900E-001, -7.56299497755E-001
+5.80362036204E+009, +2.15878919874E-001, -7.58671120317E-001
+5.80364036404E+009, +2.09512340316E-001, -7.60567528184E-001
+5.80366036604E+009, +2.02825176357E-001, -7.63226658972E-001
+5.80368036804E+009, +1.97036348973E-001, -7.64362597215E-001
+5.80370037004E+009, +1.90558311098E-001, -7.66117778254E-001
+5.80372037204E+009, +1.84444169570E-001, -7.66801707301E-001
+5.80374037404E+009, +1.78088330881E-001, -7.68790980821E-001
+5.80376037604E+009, +1.71766180470E-001, -7.70463116885E-001
+5.80378037804E+009, +1.65076166932E-001, -7.72365229224E-001
+5.80380038004E+009, +1.58600157569E-001, -7.73903945919E-001
+5.80382038204E+009, +1.52516947065E-001, -7.74758238520E-001
+5.80384038404E+009, +1.46238900703E-001, -7.75739081937E-001
+5.80386038604E+009, +1.40240680205E-001, -7.76442267346E-001
+5.80388038804E+009, +1.33307657281E-001, -7.78570530034E-001
+5.80390039004E+009, +1.26786730916E-001, -7.79734010170E-001
+5.80392039204E+009, +1.19937350380E-001, -7.81781328659E-001
+5.80394039404E+009, +1.14128717751E-001, -7.81873701224E-001
+5.80396039604E+009, +1.07630385956E-001, -7.82904103099E-001
+5.80398039804E+009, +1.01519266939E-001, -7.82835113755E-001
+5.80400040004E+009, +9.48873942666E-002, -7.83980908558E-001
+5.80402040204E+009, +8.84088249516E-002, -7.85144456992E-001
+5.80404040404E+009, +8.13315714690E-002, -7.86495240090E-001
+5.80406040604E+009, +7.49108486694E-002, -7.87215150914E-001
+5.80408040804E+009, +6.86435377591E-002, -7.87535340952E-001
+5.80410041004E+009, +6.25611988360E-002, -7.87696133051E-001
+5.80412041204E+009, +5.62843286009E-002, -7.87983708375E-001
+5.80414041404E+009, +4.93730901595E-002, -7.88976453196E-001
+5.80416041604E+009, +4.28131542327E-002, -7.89516122994E-001
+5.80418041804E+009, +3.56689886344E-002, -7.90849661429E-001
+5.80420042004E+009, +2.98869157082E-002, -7.90380601402E-001
+5.80422042204E+009, +2.33111587223E-002, -7.90866774556E-001
+5.80424042404E+009, +1.72878480262E-002, -7.90189426270E-001
+5.80426042604E+009, +1.06052906133E-002, -7.90539984007E-001
+5.80428042804E+009, +3.86013649957E-003, -7.90919531015E-001
+5.80430043004E+009, -2.84096627198E-003, -7.91216192796E-001
+5.80432043204E+009, -9.65651583538E-003, -7.91617808882E-001
+5.80434043404E+009, -1.58750905996E-002, -7.91078664503E-001
+5.80436043604E+009, -2.20295773478E-002, -7.90724372293E-001
+5.80438043804E+009, -2.80946468965E-002, -7.89946673860E-001
+5.80440044004E+009, -3.49782693989E-002, -7.90345530164E-001
+5.80442044204E+009, -4.16534634918E-002, -7.90213645930E-001
+5.80444044404E+009, -4.88565668165E-002, -7.90647985121E-001
+5.80446044604E+009, -5.49004985162E-002, -7.89763563921E-001
+5.80448044804E+009, -6.12081249160E-002, -7.89275651459E-001
+5.80450045005E+009, -6.71583610184E-002, -7.88052848681E-001
+5.80452045205E+009, -7.35070243814E-002, -7.87578888718E-001
+5.80454045405E+009, -8.02160567758E-002, -7.87192689186E-001
+5.80456045605E+009, -8.68424880498E-002, -7.86673657267E-001
+5.80458045805E+009, -9.37769467368E-002, -7.86743132753E-001
+5.80460046005E+009, -1.00071560340E-001, -7.85455988735E-001
+5.80462046205E+009, -1.06716620969E-001, -7.84982731003E-001
+5.80464046405E+009, -1.12256943972E-001, -7.83330014420E-001
+5.80466046605E+009, -1.19044920685E-001, -7.82775263199E-001
+5.80468046805E+009, -1.25341645325E-001, -7.81602069988E-001
+5.80470047005E+009, -1.32484097182E-001, -7.81221096982E-001
+5.80472047205E+009, -1.38666022412E-001, -7.80001715326E-001
+5.80474047405E+009, -1.45230711964E-001, -7.79109581955E-001
+5.80476047605E+009, -1.51107839986E-001, -7.77480888942E-001
+5.80478047805E+009, -1.57320481622E-001, -7.76115876430E-001
+5.80480048005E+009, -1.63825825142E-001, -7.74683409904E-001
+5.80482048205E+009, -1.70304492947E-001, -7.73471000147E-001
+5.80484048405E+009, -1.76947060023E-001, -7.72726200079E-001
+5.80486048605E+009, -1.82894236794E-001, -7.70849597133E-001
+5.80488048805E+009, -1.89214852269E-001, -7.69489150968E-001
+5.80490049005E+009, -1.94643101052E-001, -7.67100375151E-001
+5.80492049205E+009, -2.01690516694E-001, -7.66097893906E-001
+5.80494049405E+009, -2.07955062571E-001, -7.64733495370E-001
+5.80496049605E+009, -2.15123293398E-001, -7.63621611419E-001
+5.80498049805E+009, -2.21028025168E-001, -7.61600215915E-001
+5.80500050005E+009, -2.26891828409E-001, -7.59620103208E-001
+5.80502050205E+009, -2.32556908127E-001, -7.57372055341E-001
+5.80504050405E+009, -2.38402491509E-001, -7.55124718647E-001
+5.80506050605E+009, -2.45157899754E-001, -7.53850363892E-001
+5.80508050805E+009, -2.51545616172E-001, -7.51894179061E-001
+5.80510051005E+009, -2.58442179233E-001, -7.50492614663E-001
+5.80512051205E+009, -2.64015072545E-001, -7.48039365057E-001
+5.80514051405E+009, -2.70121651938E-001, -7.46036913407E-001
+5.80516051605E+009, -2.75444522878E-001, -7.43342427312E-001
+5.80518051805E+009, -2.82145190422E-001, -7.41546169329E-001
+5.80520052005E+009, -2.88285643620E-001, -7.39127402714E-001
+5.80522052205E+009, -2.95259160124E-001, -7.37537678455E-001
+5.80524052405E+009, -3.01259879579E-001, -7.34869141439E-001
+5.80526052605E+009, -3.06853131456E-001, -7.32351271172E-001
+5.80528052805E+009, -3.12247488242E-001, -7.29551893191E-001
+5.80530053005E+009, -3.18065014513E-001, -7.26697379113E-001
+5.80532053205E+009, -3.24793803385E-001, -7.24383889914E-001
+5.80534053405E+009, -3.31094580771E-001, -7.22037835477E-001
+5.80536053605E+009, -3.37977095329E-001, -7.19644917127E-001
+5.80538053805E+009, -3.43106962324E-001, -7.16443904886E-001
+5.80540054005E+009, -3.48993812048E-001, -7.13755756194E-001
+5.80542054205E+009, -3.53920238964E-001, -7.10227530517E-001
+5.80544054405E+009, -3.60250823258E-001, -7.07759119444E-001
+5.80546054605E+009, -3.66303901898E-001, -7.04839531348E-001
+5.80548054805E+009, -3.73007018247E-001, -7.02029892112E-001
+5.80550055006E+009, -3.78912159291E-001, -6.99069107392E-001
+5.80552055206E+009, -3.83778597855E-001, -6.95748059809E-001
+5.80554055406E+009, -3.89210398651E-001, -6.92446644850E-001
+5.80556055606E+009, -3.94239824029E-001, -6.88833434178E-001
+5.80558055806E+009, -4.00638251880E-001, -6.85926117765E-001
+5.80560056006E+009, -4.06413567758E-001, -6.82606633757E-001
+5.80562056206E+009, -4.13100195956E-001, -6.79892685614E-001
+5.80564056406E+009, -4.17637386407E-001, -6.76090579644E-001
+5.80566056606E+009, -4.23245990321E-001, -6.72456773205E-001
+5.80568056806E+009, -4.27937483266E-001, -6.68808725016E-001
+5.80570057006E+009, -4.33668093554E-001, -6.65198097720E-001
+5.80572057206E+009, -4.39432349337E-001, -6.61898289344E-001
+5.80574057406E+009, -4.45516265089E-001, -6.58465255217E-001
+5.80576057606E+009, -4.51073595068E-001, -6.54913784064E-001
+5.80578057806E+009, -4.55752111645E-001, -6.51106881628E-001
+5.80580058006E+009, -4.60745702047E-001, -6.47263265808E-001
+5.80582058206E+009, -4.65509844300E-001, -6.43231122313E-001
+5.80584058406E+009, -4.71749508737E-001, -6.39717418610E-001
+5.80586058606E+009, -4.76823161890E-001, -6.35736844992E-001
+5.80588058806E+009, -4.82952355000E-001, -6.32346731373E-001
+5.80590059006E+009, -4.87499872206E-001, -6.27979861694E-001
+5.80592059206E+009, -4.92508271898E-001, -6.23922085124E-001
+5.80594059406E+009, -4.96504731434E-001, -6.19526706631E-001
+5.80596059606E+009, -5.01873688215E-001, -6.15760588551E-001
+5.80598059806E+009, -5.07413158569E-001, -6.11666877153E-001
+5.80600060006E+009, -5.12981455102E-001, -6.07633321791E-001
+5.80602060206E+009, -5.18214910376E-001, -6.03485315297E-001
+5.80604060406E+009, -5.22575811999E-001, -5.98982610575E-001
+5.80606060606E+009, -5.27466437962E-001, -5.94879540211E-001
+5.80608060806E+009, -5.31443891717E-001, -5.90417474167E-001
+5.80610061006E+009, -5.37120680835E-001, -5.86081089834E-001
+5.80612061206E+009, -5.41851591558E-001, -5.81757531042E-001
+5.80614061406E+009, -5.47661701760E-001, -5.77515220782E-001
+5.80616061606E+009, -5.51918427305E-001, -5.72839073513E-001
+5.80618061806E+009, -5.56412885208E-001, -5.68445039490E-001
+5.80620062006E+009, -5.60218176644E-001, -5.63795253092E-001
+5.80622062206E+009, -5.65042281986E-001, -5.59016492479E-001
+5.80624062406E+009, -5.69946146848E-001, -5.54535273883E-001
+5.80626062606E+009, -5.74691815547E-001, -5.50094274747E-001
+5.80628062806E+009, -5.79641374359E-001, -5.45312371190E-001
+5.80630063006E+009, -5.83643093910E-001, -5.40492682675E-001
