"# Channel 1"
"# Trace 1"
Frequency, Formatted Data, Formatted Data
+6.00000000000E+009, -5.50713345681E-001, +4.46753218064E-001
+6.00002000200E+009, -5.49920644790E-001, +4.59990927409E-001
+6.00004000400E+009, -5.48196986965E-001, +4.75188240861E-001
+6.00006000600E+009, -5.44805025407E-001, +4.89496635664E-001
+6.00008000800E+009, -5.39791898716E-001, +5.04606980631E-001
+6.00010001000E+009, -5.32882136805E-001, +5.19320192870E-001
+6.00012001200E+009, -5.23894127439E-001, +5.35800867724E-001
+6.00014001400E+009, -5.12134287148E-001, +5.52229519592E-001
+6.00016001600E+009, -4.97418249643E-001, +5.68004633163E-001
+6.00018001800E+009, -4.79368230369E-001, +5.81416290800E-001
+6.00020002000E+009, -4.58004765537E-001, +5.91011550657E-001
+6.00022002200E+009, -4.34160789921E-001, +5.96579839853E-001
+6.00024002400E+009, -4.09563026726E-001, +5.96165966929E-001
+6.00026002600E+009, -3.85513785582E-001, +5.91250965962E-001
+6.00028002800E+009, -3.64988262401E-001, +5.80301914903E-001
+6.00030003000E+009, -3.49076718175E-001, +5.65516061502E-001
+6.00032003200E+009, -3.39627934780E-001, +5.47903575333E-001
+6.00034003400E+009, -3.36422226544E-001, +5.30529461855E-001
+6.00036003600E+009, -3.39188475978E-001, +5.14543568902E-001
+6.00038003800E+009, -3.45201205806E-001, +5.03088222973E-001
+6.00040004000E+009, -3.53862263050E-001, +4.96077421734E-001
+6.00042004200E+009, -3.62835918206E-001, +4.93509802460E-001
+6.00044004400E+009, -3.72060394711E-001, +4.94221587011E-001
+6.00046004600E+009, -3.80351084743E-001, +4.96559941878E-001
+6.00048004800E+009, -3.87517503131E-001, +5.01893947489E-001
+6.00050005001E+009, -3.93387753367E-001, +5.08083641313E-001
+6.00052005201E+009, -3.97649058533E-001, +5.17053680903E-001
+6.00054005401E+009, -4.00576174683E-001, +5.26405276539E-001
+6.00056005601E+009, -4.02462473648E-001, +5.37330789206E-001
+6.00058005801E+009, -4.03043014542E-001, +5.47911393754E-001
+6.00060006001E+009, -4.02286781475E-001, +5.58702714218E-001
+6.00062006201E+009, -4.00170164964E-001, +5.69674655393E-001
+6.00064006401E+009, -3.96754915410E-001, +5.81930777049E-001
+6.00066006601E+009, -3.91692860593E-001, +5.94697273517E-001
+6.00068006801E+009, -3.84474789567E-001, +6.08190038680E-001
+6.00070007001E+009, -3.74623328159E-001, +6.21437166303E-001
+6.00072007201E+009, -3.61988475093E-001, +6.31890486782E-001
+6.00074007401E+009, -3.46522486958E-001, +6.39514058643E-001
+6.00076007601E+009, -3.31319129587E-001, +6.41613178457E-001
+6.00078007801E+009, -3.17714022716E-001, +6.42194660986E-001
+6.00080008001E+009, -3.06229510504E-001, +6.40405482726E-001
+6.00082008201E+009, -2.96957075114E-001, +6.36185380055E-001
+6.00084008401E+009, -2.95270195692E-001, +6.30485628939E-001
+6.00086008601E+009, -2.98562651673E-001, +6.30884074853E-001
+6.00088008801E+009, -3.00966661025E-001, +6.37965944065E-001
+6.00090009001E+009, -2.99068468265E-001, +6.49659690799E-001
+6.00092009201E+009, -2.92709604977E-001, +6.63274784763E-001
+6.00094009401E+009, -2.82339179459E-001, +6.77270959906E-001
+6.00096009601E+009, -2.68209581201E-001, +6.90948298795E-001
+6.00098009801E+009, -2.50722276827E-001, +7.01947659876E-001
+6.00100010001E+009, -2.28885281742E-001, +7.11491231761E-001
+6.00102010201E+009, -2.02843355012E-001, +7.16838258589E-001
+6.00104010401E+009, -1.71786953087E-001, +7.17251464468E-001
+6.00106010601E+009, -1.39040597049E-001, +7.08332271035E-001
+6.00108010801E+009, -1.07798064219E-001, +6.88244273037E-001
+6.00110011001E+009, -8.62957838811E-002, +6.57038390990E-001
+6.00112011201E+009, -7.83543423300E-002, +6.20223650776E-001
+6.00114011401E+009, -8.41981402292E-002, +5.86187011678E-001
+6.00116011601E+009, -1.00191057652E-001, +5.59025100142E-001
+6.00118011801E+009, -1.21888261803E-001, +5.43493125931E-001
+6.00120012001E+009, -1.44427598239E-001, +5.37789974174E-001
+6.00122012201E+009, -1.64306180074E-001, +5.41690657284E-001
+6.00124012401E+009, -1.80128752417E-001, +5.49746544624E-001
+6.00126012601E+009, -1.91008063358E-001, +5.62003820863E-001
+6.00128012801E+009, -1.97443706228E-001, +5.75210911930E-001
+6.00130013001E+009, -1.99555735342E-001, +5.90067671774E-001
+6.00132013201E+009, -1.98332336649E-001, +6.05449346587E-001
+6.00134013401E+009, -1.93802211068E-001, +6.20964956284E-001
+6.00136013601E+009, -1.85894665980E-001, +6.36448754313E-001
+6.00138013801E+009, -1.74254364658E-001, +6.51142286368E-001
+6.00140014001E+009, -1.57337404474E-001, +6.65020240387E-001
+6.00142014201E+009, -1.33379247235E-001, +6.75416050870E-001
+6.00144014401E+009, -1.00712222006E-001, +6.77207520428E-001
+6.00146014601E+009, -6.76236871225E-002, +6.60763355222E-001
+6.00148014801E+009, -4.73987629125E-002, +6.33211118131E-001
+6.00150015002E+009, -3.69170700313E-002, +6.00211625936E-001
+6.00152015202E+009, -4.14997712573E-002, +5.61301427951E-001
+6.00154015402E+009, -6.41385419275E-002, +5.34462086222E-001
+6.00156015602E+009, -9.03669267455E-002, +5.27100497069E-001
+6.00158015802E+009, -1.11460191305E-001, +5.32210030901E-001
+6.00160016002E+009, -1.25985127701E-001, +5.43840763117E-001
+6.00162016202E+009, -1.34597493546E-001, +5.57546921215E-001
+6.00164016402E+009, -1.38708085908E-001, +5.70229163952E-001
+6.00166016602E+009, -1.39393540767E-001, +5.81872603776E-001
+6.00168016802E+009, -1.38130572680E-001, +5.91621459141E-001
+6.00170017002E+009, -1.34897184710E-001, +6.01559008025E-001
+6.00172017202E+009, -1.31250773947E-001, +6.09445085269E-001
+6.00174017402E+009, -1.26457069680E-001, +6.17426780633E-001
+6.00176017602E+009, -1.21671715487E-001, +6.23192382189E-001
+6.00178017802E+009, -1.16675250406E-001, +6.28650620734E-001
+6.00180018002E+009, -1.11609266550E-001, +6.33086915599E-001
+6.00182018202E+009, -1.06008151665E-001, +6.37692376349E-001
+6.00184018402E+009, -1.00156763342E-001, +6.42420786348E-001
+6.00186018602E+009, -9.41539023800E-002, +6.46892480754E-001
+6.00188018802E+009, -8.80695214209E-002, +6.50864719066E-001
+6.00190019002E+009, -8.24383504217E-002, +6.53396763257E-001
+6.00192019202E+009, -7.65280189305E-002, +6.56374364044E-001
+6.00194019402E+009, -7.10537648378E-002, +6.58444485491E-001
+6.00196019602E+009, -6.46618348280E-002, +6.61442071410E-001
+6.00198019802E+009, -5.83316937331E-002, +6.63913536595E-001
+6.00200020002E+009, -5.16303540930E-002, +6.67154073332E-001
+6.00202020202E+009, -4.57726501934E-002, +6.68645501586E-001
+6.00204020402E+009, -3.98852805585E-002, +6.70238864791E-001
+6.00206020602E+009, -3.41435548456E-002, +6.71330259839E-001
+6.00208020802E+009, -2.81716109290E-002, +6.72972168289E-001
+6.00210021002E+009, -2.15440792408E-002, +6.74782259761E-001
+6.00212021202E+009, -1.50696594048E-002, +6.76645767706E-001
+6.00214021402E+009, -8.60023571361E-003, +6.78405091478E-001
+6.00216021602E+009, -2.89748367545E-003, +6.78814621781E-001
+6.00218021802E+009, +3.38915551546E-003, +6.79973662164E-001
+6.00220022002E+009, +8.63096769893E-003, +6.79623599834E-001
+6.00222022202E+009, +1.53624047932E-002, +6.81222076732E-001
+6.00224022402E+009, +2.15248894195E-002, +6.81705429333E-001
+6.00226022602E+009, +2.84245196770E-002, +6.83213796181E-001
+6.00228022802E+009, +3.43521932979E-002, +6.83408245529E-001
+6.00230023002E+009, +4.02075612701E-002, +6.83518226003E-001
+6.00232023202E+009, +4.56405054628E-002, +6.83349625565E-001
+6.00234023402E+009, +5.16656136698E-002, +6.83223605285E-001
+6.00236023602E+009, +5.81874646622E-002, +6.83868601770E-001
+6.00238023802E+009, +6.46224575176E-002, +6.84205323417E-001
+6.00240024002E+009, +7.13010956798E-002, +6.84837500977E-001
+6.00242024202E+009, +7.68415375173E-002, +6.84171811439E-001
+6.00244024402E+009, +8.26505186117E-002, +6.83867936497E-001
+6.00246024602E+009, +8.80364109982E-002, +6.82849478455E-001
+6.00248024802E+009, +9.44087707953E-002, +6.82922243501E-001
+6.00250025003E+009, +1.00747058249E-001, +6.82712856398E-001
+6.00252025203E+009, +1.07622528021E-001, +6.83151905706E-001
+6.00254025403E+009, +1.13348149654E-001, +6.82287052260E-001
+6.00256025603E+009, +1.19204470883E-001, +6.81607770247E-001
+6.00258025803E+009, +1.24488597004E-001, +6.80423723714E-001
+6.00260026003E+009, +1.30277756079E-001, +6.79379857256E-001
+6.00262026203E+009, +1.36521857268E-001, +6.79075331985E-001
+6.00264026403E+009, +1.42828470249E-001, +6.78283292282E-001
+6.00266026603E+009, +1.49512954982E-001, +6.78000462005E-001
+6.00268026803E+009, +1.54563251838E-001, +6.76532557151E-001
+6.00270027003E+009, +1.60376955034E-001, +6.75426366508E-001
+6.00272027203E+009, +1.65498425536E-001, +6.73629076334E-001
+6.00274027403E+009, +1.71830940405E-001, +6.72783534552E-001
+6.00276027603E+009, +1.77681845561E-001, +6.71699957452E-001
+6.00278027803E+009, +1.84193594247E-001, +6.70897681067E-001
+6.00280028003E+009, +1.90051455489E-001, +6.69509547077E-001
+6.00282028203E+009, +1.95284561532E-001, +6.67861009922E-001
+6.00284028403E+009, +2.00655426172E-001, +6.66229246242E-001
+6.00286028603E+009, +2.05851030289E-001, +6.64375590241E-001
+6.00288028803E+009, +2.12208220220E-001, +6.63328674143E-001
+6.00290029003E+009, +2.18297922441E-001, +6.61862473585E-001
+6.00292029203E+009, +2.24815526189E-001, +6.60601563695E-001
+6.00294029403E+009, +2.29738701910E-001, +6.58551555306E-001
+6.00296029603E+009, +2.35121961953E-001, +6.56682111563E-001
+6.00298029803E+009, +2.39926967221E-001, +6.54290496512E-001
+6.00300030003E+009, +2.45888805377E-001, +6.52482102662E-001
+6.00302030203E+009, +2.51731641125E-001, +6.50967966915E-001
+6.00304030403E+009, +2.58081955478E-001, +6.49464015720E-001
+6.00306030603E+009, +2.63539791206E-001, +6.47534887882E-001
+6.00308030803E+009, +2.68882355765E-001, +6.45054003431E-001
+6.00310031003E+009, +2.73734185278E-001, +6.42721078562E-001
+6.00312031203E+009, +2.78819705425E-001, +6.40204618683E-001
+6.00314031403E+009, +2.84666704209E-001, +6.38362852220E-001
+6.00316031603E+009, +2.90202243920E-001, +6.36089567935E-001
+6.00318031803E+009, +2.96516163522E-001, +6.34283778157E-001
+6.00320032003E+009, +3.01182683925E-001, +6.31643847485E-001
+6.00322032203E+009, +3.06636602193E-001, +6.29144890311E-001
+6.00324032403E+009, +3.10768123787E-001, +6.26235571775E-001
+6.00326032603E+009, +3.16474551399E-001, +6.23921357937E-001
+6.00328032803E+009, +3.21977312762E-001, +6.21656541126E-001
+6.00330033003E+009, +3.27920669478E-001, +6.18982613310E-001
+6.00332033203E+009, +3.33514690488E-001, +6.16754538784E-001
+6.00334033403E+009, +3.37917273277E-001, +6.13649332741E-001
+6.00336033603E+009, +3.42925727353E-001, +6.10911462338E-001
+6.00338033803E+009, +3.47351468081E-001, +6.07787048881E-001
+6.00340034003E+009, +3.53169679943E-001, +6.05134535717E-001
+6.00342034203E+009, +3.58131912692E-001, +6.02370095722E-001
+6.00344034403E+009, +3.64038146630E-001, +5.99678739267E-001
+6.00346034603E+009, +3.68635506559E-001, +5.96695358314E-001
+6.00348034803E+009, +3.73342799215E-001, +5.93556691802E-001
+6.00350035004E+009, +3.77407821928E-001, +5.90267245502E-001
+6.00352035204E+009, +3.82401671728E-001, +5.87083739485E-001
+6.00354035404E+009, +3.87720465716E-001, +5.84364030182E-001
+6.00356035604E+009, +3.93236261256E-001, +5.81223747023E-001
+6.00358035804E+009, +3.98414741167E-001, +5.78229299350E-001
+6.00360036004E+009, +4.02603660623E-001, +5.74840806045E-001
+6.00362036204E+009, +4.07077167520E-001, +5.71338382854E-001
+6.00364036404E+009, +4.11070668942E-001, +5.67868143915E-001
+6.00366036604E+009, +4.16292622084E-001, +5.64516794460E-001
+6.00368036804E+009, +4.21335972624E-001, +5.61284589040E-001
+6.00370037004E+009, +4.26712017966E-001, +5.58148014630E-001
+6.00372037204E+009, +4.31141575424E-001, +5.54619201967E-001
+6.00374037404E+009, +4.35318136923E-001, +5.50954161864E-001
+6.00376037604E+009, +4.39049713324E-001, +5.47227732272E-001
+6.00378037804E+009, +4.43664890581E-001, +5.43606908689E-001
+6.00380038004E+009, +4.48462336531E-001, +5.40161722486E-001
+6.00382038204E+009, +4.53667465135E-001, +5.36589780272E-001
+6.00384038404E+009, +4.58624058645E-001, +5.33113732347E-001
+6.00386038604E+009, +4.62290403373E-001, +5.29251795555E-001
+6.00388038804E+009, +4.66486543477E-001, +5.25373313036E-001
+6.00390039004E+009, +4.69828913039E-001, +5.21338281905E-001
+6.00392039204E+009, +4.74832318309E-001, +5.17556677029E-001
+6.00394039404E+009, +4.79239776460E-001, +5.13681887917E-001
+6.00396039604E+009, +4.84608947114E-001, +5.10013762810E-001
+6.00398039804E+009, +4.88510167423E-001, +5.05978202780E-001
+6.00400040004E+009, +4.92314424647E-001, +5.01871287274E-001
+6.00402040204E+009, +4.95775473987E-001, +4.98001624457E-001
+6.00404040404E+009, +4.99453475371E-001, +4.93851219040E-001
+6.00406040604E+009, +5.04124120212E-001, +4.89604922942E-001
+6.00408040804E+009, +5.08603497571E-001, +4.85602135473E-001
+6.00410041004E+009, +5.13398069326E-001, +4.81583566549E-001
+6.00412041204E+009, +5.16536489582E-001, +4.77199381029E-001
+6.00414041404E+009, +5.20182709673E-001, +4.73182103308E-001
+6.00416041604E+009, +5.22932356353E-001, +4.68702700749E-001
+6.00418041804E+009, +5.27467673208E-001, +4.64728424820E-001
+6.00420042004E+009, +5.31567842040E-001, +4.60336133938E-001
+6.00422042204E+009, +5.36174146602E-001, +4.55936945514E-001
+6.00424042404E+009, +5.39859988320E-001, +4.51673081720E-001
+6.00426042604E+009, +5.43078544648E-001, +4.47267525308E-001
+6.00428042804E+009, +5.46148931686E-001, +4.42823573928E-001
+6.00430043004E+009, +5.49526968509E-001, +4.38360452535E-001
+6.00432043204E+009, +5.53755819117E-001, +4.33779953567E-001
+6.00434043404E+009, +5.57643252609E-001, +4.29244796656E-001
+6.00436043604E+009, +5.61742260163E-001, +4.24726348377E-001
+6.00438043804E+009, +5.64431768875E-001, +4.20021209756E-001
+6.00440044004E+009, +5.67952656156E-001, +4.15393488536E-001
+6.00442044204E+009, +5.70058109862E-001, +4.11001214437E-001
+6.00444044404E+009, +5.73904532946E-001, +4.06144546654E-001
+6.00446044604E+009, +5.77396418609E-001, +4.01507555844E-001
+6.00448044804E+009, +5.81511795314E-001, +3.96731076691E-001
+6.00450045005E+009, +5.84706362691E-001, +3.91968712326E-001
+6.00452045205E+009, +5.87641919101E-001, +3.87173208179E-001
+6.00454045405E+009, +5.89945693602E-001, +3.82577530957E-001
+6.00456045605E+009, +5.92593564809E-001, +3.77616170135E-001
+6.00458045805E+009, +5.96399590074E-001, +3.72666218178E-001
+6.00460046005E+009, +5.99634567351E-001, +3.67971774917E-001
+6.00462046205E+009, +6.03381235230E-001, +3.62973746699E-001
+6.00464046405E+009, +6.05739045785E-001, +3.58093593018E-001
+6.00466046605E+009, +6.08431931195E-001, +3.53041329285E-001
+6.00468046805E+009, +6.10502802368E-001, +3.48507881282E-001
+6.00470047005E+009, +6.13315420185E-001, +3.43447070268E-001
+6.00472047205E+009, +6.16505199137E-001, +3.38340754286E-001
+6.00474047405E+009, +6.19787791541E-001, +3.33207705024E-001
+6.00476047605E+009, +6.22603016338E-001, +3.28151969491E-001
+6.00478047805E+009, +6.25088760264E-001, +3.23162821949E-001
+6.00480048005E+009, +6.27052565043E-001, +3.18198428719E-001
+6.00482048205E+009, +6.28943850871E-001, +3.13254427026E-001
+6.00484048405E+009, +6.32183312850E-001, +3.07991869719E-001
+6.00486048605E+009, +6.35000470232E-001, +3.02892684777E-001
+6.00488048805E+009, +6.38248002970E-001, +2.97637147290E-001
+6.00490049005E+009, +6.40066945071E-001, +2.92364746420E-001
+6.00492049205E+009, +6.42290761546E-001, +2.87254774472E-001
+6.00494049405E+009, +6.43492778098E-001, +2.82481680268E-001
+6.00496049605E+009, +6.45930843220E-001, +2.77023711895E-001
+6.00498049805E+009, +6.48490156135E-001, +2.71906344875E-001
+6.00500050005E+009, +6.51331350711E-001, +2.66414371579E-001
+6.00502050205E+009, +6.53792598199E-001, +2.60908883061E-001
+6.00504050405E+009, +6.55223601234E-001, +2.55955014501E-001
+6.00506050605E+009, +6.56877949802E-001, +2.50862983175E-001
+6.00508050805E+009, +6.58248307060E-001, +2.45557287602E-001
+6.00510051005E+009, +6.60699026487E-001, +2.40056606334E-001
+6.00512051205E+009, +6.63094160346E-001, +2.34794910104E-001
+6.00514051405E+009, +6.65769598697E-001, +2.28993165170E-001
+6.00516051605E+009, +6.67104942865E-001, +2.23834103176E-001
+6.00518051805E+009, +6.68594962300E-001, +2.18546829565E-001
+6.00520052005E+009, +6.69582049487E-001, +2.13334947444E-001
+6.00522052205E+009, +6.71475737951E-001, +2.07850481970E-001
+6.00524052405E+009, +6.73581376356E-001, +2.02405860562E-001
+6.00526052605E+009, +6.75564461607E-001, +1.96753695409E-001
+6.00528052805E+009, +6.77579831075E-001, +1.91123044624E-001
+6.00530053005E+009, +6.78456730496E-001, +1.85978070601E-001
+6.00532053205E+009, +6.79479347481E-001, +1.80632673741E-001
+6.00534053405E+009, +6.80110221840E-001, +1.75382871357E-001
+6.00536053605E+009, +6.82144458548E-001, +1.69689733076E-001
+6.00538053805E+009, +6.83724284173E-001, +1.63999380193E-001
+6.00540054005E+009, +6.85950628182E-001, +1.58015123818E-001
+6.00542054205E+009, +6.86607559927E-001, +1.52737807263E-001
+6.00544054405E+009, +6.87687334179E-001, +1.47365845870E-001
+6.00546054605E+009, +6.87924845459E-001, +1.42244502836E-001
+6.00548054805E+009, +6.89236824389E-001, +1.36642487034E-001
+6.00550055006E+009, +6.90802356479E-001, +1.30731410301E-001
+6.00552055206E+009, +6.92111136990E-001, +1.24996788935E-001
+6.00554055406E+009, +6.93565812145E-001, +1.19174897929E-001
+6.00556055606E+009, +6.93883964255E-001, +1.13960160789E-001
+6.00558055806E+009, +6.94636888012E-001, +1.08401143613E-001
+6.00560056006E+009, +6.94780157778E-001, +1.03272783608E-001
+6.00562056206E+009, +6.96048974196E-001, +9.74558309908E-002
+6.00564056406E+009, +6.96967695030E-001, +9.17910931054E-002
+6.00566056606E+009, +6.98405213498E-001, +8.56582409609E-002
+6.00568056806E+009, +6.98799608612E-001, +8.01022520933E-002
+6.00570057006E+009, +6.99101257188E-001, +7.49012986259E-002
+6.00572057206E+009, +6.99044633665E-001, +6.95725058232E-002
+6.00574057406E+009, +6.99406160293E-001, +6.40316622192E-002
+6.00576057606E+009, +7.00305608687E-001, +5.81839448131E-002
+6.00578057806E+009, +7.00826089612E-001, +5.26155874288E-002
+6.00580058006E+009, +7.01954286372E-001, +4.63609238260E-002
+6.00582058206E+009, +7.01834757762E-001, +4.09106570453E-002
+6.00584058406E+009, +7.02166035659E-001, +3.55663030018E-002
+6.00586058606E+009, +7.01717273925E-001, +3.01822583725E-002
+6.00588058806E+009, +7.02179149990E-001, +2.44108538190E-002
+6.00590059006E+009, +7.02527784186E-001, +1.87121246884E-002
+6.00592059206E+009, +7.03207031049E-001, +1.25001886807E-002
+6.00594059406E+009, +7.03392010120E-001, +6.88284869684E-003
+6.00596059606E+009, +7.03210310690E-001, +1.42818717932E-003
+6.00598059806E+009, +7.02612456294E-001, -3.60159367098E-003
+6.00600060006E+009, +7.02000045078E-001, -9.10168891429E-003
+6.00602060206E+009, +7.02482329064E-001, -1.51673113358E-002
+6.00604060406E+009, +7.02633437791E-001, -2.10390430719E-002
+6.00606060606E+009, +7.03185944667E-001, -2.73241985251E-002
+6.00608060806E+009, +7.02157113941E-001, -3.22471577910E-002
+6.00610061006E+009, +7.01777962638E-001, -3.77536040810E-002
+6.00612061206E+009, +7.00620266010E-001, -4.27139897352E-002
+6.00614061406E+009, +7.00472850521E-001, -4.87882020650E-002
+6.00616061606E+009, +7.00477384960E-001, -5.45548305566E-002
+6.00618061806E+009, +7.00696754975E-001, -6.08316905711E-002
+6.00620062006E+009, +7.00227517999E-001, -6.63762042205E-002
+6.00622062206E+009, +6.99305414788E-001, -7.18821798991E-002
+6.00624062406E+009, +6.98268405241E-001, -7.69528144224E-002
+6.00626062606E+009, +6.96969113097E-001, -8.19675521365E-002
+6.00628062806E+009, +6.96845571538E-001, -8.80963853515E-002
+6.00630063006E+009, +6.96258612572E-001, -9.36510466856E-002
