!Keysight Technologies,E5063A,MY54502693,A.05.04
!Date: Mon Oct 12 06:51:37 2020
!Data & Calibration Information:
!Freq	S11:NONE(--)	S21:NONE(--)	S12:NONE(--)	S22:NONE(--)
# Hz S RI R 50
4600000000.000	0.000000e+000	0.000000e+000	1.124379e+000	-1.144566e+000	0.000000e+000	0.000000e+000	0.000000e+000	0.000000e+000
4600020002.000	0.000000e+000	0.000000e+000	1.113854e+000	-1.156792e+000	0.000000e+000	0.000000e+000	0.000000e+000	0.000000e+000
4600040004.000	0.000000e+000	0.000000e+000	1.102998e+000	-1.169218e+000	0.000000e+000	0.000000e+000	0.000000e+000	0.000000e+000
4600060006.001	0.000000e+000	0.000000e+000	1.092543e+000	-1.184952e+000	0.000000e+000	0.000000e+000	0.000000e+000	0.000000e+000
4600080008.001	0.000000e+000	0.000000e+000	1.081588e+000	-1.198746e+000	0.000000e+000	0.000000e+000	0.000000e+000	0.000000e+000
4600100010.001	0.000000e+000	0.000000e+000	1.070408e+000	-1.213273e+000	0.000000e+000	0.000000e+000	0.000000e+000	0.000000e+000
4600120012.001	0.000000e+000	0.000000e+000	1.059102e+000	-1.224099e+000	0.000000e+000	0.000000e+000	0.000000e+000	0.000000e+000
4600140014.001	0.000000e+000	0.000000e+000	1.047539e+000	-1.236471e+000	0.000000e+000	0.000000e+000	0.000000e+000	0.000000e+000
4600160016.002	0.000000e+000	0.000000e+000	1.035881e+000	-1.246370e+000	0.000000e+000	0.000000e+000	0.000000e+000	0.000000e+000
4600180018.002	0.000000e+000	0.000000e+000	1.024171e+000	-1.259500e+000	0.000000e+000	0.000000e+000	0.000000e+000	0.000000e+000
4600200020.002	0.000000e+000	0.000000e+000	1.012331e+000	-1.272308e+000	0.000000e+000	0.000000e+000	0.000000e+000	0.000000e+000
4600220022.002	0.000000e+000	0.000000e+000	1.000430e+000	-1.286157e+000	0.000000e+000	0.000000e+000	0.000000e+000	0.000000e+000
4600240024.002	0.000000e+000	0.000000e+000	9.884112e-001	-1.297536e+000	0.000000e+000	0.000000e+000	0.000000e+000	0.000000e+000
4600260026.003	0.000000e+000	0.000000e+000	9.757741e-001	-1.307662e+000	0.000000e+000	0.000000e+000	0.000000e+000	0.000000e+000
4600280028.003	0.000000e+000	0.000000e+000	9.632987e-001	-1.317764e+000	0.000000e+000	0.000000e+000	0.000000e+000	0.000000e+000
4600300030.003	0.000000e+000	0.000000e+000	9.508256e-001	-1.327759e+000	0.000000e+000	0.000000e+000	0.000000e+000	0.000000e+000
4600320032.003	0.000000e+000	0.000000e+000	9.382755e-001	-1.340614e+000	0.000000e+000	0.000000e+000	0.000000e+000	0.000000e+000
4600340034.003	0.000000e+000	0.000000e+000	9.256800e-001	-1.352223e+000	0.000000e+000	0.000000e+000	0.000000e+000	0.000000e+000
4600360036.004	0.000000e+000	0.000000e+000	9.123981e-001	-1.364474e+000	0.000000e+000	0.000000e+000	0.000000e+000	0.000000e+000
4600380038.004	0.000000e+000	0.000000e+000	8.998347e-001	-1.373235e+000	0.000000e+000	0.000000e+000	0.000000e+000	0.000000e+000
4600400040.004	0.000000e+000	0.000000e+000	8.865315e-001	-1.382761e+000	0.000000e+000	0.000000e+000	0.000000e+000	0.000000e+000
4600420042.004	0.000000e+000	0.000000e+000	8.735004e-001	-1.391035e+000	0.000000e+000	0.000000e+000	0.000000e+000	0.000000e+000
4600440044.004	0.000000e+000	0.000000e+000	8.600442e-001	-1.401690e+000	0.000000e+000	0.000000e+000	0.000000e+000	0.000000e+000
4600460046.005	0.000000e+000	0.000000e+000	8.466940e-001	-1.412089e+000	0.000000e+000	0.000000e+000	0.000000e+000	0.000000e+000
4600480048.005	0.000000e+000	0.000000e+000	8.329894e-001	-1.423951e+000	0.000000e+000	0.000000e+000	0.000000e+000	0.000000e+000
4600500050.005	0.000000e+000	0.000000e+000	8.192676e-001	-1.433354e+000	0.000000e+000	0.000000e+000	0.000000e+000	0.000000e+000
4600520052.005	0.000000e+000	0.000000e+000	8.057824e-001	-1.441129e+000	0.000000e+000	0.000000e+000	0.000000e+000	0.000000e+000
4600540054.005	0.000000e+000	0.000000e+000	7.917192e-001	-1.448996e+000	0.000000e+000	0.000000e+000	0.000000e+000	0.000000e+000
4600560056.006	0.000000e+000	0.000000e+000	7.781139e-001	-1.456648e+000	0.000000e+000	0.000000e+000	0.000000e+000	0.000000e+000
4600580058.006	0.000000e+000	0.000000e+000	7.639290e-001	-1.467788e+000	0.000000e+000	0.000000e+000	0.000000e+000	0.000000e+000
4600600060.006	0.000000e+000	0.000000e+000	7.496943e-001	-1.476818e+000	0.000000e+000	0.000000e+000	0.000000e+000	0.000000e+000
4600620062.006	0.000000e+000	0.000000e+000	7.349548e-001	-1.487927e+000	0.000000e+000	0.000000e+000	0.000000e+000	0.000000e+000
4600640064.006	0.000000e+000	0.000000e+000	7.210683e-001	-1.494789e+000	0.000000e+000	0.000000e+000	0.000000e+000	0.000000e+000
4600660066.007	0.000000e+000	0.000000e+000	7.065696e-001	-1.502211e+000	0.000000e+000	0.000000e+000	0.000000e+000	0.000000e+000
4600680068.007	0.000000e+000	0.000000e+000	6.923173e-001	-1.507654e+000	0.000000e+000	0.000000e+000	0.000000e+000	0.000000e+000
4600700070.007	0.000000e+000	0.000000e+000	6.776939e-001	-1.516558e+000	0.000000e+000	0.000000e+000	0.000000e+000	0.000000e+000
4600720072.007	0.000000e+000	0.000000e+000	6.625985e-001	-1.525629e+000	0.000000e+000	0.000000e+000	0.000000e+000	0.000000e+000
4600740074.007	0.000000e+000	0.000000e+000	6.476336e-001	-1.534925e+000	0.000000e+000	0.000000e+000	0.000000e+000	0.000000e+000
4600760076.008	0.000000e+000	0.000000e+000	6.323592e-001	-1.543291e+000	0.000000e+000	0.000000e+000	0.000000e+000	0.000000e+000
4600780078.008	0.000000e+000	0.000000e+000	6.179122e-001	-1.548669e+000	0.000000e+000	0.000000e+000	0.000000e+000	0.000000e+000
4600800080.008	0.000000e+000	0.000000e+000	6.025520e-001	-1.554323e+000	0.000000e+000	0.000000e+000	0.000000e+000	0.000000e+000
4600820082.008	0.000000e+000	0.000000e+000	5.880774e-001	-1.559545e+000	0.000000e+000	0.000000e+000	0.000000e+000	0.000000e+000
4600840084.008	0.000000e+000	0.000000e+000	5.721880e-001	-1.568272e+000	0.000000e+000	0.000000e+000	0.000000e+000	0.000000e+000
4600860086.009	0.000000e+000	0.000000e+000	5.566101e-001	-1.576236e+000	0.000000e+000	0.000000e+000	0.000000e+000	0.000000e+000
4600880088.009	0.000000e+000	0.000000e+000	5.406506e-001	-1.584752e+000	0.000000e+000	0.000000e+000	0.000000e+000	0.000000e+000
4600900090.009	0.000000e+000	0.000000e+000	5.254818e-001	-1.589105e+000	0.000000e+000	0.000000e+000	0.000000e+000	0.000000e+000
4600920092.009	0.000000e+000	0.000000e+000	5.099560e-001	-1.594653e+000	0.000000e+000	0.000000e+000	0.000000e+000	0.000000e+000
4600940094.009	0.000000e+000	0.000000e+000	4.948413e-001	-1.598911e+000	0.000000e+000	0.000000e+000	0.000000e+000	0.000000e+000
4600960096.010	0.000000e+000	0.000000e+000	4.787296e-001	-1.605435e+000	0.000000e+000	0.000000e+000	0.000000e+000	0.000000e+000
4600980098.010	0.000000e+000	0.000000e+000	4.626142e-001	-1.612247e+000	0.000000e+000	0.000000e+000	0.000000e+000	0.000000e+000
4601000100.010	0.000000e+000	0.000000e+000	4.458276e-001	-1.619310e+000	0.000000e+000	0.000000e+000	0.000000e+000	0.000000e+000
4601020102.010	0.000000e+000	0.000000e+000	4.294660e-001	-1.625817e+000	0.000000e+000	0.000000e+000	0.000000e+000	0.000000e+000
4601040104.010	0.000000e+000	0.000000e+000	4.139388e-001	-1.628696e+000	0.000000e+000	0.000000e+000	0.000000e+000	0.000000e+000
4601060106.011	0.000000e+000	0.000000e+000	3.975970e-001	-1.633560e+000	0.000000e+000	0.000000e+000	0.000000e+000	0.000000e+000
4601080108.011	0.000000e+000	0.000000e+000	3.818078e-001	-1.636685e+000	0.000000e+000	0.000000e+000	0.000000e+000	0.000000e+000
4601100110.011	0.000000e+000	0.000000e+000	3.642750e-001	-1.643559e+000	0.000000e+000	0.000000e+000	0.000000e+000	0.000000e+000
4601120112.011	0.000000e+000	0.000000e+000	3.474702e-001	-1.649126e+000	0.000000e+000	0.000000e+000	0.000000e+000	0.000000e+000
4601140114.011	0.000000e+000	0.000000e+000	3.298142e-001	-1.655591e+000	0.000000e+000	0.000000e+000	0.000000e+000	0.000000e+000
4601160116.012	0.000000e+000	0.000000e+000	3.134772e-001	-1.659019e+000	0.000000e+000	0.000000e+000	0.000000e+000	0.000000e+000
4601180118.012	0.000000e+000	0.000000e+000	2.967559e-001	-1.662214e+000	0.000000e+000	0.000000e+000	0.000000e+000	0.000000e+000
4601200120.012	0.000000e+000	0.000000e+000	2.804019e-001	-1.664543e+000	0.000000e+000	0.000000e+000	0.000000e+000	0.000000e+000
4601220122.012	0.000000e+000	0.000000e+000	2.634747e-001	-1.668162e+000	0.000000e+000	0.000000e+000	0.000000e+000	0.000000e+000
4601240124.012	0.000000e+000	0.000000e+000	2.454501e-001	-1.673551e+000	0.000000e+000	0.000000e+000	0.000000e+000	0.000000e+000
4601260126.013	0.000000e+000	0.000000e+000	2.273823e-001	-1.678152e+000	0.000000e+000	0.000000e+000	0.000000e+000	0.000000e+000
4601280128.013	0.000000e+000	0.000000e+000	2.090493e-001	-1.682801e+000	0.000000e+000	0.000000e+000	0.000000e+000	0.000000e+000
4601300130.013	0.000000e+000	0.000000e+000	1.927604e-001	-1.683856e+000	0.000000e+000	0.000000e+000	0.000000e+000	0.000000e+000
4601320132.013	0.000000e+000	0.000000e+000	1.750132e-001	-1.686601e+000	0.000000e+000	0.000000e+000	0.000000e+000	0.000000e+000
4601340134.013	0.000000e+000	0.000000e+000	1.579031e-001	-1.687609e+000	0.000000e+000	0.000000e+000	0.000000e+000	0.000000e+000
4601360136.014	0.000000e+000	0.000000e+000	1.389702e-001	-1.692172e+000	0.000000e+000	0.000000e+000	0.000000e+000	0.000000e+000
4601380138.014	0.000000e+000	0.000000e+000	1.201890e-001	-1.695054e+000	0.000000e+000	0.000000e+000	0.000000e+000	0.000000e+000
4601400140.014	0.000000e+000	0.000000e+000	1.005840e-001	-1.699109e+000	0.000000e+000	0.000000e+000	0.000000e+000	0.000000e+000
4601420142.014	0.000000e+000	0.000000e+000	8.259381e-002	-1.700512e+000	0.000000e+000	0.000000e+000	0.000000e+000	0.000000e+000
4601440144.014	0.000000e+000	0.000000e+000	6.501215e-002	-1.701316e+000	0.000000e+000	0.000000e+000	0.000000e+000	0.000000e+000
4601460146.015	0.000000e+000	0.000000e+000	4.674135e-002	-1.701641e+000	0.000000e+000	0.000000e+000	0.000000e+000	0.000000e+000
4601480148.015	0.000000e+000	0.000000e+000	2.759021e-002	-1.703156e+000	0.000000e+000	0.000000e+000	0.000000e+000	0.000000e+000
4601500150.015	0.000000e+000	0.000000e+000	7.020089e-003	-1.705861e+000	0.000000e+000	0.000000e+000	0.000000e+000	0.000000e+000
4601520152.015	0.000000e+000	0.000000e+000	-1.301090e-002	-1.707840e+000	0.000000e+000	0.000000e+000	0.000000e+000	0.000000e+000
4601540154.015	0.000000e+000	0.000000e+000	-3.348683e-002	-1.709971e+000	0.000000e+000	0.000000e+000	0.000000e+000	0.000000e+000
4601560156.016	0.000000e+000	0.000000e+000	-5.209302e-002	-1.708915e+000	0.000000e+000	0.000000e+000	0.000000e+000	0.000000e+000
4601580158.016	0.000000e+000	0.000000e+000	-7.208731e-002	-1.708553e+000	0.000000e+000	0.000000e+000	0.000000e+000	0.000000e+000
4601600160.016	0.000000e+000	0.000000e+000	-9.123067e-002	-1.706678e+000	0.000000e+000	0.000000e+000	0.000000e+000	0.000000e+000
4601620162.016	0.000000e+000	0.000000e+000	-1.133557e-001	-1.708116e+000	0.000000e+000	0.000000e+000	0.000000e+000	0.000000e+000
4601640164.016	0.000000e+000	0.000000e+000	-1.349311e-001	-1.708225e+000	0.000000e+000	0.000000e+000	0.000000e+000	0.000000e+000
4601660166.017	0.000000e+000	0.000000e+000	-1.574132e-001	-1.709122e+000	0.000000e+000	0.000000e+000	0.000000e+000	0.000000e+000
4601680168.017	0.000000e+000	0.000000e+000	-1.783771e-001	-1.707256e+000	0.000000e+000	0.000000e+000	0.000000e+000	0.000000e+000
4601700170.017	0.000000e+000	0.000000e+000	-2.000453e-001	-1.705009e+000	0.000000e+000	0.000000e+000	0.000000e+000	0.000000e+000
4601720172.017	0.000000e+000	0.000000e+000	-2.210428e-001	-1.701624e+000	0.000000e+000	0.000000e+000	0.000000e+000	0.000000e+000
4601740174.017	0.000000e+000	0.000000e+000	-2.436860e-001	-1.698705e+000	0.000000e+000	0.000000e+000	0.000000e+000	0.000000e+000
4601760176.018	0.000000e+000	0.000000e+000	-2.681272e-001	-1.697975e+000	0.000000e+000	0.000000e+000	0.000000e+000	0.000000e+000
4601780178.018	0.000000e+000	0.000000e+000	-2.930206e-001	-1.695244e+000	0.000000e+000	0.000000e+000	0.000000e+000	0.000000e+000
4601800180.018	0.000000e+000	0.000000e+000	-3.182425e-001	-1.692629e+000	0.000000e+000	0.000000e+000	0.000000e+000	0.000000e+000
4601820182.018	0.000000e+000	0.000000e+000	-3.415751e-001	-1.686421e+000	0.000000e+000	0.000000e+000	0.000000e+000	0.000000e+000
4601840184.018	0.000000e+000	0.000000e+000	-3.668187e-001	-1.681357e+000	0.000000e+000	0.000000e+000	0.000000e+000	0.000000e+000
4601860186.019	0.000000e+000	0.000000e+000	-3.909145e-001	-1.673803e+000	0.000000e+000	0.000000e+000	0.000000e+000	0.000000e+000
4601880188.019	0.000000e+000	0.000000e+000	-4.188586e-001	-1.668221e+000	0.000000e+000	0.000000e+000	0.000000e+000	0.000000e+000
4601900190.019	0.000000e+000	0.000000e+000	-4.461856e-001	-1.660347e+000	0.000000e+000	0.000000e+000	0.000000e+000	0.000000e+000
4601920192.019	0.000000e+000	0.000000e+000	-4.760092e-001	-1.653078e+000	0.000000e+000	0.000000e+000	0.000000e+000	0.000000e+000
4601940194.019	0.000000e+000	0.000000e+000	-5.047923e-001	-1.642447e+000	0.000000e+000	0.000000e+000	0.000000e+000	0.000000e+000
4601960196.020	0.000000e+000	0.000000e+000	-5.334553e-001	-1.629502e+000	0.000000e+000	0.000000e+000	0.000000e+000	0.000000e+000
4601980198.020	0.000000e+000	0.000000e+000	-5.623918e-001	-1.615223e+000	0.000000e+000	0.000000e+000	0.000000e+000	0.000000e+000
4602000200.020	0.000000e+000	0.000000e+000	-5.926921e-001	-1.599089e+000	0.000000e+000	0.000000e+000	0.000000e+000	0.000000e+000
4602020202.020	0.000000e+000	0.000000e+000	-6.257612e-001	-1.582187e+000	0.000000e+000	0.000000e+000	0.000000e+000	0.000000e+000
4602040204.020	0.000000e+000	0.000000e+000	-6.590616e-001	-1.561571e+000	0.000000e+000	0.000000e+000	0.000000e+000	0.000000e+000
4602060206.021	0.000000e+000	0.000000e+000	-6.932470e-001	-1.539133e+000	0.000000e+000	0.000000e+000	0.000000e+000	0.000000e+000
4602080208.021	0.000000e+000	0.000000e+000	-7.248961e-001	-1.510540e+000	0.000000e+000	0.000000e+000	0.000000e+000	0.000000e+000
4602100210.021	0.000000e+000	0.000000e+000	-7.575995e-001	-1.478246e+000	0.000000e+000	0.000000e+000	0.000000e+000	0.000000e+000
4602120212.021	0.000000e+000	0.000000e+000	-7.876064e-001	-1.439836e+000	0.000000e+000	0.000000e+000	0.000000e+000	0.000000e+000
4602140214.021	0.000000e+000	0.000000e+000	-8.193614e-001	-1.397041e+000	0.000000e+000	0.000000e+000	0.000000e+000	0.000000e+000
4602160216.022	0.000000e+000	0.000000e+000	-8.472752e-001	-1.348541e+000	0.000000e+000	0.000000e+000	0.000000e+000	0.000000e+000
4602180218.022	0.000000e+000	0.000000e+000	-8.712021e-001	-1.292058e+000	0.000000e+000	0.000000e+000	0.000000e+000	0.000000e+000
4602200220.022	0.000000e+000	0.000000e+000	-8.865097e-001	-1.228481e+000	0.000000e+000	0.000000e+000	0.000000e+000	0.000000e+000
4602220222.022	0.000000e+000	0.000000e+000	-8.911159e-001	-1.159074e+000	0.000000e+000	0.000000e+000	0.000000e+000	0.000000e+000
4602240224.022	0.000000e+000	0.000000e+000	-8.826149e-001	-1.083981e+000	0.000000e+000	0.000000e+000	0.000000e+000	0.000000e+000
4602260226.023	0.000000e+000	0.000000e+000	-8.601363e-001	-1.009575e+000	0.000000e+000	0.000000e+000	0.000000e+000	0.000000e+000
4602280228.023	0.000000e+000	0.000000e+000	-8.226833e-001	-9.377118e-001	0.000000e+000	0.000000e+000	0.000000e+000	0.000000e+000
4602300230.023	0.000000e+000	0.000000e+000	-7.678743e-001	-8.744898e-001	0.000000e+000	0.000000e+000	0.000000e+000	0.000000e+000
4602320232.023	0.000000e+000	0.000000e+000	-7.012700e-001	-8.258853e-001	0.000000e+000	0.000000e+000	0.000000e+000	0.000000e+000
4602340234.023	0.000000e+000	0.000000e+000	-6.233043e-001	-7.942084e-001	0.000000e+000	0.000000e+000	0.000000e+000	0.000000e+000
4602360236.024	0.000000e+000	0.000000e+000	-5.449572e-001	-7.828876e-001	0.000000e+000	0.000000e+000	0.000000e+000	0.000000e+000
4602380238.024	0.000000e+000	0.000000e+000	-4.675907e-001	-7.893378e-001	0.000000e+000	0.000000e+000	0.000000e+000	0.000000e+000
4602400240.024	0.000000e+000	0.000000e+000	-4.015641e-001	-8.122335e-001	0.000000e+000	0.000000e+000	0.000000e+000	0.000000e+000
4602420242.024	0.000000e+000	0.000000e+000	-3.463030e-001	-8.468953e-001	0.000000e+000	0.000000e+000	0.000000e+000	0.000000e+000
4602440244.024	0.000000e+000	0.000000e+000	-3.033225e-001	-8.898665e-001	0.000000e+000	0.000000e+000	0.000000e+000	0.000000e+000
4602460246.025	0.000000e+000	0.000000e+000	-2.720934e-001	-9.359983e-001	0.000000e+000	0.000000e+000	0.000000e+000	0.000000e+000
4602480248.025	0.000000e+000	0.000000e+000	-2.512268e-001	-9.829559e-001	0.000000e+000	0.000000e+000	0.000000e+000	0.000000e+000
4602500250.025	0.000000e+000	0.000000e+000	-2.400253e-001	-1.028623e+000	0.000000e+000	0.000000e+000	0.000000e+000	0.000000e+000
4602520252.025	0.000000e+000	0.000000e+000	-2.372536e-001	-1.071744e+000	0.000000e+000	0.000000e+000	0.000000e+000	0.000000e+000
4602540254.025	0.000000e+000	0.000000e+000	-2.424823e-001	-1.113467e+000	0.000000e+000	0.000000e+000	0.000000e+000	0.000000e+000
4602560256.026	0.000000e+000	0.000000e+000	-2.521224e-001	-1.149836e+000	0.000000e+000	0.000000e+000	0.000000e+000	0.000000e+000
4602580258.026	0.000000e+000	0.000000e+000	-2.663878e-001	-1.183643e+000	0.000000e+000	0.000000e+000	0.000000e+000	0.000000e+000
4602600260.026	0.000000e+000	0.000000e+000	-2.814259e-001	-1.211175e+000	0.000000e+000	0.000000e+000	0.000000e+000	0.000000e+000
4602620262.026	0.000000e+000	0.000000e+000	-2.991047e-001	-1.236296e+000	0.000000e+000	0.000000e+000	0.000000e+000	0.000000e+000
4602640264.026	0.000000e+000	0.000000e+000	-3.172163e-001	-1.256958e+000	0.000000e+000	0.000000e+000	0.000000e+000	0.000000e+000
4602660266.027	0.000000e+000	0.000000e+000	-3.382016e-001	-1.276178e+000	0.000000e+000	0.000000e+000	0.000000e+000	0.000000e+000
4602680268.027	0.000000e+000	0.000000e+000	-3.599582e-001	-1.293351e+000	0.000000e+000	0.000000e+000	0.000000e+000	0.000000e+000
4602700270.027	0.000000e+000	0.000000e+000	-3.822164e-001	-1.308009e+000	0.000000e+000	0.000000e+000	0.000000e+000	0.000000e+000
4602720272.027	0.000000e+000	0.000000e+000	-4.040433e-001	-1.320117e+000	0.000000e+000	0.000000e+000	0.000000e+000	0.000000e+000
4602740274.027	0.000000e+000	0.000000e+000	-4.241259e-001	-1.328919e+000	0.000000e+000	0.000000e+000	0.000000e+000	0.000000e+000
4602760276.028	0.000000e+000	0.000000e+000	-4.448385e-001	-1.336597e+000	0.000000e+000	0.000000e+000	0.000000e+000	0.000000e+000
4602780278.028	0.000000e+000	0.000000e+000	-4.651202e-001	-1.342339e+000	0.000000e+000	0.000000e+000	0.000000e+000	0.000000e+000
4602800280.028	0.000000e+000	0.000000e+000	-4.874888e-001	-1.348780e+000	0.000000e+000	0.000000e+000	0.000000e+000	0.000000e+000
4602820282.028	0.000000e+000	0.000000e+000	-5.086572e-001	-1.353430e+000	0.000000e+000	0.000000e+000	0.000000e+000	0.000000e+000
4602840284.028	0.000000e+000	0.000000e+000	-5.308054e-001	-1.357517e+000	0.000000e+000	0.000000e+000	0.000000e+000	0.000000e+000
4602860286.029	0.000000e+000	0.000000e+000	-5.498451e-001	-1.358972e+000	0.000000e+000	0.000000e+000	0.000000e+000	0.000000e+000
4602880288.029	0.000000e+000	0.000000e+000	-5.697369e-001	-1.360309e+000	0.000000e+000	0.000000e+000	0.000000e+000	0.000000e+000
4602900290.029	0.000000e+000	0.000000e+000	-5.876821e-001	-1.359787e+000	0.000000e+000	0.000000e+000	0.000000e+000	0.000000e+000
4602920292.029	0.000000e+000	0.000000e+000	-6.075231e-001	-1.359949e+000	0.000000e+000	0.000000e+000	0.000000e+000	0.000000e+000
4602940294.029	0.000000e+000	0.000000e+000	-6.273979e-001	-1.359480e+000	0.000000e+000	0.000000e+000	0.000000e+000	0.000000e+000
4602960296.030	0.000000e+000	0.000000e+000	-6.477445e-001	-1.358999e+000	0.000000e+000	0.000000e+000	0.000000e+000	0.000000e+000
4602980298.030	0.000000e+000	0.000000e+000	-6.670936e-001	-1.357453e+000	0.000000e+000	0.000000e+000	0.000000e+000	0.000000e+000
4603000300.030	0.000000e+000	0.000000e+000	-6.837406e-001	-1.353966e+000	0.000000e+000	0.000000e+000	0.000000e+000	0.000000e+000
4603020302.030	0.000000e+000	0.000000e+000	-7.009456e-001	-1.350553e+000	0.000000e+000	0.000000e+000	0.000000e+000	0.000000e+000
