!Keysight Technologies,E5063A,MY54502693,A.05.04
!Date: Mon Oct 12 06:56:05 2020
!Data & Calibration Information:
!Freq	S11:NONE(--)	S21:NONE(--)	S12:NONE(--)	S22:NONE(--)
# Hz S RI R 50
4800000000.000	0.000000e+000	0.000000e+000	2.074219e-001	3.082178e-001	0.000000e+000	0.000000e+000	0.000000e+000	0.000000e+000
4800020002.000	0.000000e+000	0.000000e+000	8.211911e-002	3.607855e-001	0.000000e+000	0.000000e+000	0.000000e+000	0.000000e+000
4800040004.000	0.000000e+000	0.000000e+000	-1.959358e-002	4.469906e-001	0.000000e+000	0.000000e+000	0.000000e+000	0.000000e+000
4800060006.001	0.000000e+000	0.000000e+000	-9.071924e-002	5.556026e-001	0.000000e+000	0.000000e+000	0.000000e+000	0.000000e+000
4800080008.001	0.000000e+000	0.000000e+000	-1.263621e-001	6.683128e-001	0.000000e+000	0.000000e+000	0.000000e+000	0.000000e+000
4800100010.001	0.000000e+000	0.000000e+000	-1.330542e-001	7.793591e-001	0.000000e+000	0.000000e+000	0.000000e+000	0.000000e+000
4800120012.001	0.000000e+000	0.000000e+000	-1.157683e-001	8.790629e-001	0.000000e+000	0.000000e+000	0.000000e+000	0.000000e+000
4800140014.001	0.000000e+000	0.000000e+000	-7.981910e-002	9.685731e-001	0.000000e+000	0.000000e+000	0.000000e+000	0.000000e+000
4800160016.002	0.000000e+000	0.000000e+000	-3.145615e-002	1.044022e+000	0.000000e+000	0.000000e+000	0.000000e+000	0.000000e+000
4800180018.002	0.000000e+000	0.000000e+000	2.456217e-002	1.105064e+000	0.000000e+000	0.000000e+000	0.000000e+000	0.000000e+000
4800200020.002	0.000000e+000	0.000000e+000	8.462987e-002	1.152684e+000	0.000000e+000	0.000000e+000	0.000000e+000	0.000000e+000
4800220022.002	0.000000e+000	0.000000e+000	1.467890e-001	1.189003e+000	0.000000e+000	0.000000e+000	0.000000e+000	0.000000e+000
4800240024.002	0.000000e+000	0.000000e+000	2.096767e-001	1.215200e+000	0.000000e+000	0.000000e+000	0.000000e+000	0.000000e+000
4800260026.003	0.000000e+000	0.000000e+000	2.761625e-001	1.235475e+000	0.000000e+000	0.000000e+000	0.000000e+000	0.000000e+000
4800280028.003	0.000000e+000	0.000000e+000	3.430468e-001	1.247896e+000	0.000000e+000	0.000000e+000	0.000000e+000	0.000000e+000
4800300030.003	0.000000e+000	0.000000e+000	4.139638e-001	1.253833e+000	0.000000e+000	0.000000e+000	0.000000e+000	0.000000e+000
4800320032.003	0.000000e+000	0.000000e+000	4.863772e-001	1.251386e+000	0.000000e+000	0.000000e+000	0.000000e+000	0.000000e+000
4800340034.003	0.000000e+000	0.000000e+000	5.634910e-001	1.239224e+000	0.000000e+000	0.000000e+000	0.000000e+000	0.000000e+000
4800360036.004	0.000000e+000	0.000000e+000	6.484510e-001	1.213870e+000	0.000000e+000	0.000000e+000	0.000000e+000	0.000000e+000
4800380038.004	0.000000e+000	0.000000e+000	7.447451e-001	1.167585e+000	0.000000e+000	0.000000e+000	0.000000e+000	0.000000e+000
4800400040.004	0.000000e+000	0.000000e+000	8.618356e-001	1.076978e+000	0.000000e+000	0.000000e+000	0.000000e+000	0.000000e+000
4800420042.004	0.000000e+000	0.000000e+000	9.679943e-001	8.824399e-001	0.000000e+000	0.000000e+000	0.000000e+000	0.000000e+000
4800440044.004	0.000000e+000	0.000000e+000	9.231410e-001	5.649500e-001	0.000000e+000	0.000000e+000	0.000000e+000	0.000000e+000
4800460046.005	0.000000e+000	0.000000e+000	6.320493e-001	3.561376e-001	0.000000e+000	0.000000e+000	0.000000e+000	0.000000e+000
4800480048.005	0.000000e+000	0.000000e+000	3.450107e-001	4.067275e-001	0.000000e+000	0.000000e+000	0.000000e+000	0.000000e+000
4800500050.005	0.000000e+000	0.000000e+000	2.049449e-001	5.565387e-001	0.000000e+000	0.000000e+000	0.000000e+000	0.000000e+000
4800520052.005	0.000000e+000	0.000000e+000	1.642965e-001	6.957522e-001	0.000000e+000	0.000000e+000	0.000000e+000	0.000000e+000
4800540054.005	0.000000e+000	0.000000e+000	1.705757e-001	8.028295e-001	0.000000e+000	0.000000e+000	0.000000e+000	0.000000e+000
4800560056.006	0.000000e+000	0.000000e+000	1.997657e-001	8.866560e-001	0.000000e+000	0.000000e+000	0.000000e+000	0.000000e+000
4800580058.006	0.000000e+000	0.000000e+000	2.391127e-001	9.483748e-001	0.000000e+000	0.000000e+000	0.000000e+000	0.000000e+000
4800600060.006	0.000000e+000	0.000000e+000	2.808290e-001	9.922969e-001	0.000000e+000	0.000000e+000	0.000000e+000	0.000000e+000
4800620062.006	0.000000e+000	0.000000e+000	3.243599e-001	1.024103e+000	0.000000e+000	0.000000e+000	0.000000e+000	0.000000e+000
4800640064.006	0.000000e+000	0.000000e+000	3.648798e-001	1.044890e+000	0.000000e+000	0.000000e+000	0.000000e+000	0.000000e+000
4800660066.007	0.000000e+000	0.000000e+000	4.060228e-001	1.060310e+000	0.000000e+000	0.000000e+000	0.000000e+000	0.000000e+000
4800680068.007	0.000000e+000	0.000000e+000	4.427071e-001	1.069496e+000	0.000000e+000	0.000000e+000	0.000000e+000	0.000000e+000
4800700070.007	0.000000e+000	0.000000e+000	4.781555e-001	1.075419e+000	0.000000e+000	0.000000e+000	0.000000e+000	0.000000e+000
4800720072.007	0.000000e+000	0.000000e+000	5.088677e-001	1.076924e+000	0.000000e+000	0.000000e+000	0.000000e+000	0.000000e+000
4800740074.007	0.000000e+000	0.000000e+000	5.377778e-001	1.076393e+000	0.000000e+000	0.000000e+000	0.000000e+000	0.000000e+000
4800760076.008	0.000000e+000	0.000000e+000	5.640065e-001	1.073539e+000	0.000000e+000	0.000000e+000	0.000000e+000	0.000000e+000
4800780078.008	0.000000e+000	0.000000e+000	5.900378e-001	1.070272e+000	0.000000e+000	0.000000e+000	0.000000e+000	0.000000e+000
4800800080.008	0.000000e+000	0.000000e+000	6.156441e-001	1.066158e+000	0.000000e+000	0.000000e+000	0.000000e+000	0.000000e+000
4800820082.008	0.000000e+000	0.000000e+000	6.397419e-001	1.060880e+000	0.000000e+000	0.000000e+000	0.000000e+000	0.000000e+000
4800840084.008	0.000000e+000	0.000000e+000	6.627092e-001	1.055067e+000	0.000000e+000	0.000000e+000	0.000000e+000	0.000000e+000
4800860086.009	0.000000e+000	0.000000e+000	6.826497e-001	1.047545e+000	0.000000e+000	0.000000e+000	0.000000e+000	0.000000e+000
4800880088.009	0.000000e+000	0.000000e+000	7.024555e-001	1.039688e+000	0.000000e+000	0.000000e+000	0.000000e+000	0.000000e+000
4800900090.009	0.000000e+000	0.000000e+000	7.204007e-001	1.031104e+000	0.000000e+000	0.000000e+000	0.000000e+000	0.000000e+000
4800920092.009	0.000000e+000	0.000000e+000	7.411659e-001	1.023379e+000	0.000000e+000	0.000000e+000	0.000000e+000	0.000000e+000
4800940094.009	0.000000e+000	0.000000e+000	7.598035e-001	1.014485e+000	0.000000e+000	0.000000e+000	0.000000e+000	0.000000e+000
4800960096.010	0.000000e+000	0.000000e+000	7.796374e-001	1.006212e+000	0.000000e+000	0.000000e+000	0.000000e+000	0.000000e+000
4800980098.010	0.000000e+000	0.000000e+000	7.960178e-001	9.963861e-001	0.000000e+000	0.000000e+000	0.000000e+000	0.000000e+000
4801000100.010	0.000000e+000	0.000000e+000	8.122032e-001	9.863927e-001	0.000000e+000	0.000000e+000	0.000000e+000	0.000000e+000
4801020102.010	0.000000e+000	0.000000e+000	8.267660e-001	9.760379e-001	0.000000e+000	0.000000e+000	0.000000e+000	0.000000e+000
4801040104.010	0.000000e+000	0.000000e+000	8.428905e-001	9.655501e-001	0.000000e+000	0.000000e+000	0.000000e+000	0.000000e+000
4801060106.011	0.000000e+000	0.000000e+000	8.593424e-001	9.551572e-001	0.000000e+000	0.000000e+000	0.000000e+000	0.000000e+000
4801080108.011	0.000000e+000	0.000000e+000	8.759696e-001	9.447283e-001	0.000000e+000	0.000000e+000	0.000000e+000	0.000000e+000
4801100110.011	0.000000e+000	0.000000e+000	8.923305e-001	9.337812e-001	0.000000e+000	0.000000e+000	0.000000e+000	0.000000e+000
4801120112.011	0.000000e+000	0.000000e+000	9.056843e-001	9.220264e-001	0.000000e+000	0.000000e+000	0.000000e+000	0.000000e+000
4801140114.011	0.000000e+000	0.000000e+000	9.203405e-001	9.104436e-001	0.000000e+000	0.000000e+000	0.000000e+000	0.000000e+000
4801160116.012	0.000000e+000	0.000000e+000	9.326070e-001	8.982091e-001	0.000000e+000	0.000000e+000	0.000000e+000	0.000000e+000
4801180118.012	0.000000e+000	0.000000e+000	9.475481e-001	8.863218e-001	0.000000e+000	0.000000e+000	0.000000e+000	0.000000e+000
4801200120.012	0.000000e+000	0.000000e+000	9.611354e-001	8.737685e-001	0.000000e+000	0.000000e+000	0.000000e+000	0.000000e+000
4801220122.012	0.000000e+000	0.000000e+000	9.770867e-001	8.613215e-001	0.000000e+000	0.000000e+000	0.000000e+000	0.000000e+000
4801240124.012	0.000000e+000	0.000000e+000	9.907439e-001	8.484691e-001	0.000000e+000	0.000000e+000	0.000000e+000	0.000000e+000
4801260126.013	0.000000e+000	0.000000e+000	1.004051e+000	8.352303e-001	0.000000e+000	0.000000e+000	0.000000e+000	0.000000e+000
4801280128.013	0.000000e+000	0.000000e+000	1.016240e+000	8.215453e-001	0.000000e+000	0.000000e+000	0.000000e+000	0.000000e+000
4801300130.013	0.000000e+000	0.000000e+000	1.028050e+000	8.074393e-001	0.000000e+000	0.000000e+000	0.000000e+000	0.000000e+000
4801320132.013	0.000000e+000	0.000000e+000	1.041834e+000	7.932001e-001	0.000000e+000	0.000000e+000	0.000000e+000	0.000000e+000
4801340134.013	0.000000e+000	0.000000e+000	1.055700e+000	7.785261e-001	0.000000e+000	0.000000e+000	0.000000e+000	0.000000e+000
4801360136.014	0.000000e+000	0.000000e+000	1.070968e+000	7.634693e-001	0.000000e+000	0.000000e+000	0.000000e+000	0.000000e+000
4801380138.014	0.000000e+000	0.000000e+000	1.082601e+000	7.479847e-001	0.000000e+000	0.000000e+000	0.000000e+000	0.000000e+000
4801400140.014	0.000000e+000	0.000000e+000	1.094873e+000	7.320051e-001	0.000000e+000	0.000000e+000	0.000000e+000	0.000000e+000
4801420142.014	0.000000e+000	0.000000e+000	1.105821e+000	7.153102e-001	0.000000e+000	0.000000e+000	0.000000e+000	0.000000e+000
4801440144.014	0.000000e+000	0.000000e+000	1.119778e+000	6.979899e-001	0.000000e+000	0.000000e+000	0.000000e+000	0.000000e+000
4801460146.015	0.000000e+000	0.000000e+000	1.133917e+000	6.801420e-001	0.000000e+000	0.000000e+000	0.000000e+000	0.000000e+000
4801480148.015	0.000000e+000	0.000000e+000	1.148839e+000	6.613729e-001	0.000000e+000	0.000000e+000	0.000000e+000	0.000000e+000
4801500150.015	0.000000e+000	0.000000e+000	1.162030e+000	6.415229e-001	0.000000e+000	0.000000e+000	0.000000e+000	0.000000e+000
4801520152.015	0.000000e+000	0.000000e+000	1.174362e+000	6.212452e-001	0.000000e+000	0.000000e+000	0.000000e+000	0.000000e+000
4801540154.015	0.000000e+000	0.000000e+000	1.186040e+000	5.999075e-001	0.000000e+000	0.000000e+000	0.000000e+000	0.000000e+000
4801560156.016	0.000000e+000	0.000000e+000	1.198513e+000	5.769799e-001	0.000000e+000	0.000000e+000	0.000000e+000	0.000000e+000
4801580158.016	0.000000e+000	0.000000e+000	1.213320e+000	5.524053e-001	0.000000e+000	0.000000e+000	0.000000e+000	0.000000e+000
4801600160.016	0.000000e+000	0.000000e+000	1.227765e+000	5.259045e-001	0.000000e+000	0.000000e+000	0.000000e+000	0.000000e+000
4801620162.016	0.000000e+000	0.000000e+000	1.242841e+000	4.973439e-001	0.000000e+000	0.000000e+000	0.000000e+000	0.000000e+000
4801640164.016	0.000000e+000	0.000000e+000	1.254530e+000	4.670352e-001	0.000000e+000	0.000000e+000	0.000000e+000	0.000000e+000
4801660166.017	0.000000e+000	0.000000e+000	1.267273e+000	4.332104e-001	0.000000e+000	0.000000e+000	0.000000e+000	0.000000e+000
4801680168.017	0.000000e+000	0.000000e+000	1.277575e+000	3.966468e-001	0.000000e+000	0.000000e+000	0.000000e+000	0.000000e+000
4801700170.017	0.000000e+000	0.000000e+000	1.289711e+000	3.547826e-001	0.000000e+000	0.000000e+000	0.000000e+000	0.000000e+000
4801720172.017	0.000000e+000	0.000000e+000	1.300200e+000	3.077452e-001	0.000000e+000	0.000000e+000	0.000000e+000	0.000000e+000
4801740174.017	0.000000e+000	0.000000e+000	1.308772e+000	2.538157e-001	0.000000e+000	0.000000e+000	0.000000e+000	0.000000e+000
4801760176.018	0.000000e+000	0.000000e+000	1.311096e+000	1.932871e-001	0.000000e+000	0.000000e+000	0.000000e+000	0.000000e+000
4801780178.018	0.000000e+000	0.000000e+000	1.304605e+000	1.241050e-001	0.000000e+000	0.000000e+000	0.000000e+000	0.000000e+000
4801800180.018	0.000000e+000	0.000000e+000	1.285002e+000	4.189942e-002	0.000000e+000	0.000000e+000	0.000000e+000	0.000000e+000
4801820182.018	0.000000e+000	0.000000e+000	1.242978e+000	-5.094931e-002	0.000000e+000	0.000000e+000	0.000000e+000	0.000000e+000
4801840184.018	0.000000e+000	0.000000e+000	1.171611e+000	-1.492407e-001	0.000000e+000	0.000000e+000	0.000000e+000	0.000000e+000
4801860186.019	0.000000e+000	0.000000e+000	1.059268e+000	-2.350237e-001	0.000000e+000	0.000000e+000	0.000000e+000	0.000000e+000
4801880188.019	0.000000e+000	0.000000e+000	9.072580e-001	-2.864514e-001	0.000000e+000	0.000000e+000	0.000000e+000	0.000000e+000
4801900190.019	0.000000e+000	0.000000e+000	7.347710e-001	-2.775331e-001	0.000000e+000	0.000000e+000	0.000000e+000	0.000000e+000
4801920192.019	0.000000e+000	0.000000e+000	5.806281e-001	-2.053688e-001	0.000000e+000	0.000000e+000	0.000000e+000	0.000000e+000
4801940194.019	0.000000e+000	0.000000e+000	4.738904e-001	-9.092260e-002	0.000000e+000	0.000000e+000	0.000000e+000	0.000000e+000
4801960196.020	0.000000e+000	0.000000e+000	4.234908e-001	3.212047e-002	0.000000e+000	0.000000e+000	0.000000e+000	0.000000e+000
4801980198.020	0.000000e+000	0.000000e+000	4.161717e-001	1.438844e-001	0.000000e+000	0.000000e+000	0.000000e+000	0.000000e+000
4802000200.020	0.000000e+000	0.000000e+000	4.368496e-001	2.372959e-001	0.000000e+000	0.000000e+000	0.000000e+000	0.000000e+000
4802020202.020	0.000000e+000	0.000000e+000	4.736588e-001	3.097349e-001	0.000000e+000	0.000000e+000	0.000000e+000	0.000000e+000
4802040204.020	0.000000e+000	0.000000e+000	5.179623e-001	3.629228e-001	0.000000e+000	0.000000e+000	0.000000e+000	0.000000e+000
4802060206.021	0.000000e+000	0.000000e+000	5.638328e-001	3.990633e-001	0.000000e+000	0.000000e+000	0.000000e+000	0.000000e+000
4802080208.021	0.000000e+000	0.000000e+000	6.093318e-001	4.225426e-001	0.000000e+000	0.000000e+000	0.000000e+000	0.000000e+000
4802100210.021	0.000000e+000	0.000000e+000	6.527395e-001	4.346172e-001	0.000000e+000	0.000000e+000	0.000000e+000	0.000000e+000
4802120212.021	0.000000e+000	0.000000e+000	6.913835e-001	4.388630e-001	0.000000e+000	0.000000e+000	0.000000e+000	0.000000e+000
4802140214.021	0.000000e+000	0.000000e+000	7.261318e-001	4.363226e-001	0.000000e+000	0.000000e+000	0.000000e+000	0.000000e+000
4802160216.022	0.000000e+000	0.000000e+000	7.531152e-001	4.298963e-001	0.000000e+000	0.000000e+000	0.000000e+000	0.000000e+000
4802180218.022	0.000000e+000	0.000000e+000	7.762370e-001	4.195676e-001	0.000000e+000	0.000000e+000	0.000000e+000	0.000000e+000
4802200220.022	0.000000e+000	0.000000e+000	7.928235e-001	4.069298e-001	0.000000e+000	0.000000e+000	0.000000e+000	0.000000e+000
4802220222.022	0.000000e+000	0.000000e+000	8.067302e-001	3.932028e-001	0.000000e+000	0.000000e+000	0.000000e+000	0.000000e+000
4802240224.022	0.000000e+000	0.000000e+000	8.164758e-001	3.778046e-001	0.000000e+000	0.000000e+000	0.000000e+000	0.000000e+000
4802260226.023	0.000000e+000	0.000000e+000	8.216808e-001	3.626661e-001	0.000000e+000	0.000000e+000	0.000000e+000	0.000000e+000
4802280228.023	0.000000e+000	0.000000e+000	8.218943e-001	3.474554e-001	0.000000e+000	0.000000e+000	0.000000e+000	0.000000e+000
4802300230.023	0.000000e+000	0.000000e+000	8.152019e-001	3.338473e-001	0.000000e+000	0.000000e+000	0.000000e+000	0.000000e+000
4802320232.023	0.000000e+000	0.000000e+000	8.041578e-001	3.224929e-001	0.000000e+000	0.000000e+000	0.000000e+000	0.000000e+000
4802340234.023	0.000000e+000	0.000000e+000	7.859208e-001	3.150697e-001	0.000000e+000	0.000000e+000	0.000000e+000	0.000000e+000
4802360236.024	0.000000e+000	0.000000e+000	7.653949e-001	3.129459e-001	0.000000e+000	0.000000e+000	0.000000e+000	0.000000e+000
4802380238.024	0.000000e+000	0.000000e+000	7.387532e-001	3.203864e-001	0.000000e+000	0.000000e+000	0.000000e+000	0.000000e+000
4802400240.024	0.000000e+000	0.000000e+000	7.105144e-001	3.390623e-001	0.000000e+000	0.000000e+000	0.000000e+000	0.000000e+000
4802420242.024	0.000000e+000	0.000000e+000	6.823118e-001	3.737748e-001	0.000000e+000	0.000000e+000	0.000000e+000	0.000000e+000
4802440244.024	0.000000e+000	0.000000e+000	6.622821e-001	4.255735e-001	0.000000e+000	0.000000e+000	0.000000e+000	0.000000e+000
4802460246.025	0.000000e+000	0.000000e+000	6.591007e-001	4.902490e-001	0.000000e+000	0.000000e+000	0.000000e+000	0.000000e+000
4802480248.025	0.000000e+000	0.000000e+000	6.813781e-001	5.628010e-001	0.000000e+000	0.000000e+000	0.000000e+000	0.000000e+000
4802500250.025	0.000000e+000	0.000000e+000	7.299094e-001	6.282700e-001	0.000000e+000	0.000000e+000	0.000000e+000	0.000000e+000
4802520252.025	0.000000e+000	0.000000e+000	7.993369e-001	6.783361e-001	0.000000e+000	0.000000e+000	0.000000e+000	0.000000e+000
4802540254.025	0.000000e+000	0.000000e+000	8.802143e-001	7.062157e-001	0.000000e+000	0.000000e+000	0.000000e+000	0.000000e+000
4802560256.026	0.000000e+000	0.000000e+000	9.609479e-001	7.109030e-001	0.000000e+000	0.000000e+000	0.000000e+000	0.000000e+000
4802580258.026	0.000000e+000	0.000000e+000	1.037194e+000	6.965289e-001	0.000000e+000	0.000000e+000	0.000000e+000	0.000000e+000
4802600260.026	0.000000e+000	0.000000e+000	1.101252e+000	6.689550e-001	0.000000e+000	0.000000e+000	0.000000e+000	0.000000e+000
4802620262.026	0.000000e+000	0.000000e+000	1.158696e+000	6.319034e-001	0.000000e+000	0.000000e+000	0.000000e+000	0.000000e+000
4802640264.026	0.000000e+000	0.000000e+000	1.204625e+000	5.911327e-001	0.000000e+000	0.000000e+000	0.000000e+000	0.000000e+000
4802660266.027	0.000000e+000	0.000000e+000	1.243204e+000	5.481176e-001	0.000000e+000	0.000000e+000	0.000000e+000	0.000000e+000
4802680268.027	0.000000e+000	0.000000e+000	1.273265e+000	5.059471e-001	0.000000e+000	0.000000e+000	0.000000e+000	0.000000e+000
4802700270.027	0.000000e+000	0.000000e+000	1.296819e+000	4.646517e-001	0.000000e+000	0.000000e+000	0.000000e+000	0.000000e+000
4802720272.027	0.000000e+000	0.000000e+000	1.316080e+000	4.245711e-001	0.000000e+000	0.000000e+000	0.000000e+000	0.000000e+000
4802740274.027	0.000000e+000	0.000000e+000	1.332280e+000	3.856355e-001	0.000000e+000	0.000000e+000	0.000000e+000	0.000000e+000
4802760276.028	0.000000e+000	0.000000e+000	1.349091e+000	3.467763e-001	0.000000e+000	0.000000e+000	0.000000e+000	0.000000e+000
4802780278.028	0.000000e+000	0.000000e+000	1.363464e+000	3.085659e-001	0.000000e+000	0.000000e+000	0.000000e+000	0.000000e+000
4802800280.028	0.000000e+000	0.000000e+000	1.377471e+000	2.701609e-001	0.000000e+000	0.000000e+000	0.000000e+000	0.000000e+000
4802820282.028	0.000000e+000	0.000000e+000	1.387013e+000	2.324730e-001	0.000000e+000	0.000000e+000	0.000000e+000	0.000000e+000
4802840284.028	0.000000e+000	0.000000e+000	1.397223e+000	1.930474e-001	0.000000e+000	0.000000e+000	0.000000e+000	0.000000e+000
4802860286.029	0.000000e+000	0.000000e+000	1.404924e+000	1.529429e-001	0.000000e+000	0.000000e+000	0.000000e+000	0.000000e+000
4802880288.029	0.000000e+000	0.000000e+000	1.414487e+000	1.086510e-001	0.000000e+000	0.000000e+000	0.000000e+000	0.000000e+000
4802900290.029	0.000000e+000	0.000000e+000	1.422149e+000	6.038788e-002	0.000000e+000	0.000000e+000	0.000000e+000	0.000000e+000
4802920292.029	0.000000e+000	0.000000e+000	1.427944e+000	6.783821e-003	0.000000e+000	0.000000e+000	0.000000e+000	0.000000e+000
4802940294.029	0.000000e+000	0.000000e+000	1.428983e+000	-5.288661e-002	0.000000e+000	0.000000e+000	0.000000e+000	0.000000e+000
4802960296.030	0.000000e+000	0.000000e+000	1.422706e+000	-1.213498e-001	0.000000e+000	0.000000e+000	0.000000e+000	0.000000e+000
4802980298.030	0.000000e+000	0.000000e+000	1.400743e+000	-2.048342e-001	0.000000e+000	0.000000e+000	0.000000e+000	0.000000e+000
4803000300.030	0.000000e+000	0.000000e+000	1.351928e+000	-2.983180e-001	0.000000e+000	0.000000e+000	0.000000e+000	0.000000e+000
4803020302.030	0.000000e+000	0.000000e+000	1.263994e+000	-3.914736e-001	0.000000e+000	0.000000e+000	0.000000e+000	0.000000e+000
4803040304.030	0.000000e+000	0.000000e+000	1.125829e+000	-4.559707e-001	0.000000e+000	0.000000e+000	0.000000e+000	0.000000e+000
4803060306.031	0.000000e+000	0.000000e+000	9.565198e-001	-4.577005e-001	0.000000e+000	0.000000e+000	0.000000e+000	0.000000e+000
