!Keysight Technologies,E5063A,MY54502693,A.05.04
!Date: Mon Oct 12 07:18:21 2020
!Data & Calibration Information:
!Freq	S11:NONE(--)	S21:NONE(--)	S12:NONE(--)	S22:NONE(--)
# Hz S RI R 50
5800000000.000	0.000000e+000	0.000000e+000	8.006425e-001	1.097684e-001	0.000000e+000	0.000000e+000	0.000000e+000	0.000000e+000
5800020002.000	0.000000e+000	0.000000e+000	8.011375e-001	1.030653e-001	0.000000e+000	0.000000e+000	0.000000e+000	0.000000e+000
5800040004.000	0.000000e+000	0.000000e+000	8.018709e-001	9.642472e-002	0.000000e+000	0.000000e+000	0.000000e+000	0.000000e+000
5800060006.001	0.000000e+000	0.000000e+000	8.023608e-001	8.966805e-002	0.000000e+000	0.000000e+000	0.000000e+000	0.000000e+000
5800080008.001	0.000000e+000	0.000000e+000	8.039580e-001	8.217121e-002	0.000000e+000	0.000000e+000	0.000000e+000	0.000000e+000
5800100010.001	0.000000e+000	0.000000e+000	8.049620e-001	7.509141e-002	0.000000e+000	0.000000e+000	0.000000e+000	0.000000e+000
5800120012.001	0.000000e+000	0.000000e+000	8.068383e-001	6.749890e-002	0.000000e+000	0.000000e+000	0.000000e+000	0.000000e+000
5800140014.001	0.000000e+000	0.000000e+000	8.073020e-001	6.046354e-002	0.000000e+000	0.000000e+000	0.000000e+000	0.000000e+000
5800160016.002	0.000000e+000	0.000000e+000	8.078064e-001	5.346536e-002	0.000000e+000	0.000000e+000	0.000000e+000	0.000000e+000
5800180018.002	0.000000e+000	0.000000e+000	8.078105e-001	4.659946e-002	0.000000e+000	0.000000e+000	0.000000e+000	0.000000e+000
5800200020.002	0.000000e+000	0.000000e+000	8.082627e-001	3.968198e-002	0.000000e+000	0.000000e+000	0.000000e+000	0.000000e+000
5800220022.002	0.000000e+000	0.000000e+000	8.094431e-001	3.175907e-002	0.000000e+000	0.000000e+000	0.000000e+000	0.000000e+000
5800240024.002	0.000000e+000	0.000000e+000	8.104490e-001	2.433955e-002	0.000000e+000	0.000000e+000	0.000000e+000	0.000000e+000
5800260026.003	0.000000e+000	0.000000e+000	8.115627e-001	1.638157e-002	0.000000e+000	0.000000e+000	0.000000e+000	0.000000e+000
5800280028.003	0.000000e+000	0.000000e+000	8.112135e-001	9.586627e-003	0.000000e+000	0.000000e+000	0.000000e+000	0.000000e+000
5800300030.003	0.000000e+000	0.000000e+000	8.116876e-001	2.227673e-003	0.000000e+000	0.000000e+000	0.000000e+000	0.000000e+000
5800320032.003	0.000000e+000	0.000000e+000	8.111233e-001	-4.617375e-003	0.000000e+000	0.000000e+000	0.000000e+000	0.000000e+000
5800340034.003	0.000000e+000	0.000000e+000	8.118597e-001	-1.254518e-002	0.000000e+000	0.000000e+000	0.000000e+000	0.000000e+000
5800360036.004	0.000000e+000	0.000000e+000	8.120475e-001	-2.032412e-002	0.000000e+000	0.000000e+000	0.000000e+000	0.000000e+000
5800380038.004	0.000000e+000	0.000000e+000	8.130051e-001	-2.832889e-002	0.000000e+000	0.000000e+000	0.000000e+000	0.000000e+000
5800400040.004	0.000000e+000	0.000000e+000	8.130030e-001	-3.582907e-002	0.000000e+000	0.000000e+000	0.000000e+000	0.000000e+000
5800420042.004	0.000000e+000	0.000000e+000	8.126359e-001	-4.323810e-002	0.000000e+000	0.000000e+000	0.000000e+000	0.000000e+000
5800440044.004	0.000000e+000	0.000000e+000	8.120615e-001	-5.073895e-002	0.000000e+000	0.000000e+000	0.000000e+000	0.000000e+000
5800460046.005	0.000000e+000	0.000000e+000	8.115123e-001	-5.826851e-002	0.000000e+000	0.000000e+000	0.000000e+000	0.000000e+000
5800480048.005	0.000000e+000	0.000000e+000	8.118223e-001	-6.662906e-002	0.000000e+000	0.000000e+000	0.000000e+000	0.000000e+000
5800500050.005	0.000000e+000	0.000000e+000	8.115934e-001	-7.447635e-002	0.000000e+000	0.000000e+000	0.000000e+000	0.000000e+000
5800520052.005	0.000000e+000	0.000000e+000	8.118107e-001	-8.319219e-002	0.000000e+000	0.000000e+000	0.000000e+000	0.000000e+000
5800540054.005	0.000000e+000	0.000000e+000	8.108832e-001	-9.054530e-002	0.000000e+000	0.000000e+000	0.000000e+000	0.000000e+000
5800560056.006	0.000000e+000	0.000000e+000	8.102606e-001	-9.901681e-002	0.000000e+000	0.000000e+000	0.000000e+000	0.000000e+000
5800580058.006	0.000000e+000	0.000000e+000	8.089384e-001	-1.062503e-001	0.000000e+000	0.000000e+000	0.000000e+000	0.000000e+000
5800600060.006	0.000000e+000	0.000000e+000	8.087178e-001	-1.150866e-001	0.000000e+000	0.000000e+000	0.000000e+000	0.000000e+000
5800620062.006	0.000000e+000	0.000000e+000	8.077944e-001	-1.234497e-001	0.000000e+000	0.000000e+000	0.000000e+000	0.000000e+000
5800640064.006	0.000000e+000	0.000000e+000	8.074919e-001	-1.326619e-001	0.000000e+000	0.000000e+000	0.000000e+000	0.000000e+000
5800660066.007	0.000000e+000	0.000000e+000	8.064649e-001	-1.413155e-001	0.000000e+000	0.000000e+000	0.000000e+000	0.000000e+000
5800680068.007	0.000000e+000	0.000000e+000	8.048952e-001	-1.495885e-001	0.000000e+000	0.000000e+000	0.000000e+000	0.000000e+000
5800700070.007	0.000000e+000	0.000000e+000	8.033826e-001	-1.583263e-001	0.000000e+000	0.000000e+000	0.000000e+000	0.000000e+000
5800720072.007	0.000000e+000	0.000000e+000	8.015012e-001	-1.668100e-001	0.000000e+000	0.000000e+000	0.000000e+000	0.000000e+000
5800740074.007	0.000000e+000	0.000000e+000	8.005704e-001	-1.768428e-001	0.000000e+000	0.000000e+000	0.000000e+000	0.000000e+000
5800760076.008	0.000000e+000	0.000000e+000	7.988681e-001	-1.863854e-001	0.000000e+000	0.000000e+000	0.000000e+000	0.000000e+000
5800780078.008	0.000000e+000	0.000000e+000	7.976045e-001	-1.968139e-001	0.000000e+000	0.000000e+000	0.000000e+000	0.000000e+000
5800800080.008	0.000000e+000	0.000000e+000	7.951026e-001	-2.060512e-001	0.000000e+000	0.000000e+000	0.000000e+000	0.000000e+000
5800820082.008	0.000000e+000	0.000000e+000	7.924513e-001	-2.163058e-001	0.000000e+000	0.000000e+000	0.000000e+000	0.000000e+000
5800840084.008	0.000000e+000	0.000000e+000	7.888038e-001	-2.256668e-001	0.000000e+000	0.000000e+000	0.000000e+000	0.000000e+000
5800860086.009	0.000000e+000	0.000000e+000	7.855203e-001	-2.361264e-001	0.000000e+000	0.000000e+000	0.000000e+000	0.000000e+000
5800880088.009	0.000000e+000	0.000000e+000	7.816234e-001	-2.467991e-001	0.000000e+000	0.000000e+000	0.000000e+000	0.000000e+000
5800900090.009	0.000000e+000	0.000000e+000	7.778408e-001	-2.584014e-001	0.000000e+000	0.000000e+000	0.000000e+000	0.000000e+000
5800920092.009	0.000000e+000	0.000000e+000	7.731101e-001	-2.700507e-001	0.000000e+000	0.000000e+000	0.000000e+000	0.000000e+000
5800940094.009	0.000000e+000	0.000000e+000	7.674253e-001	-2.814480e-001	0.000000e+000	0.000000e+000	0.000000e+000	0.000000e+000
5800960096.010	0.000000e+000	0.000000e+000	7.607949e-001	-2.930305e-001	0.000000e+000	0.000000e+000	0.000000e+000	0.000000e+000
5800980098.010	0.000000e+000	0.000000e+000	7.525559e-001	-3.037749e-001	0.000000e+000	0.000000e+000	0.000000e+000	0.000000e+000
5801000100.010	0.000000e+000	0.000000e+000	7.443638e-001	-3.158488e-001	0.000000e+000	0.000000e+000	0.000000e+000	0.000000e+000
5801020102.010	0.000000e+000	0.000000e+000	7.343161e-001	-3.267274e-001	0.000000e+000	0.000000e+000	0.000000e+000	0.000000e+000
5801040104.010	0.000000e+000	0.000000e+000	7.237150e-001	-3.380823e-001	0.000000e+000	0.000000e+000	0.000000e+000	0.000000e+000
5801060106.011	0.000000e+000	0.000000e+000	7.108251e-001	-3.479508e-001	0.000000e+000	0.000000e+000	0.000000e+000	0.000000e+000
5801080108.011	0.000000e+000	0.000000e+000	6.972152e-001	-3.566690e-001	0.000000e+000	0.000000e+000	0.000000e+000	0.000000e+000
5801100110.011	0.000000e+000	0.000000e+000	6.815133e-001	-3.634153e-001	0.000000e+000	0.000000e+000	0.000000e+000	0.000000e+000
5801120112.011	0.000000e+000	0.000000e+000	6.655870e-001	-3.683800e-001	0.000000e+000	0.000000e+000	0.000000e+000	0.000000e+000
5801140114.011	0.000000e+000	0.000000e+000	6.491959e-001	-3.716836e-001	0.000000e+000	0.000000e+000	0.000000e+000	0.000000e+000
5801160116.012	0.000000e+000	0.000000e+000	6.328278e-001	-3.729003e-001	0.000000e+000	0.000000e+000	0.000000e+000	0.000000e+000
5801180118.012	0.000000e+000	0.000000e+000	6.171604e-001	-3.719930e-001	0.000000e+000	0.000000e+000	0.000000e+000	0.000000e+000
5801200120.012	0.000000e+000	0.000000e+000	6.016441e-001	-3.680690e-001	0.000000e+000	0.000000e+000	0.000000e+000	0.000000e+000
5801220122.012	0.000000e+000	0.000000e+000	5.880503e-001	-3.628558e-001	0.000000e+000	0.000000e+000	0.000000e+000	0.000000e+000
5801240124.012	0.000000e+000	0.000000e+000	5.759158e-001	-3.555464e-001	0.000000e+000	0.000000e+000	0.000000e+000	0.000000e+000
5801260126.013	0.000000e+000	0.000000e+000	5.656137e-001	-3.477301e-001	0.000000e+000	0.000000e+000	0.000000e+000	0.000000e+000
5801280128.013	0.000000e+000	0.000000e+000	5.570743e-001	-3.395380e-001	0.000000e+000	0.000000e+000	0.000000e+000	0.000000e+000
5801300130.013	0.000000e+000	0.000000e+000	5.508703e-001	-3.315197e-001	0.000000e+000	0.000000e+000	0.000000e+000	0.000000e+000
5801320132.013	0.000000e+000	0.000000e+000	5.459333e-001	-3.227884e-001	0.000000e+000	0.000000e+000	0.000000e+000	0.000000e+000
5801340134.013	0.000000e+000	0.000000e+000	5.428475e-001	-3.142689e-001	0.000000e+000	0.000000e+000	0.000000e+000	0.000000e+000
5801360136.014	0.000000e+000	0.000000e+000	5.403708e-001	-3.058362e-001	0.000000e+000	0.000000e+000	0.000000e+000	0.000000e+000
5801380138.014	0.000000e+000	0.000000e+000	5.394060e-001	-2.991916e-001	0.000000e+000	0.000000e+000	0.000000e+000	0.000000e+000
5801400140.014	0.000000e+000	0.000000e+000	5.390735e-001	-2.931513e-001	0.000000e+000	0.000000e+000	0.000000e+000	0.000000e+000
5801420142.014	0.000000e+000	0.000000e+000	5.393530e-001	-2.884652e-001	0.000000e+000	0.000000e+000	0.000000e+000	0.000000e+000
5801440144.014	0.000000e+000	0.000000e+000	5.396221e-001	-2.833885e-001	0.000000e+000	0.000000e+000	0.000000e+000	0.000000e+000
5801460146.015	0.000000e+000	0.000000e+000	5.391063e-001	-2.774807e-001	0.000000e+000	0.000000e+000	0.000000e+000	0.000000e+000
5801480148.015	0.000000e+000	0.000000e+000	5.392640e-001	-2.716965e-001	0.000000e+000	0.000000e+000	0.000000e+000	0.000000e+000
5801500150.015	0.000000e+000	0.000000e+000	5.394559e-001	-2.640233e-001	0.000000e+000	0.000000e+000	0.000000e+000	0.000000e+000
5801520152.015	0.000000e+000	0.000000e+000	5.413923e-001	-2.565294e-001	0.000000e+000	0.000000e+000	0.000000e+000	0.000000e+000
5801540154.015	0.000000e+000	0.000000e+000	5.457705e-001	-2.469626e-001	0.000000e+000	0.000000e+000	0.000000e+000	0.000000e+000
5801560156.016	0.000000e+000	0.000000e+000	5.534222e-001	-2.377562e-001	0.000000e+000	0.000000e+000	0.000000e+000	0.000000e+000
5801580158.016	0.000000e+000	0.000000e+000	5.640451e-001	-2.290606e-001	0.000000e+000	0.000000e+000	0.000000e+000	0.000000e+000
5801600160.016	0.000000e+000	0.000000e+000	5.775859e-001	-2.229064e-001	0.000000e+000	0.000000e+000	0.000000e+000	0.000000e+000
5801620162.016	0.000000e+000	0.000000e+000	5.927247e-001	-2.184968e-001	0.000000e+000	0.000000e+000	0.000000e+000	0.000000e+000
5801640164.016	0.000000e+000	0.000000e+000	6.112366e-001	-2.169936e-001	0.000000e+000	0.000000e+000	0.000000e+000	0.000000e+000
5801660166.017	0.000000e+000	0.000000e+000	6.310210e-001	-2.210751e-001	0.000000e+000	0.000000e+000	0.000000e+000	0.000000e+000
5801680168.017	0.000000e+000	0.000000e+000	6.503065e-001	-2.306269e-001	0.000000e+000	0.000000e+000	0.000000e+000	0.000000e+000
5801700170.017	0.000000e+000	0.000000e+000	6.663281e-001	-2.456553e-001	0.000000e+000	0.000000e+000	0.000000e+000	0.000000e+000
5801720172.017	0.000000e+000	0.000000e+000	6.770343e-001	-2.623787e-001	0.000000e+000	0.000000e+000	0.000000e+000	0.000000e+000
5801740174.017	0.000000e+000	0.000000e+000	6.839305e-001	-2.807321e-001	0.000000e+000	0.000000e+000	0.000000e+000	0.000000e+000
5801760176.018	0.000000e+000	0.000000e+000	6.866379e-001	-2.980114e-001	0.000000e+000	0.000000e+000	0.000000e+000	0.000000e+000
5801780178.018	0.000000e+000	0.000000e+000	6.871592e-001	-3.153009e-001	0.000000e+000	0.000000e+000	0.000000e+000	0.000000e+000
5801800180.018	0.000000e+000	0.000000e+000	6.855736e-001	-3.308171e-001	0.000000e+000	0.000000e+000	0.000000e+000	0.000000e+000
5801820182.018	0.000000e+000	0.000000e+000	6.828997e-001	-3.456319e-001	0.000000e+000	0.000000e+000	0.000000e+000	0.000000e+000
5801840184.018	0.000000e+000	0.000000e+000	6.793910e-001	-3.580044e-001	0.000000e+000	0.000000e+000	0.000000e+000	0.000000e+000
5801860186.019	0.000000e+000	0.000000e+000	6.748527e-001	-3.689398e-001	0.000000e+000	0.000000e+000	0.000000e+000	0.000000e+000
5801880188.019	0.000000e+000	0.000000e+000	6.703601e-001	-3.789919e-001	0.000000e+000	0.000000e+000	0.000000e+000	0.000000e+000
5801900190.019	0.000000e+000	0.000000e+000	6.659610e-001	-3.882328e-001	0.000000e+000	0.000000e+000	0.000000e+000	0.000000e+000
5801920192.019	0.000000e+000	0.000000e+000	6.618276e-001	-3.978023e-001	0.000000e+000	0.000000e+000	0.000000e+000	0.000000e+000
5801940194.019	0.000000e+000	0.000000e+000	6.573670e-001	-4.062723e-001	0.000000e+000	0.000000e+000	0.000000e+000	0.000000e+000
5801960196.020	0.000000e+000	0.000000e+000	6.534417e-001	-4.151953e-001	0.000000e+000	0.000000e+000	0.000000e+000	0.000000e+000
5801980198.020	0.000000e+000	0.000000e+000	6.486749e-001	-4.223271e-001	0.000000e+000	0.000000e+000	0.000000e+000	0.000000e+000
5802000200.020	0.000000e+000	0.000000e+000	6.444727e-001	-4.296098e-001	0.000000e+000	0.000000e+000	0.000000e+000	0.000000e+000
5802020202.020	0.000000e+000	0.000000e+000	6.397452e-001	-4.356452e-001	0.000000e+000	0.000000e+000	0.000000e+000	0.000000e+000
5802040204.020	0.000000e+000	0.000000e+000	6.354953e-001	-4.433425e-001	0.000000e+000	0.000000e+000	0.000000e+000	0.000000e+000
5802060206.021	0.000000e+000	0.000000e+000	6.311942e-001	-4.502539e-001	0.000000e+000	0.000000e+000	0.000000e+000	0.000000e+000
5802080208.021	0.000000e+000	0.000000e+000	6.272097e-001	-4.576489e-001	0.000000e+000	0.000000e+000	0.000000e+000	0.000000e+000
5802100210.021	0.000000e+000	0.000000e+000	6.228756e-001	-4.639841e-001	0.000000e+000	0.000000e+000	0.000000e+000	0.000000e+000
5802120212.021	0.000000e+000	0.000000e+000	6.183989e-001	-4.697526e-001	0.000000e+000	0.000000e+000	0.000000e+000	0.000000e+000
5802140214.021	0.000000e+000	0.000000e+000	6.138790e-001	-4.754837e-001	0.000000e+000	0.000000e+000	0.000000e+000	0.000000e+000
5802160216.022	0.000000e+000	0.000000e+000	6.094679e-001	-4.807462e-001	0.000000e+000	0.000000e+000	0.000000e+000	0.000000e+000
5802180218.022	0.000000e+000	0.000000e+000	6.052475e-001	-4.875036e-001	0.000000e+000	0.000000e+000	0.000000e+000	0.000000e+000
5802200220.022	0.000000e+000	0.000000e+000	6.008262e-001	-4.935226e-001	0.000000e+000	0.000000e+000	0.000000e+000	0.000000e+000
5802220222.022	0.000000e+000	0.000000e+000	5.966711e-001	-5.000811e-001	0.000000e+000	0.000000e+000	0.000000e+000	0.000000e+000
5802240224.022	0.000000e+000	0.000000e+000	5.920436e-001	-5.051900e-001	0.000000e+000	0.000000e+000	0.000000e+000	0.000000e+000
5802260226.023	0.000000e+000	0.000000e+000	5.875849e-001	-5.109152e-001	0.000000e+000	0.000000e+000	0.000000e+000	0.000000e+000
5802280228.023	0.000000e+000	0.000000e+000	5.829069e-001	-5.151655e-001	0.000000e+000	0.000000e+000	0.000000e+000	0.000000e+000
5802300230.023	0.000000e+000	0.000000e+000	5.784803e-001	-5.210321e-001	0.000000e+000	0.000000e+000	0.000000e+000	0.000000e+000
5802320232.023	0.000000e+000	0.000000e+000	5.740514e-001	-5.267815e-001	0.000000e+000	0.000000e+000	0.000000e+000	0.000000e+000
5802340234.023	0.000000e+000	0.000000e+000	5.693942e-001	-5.325998e-001	0.000000e+000	0.000000e+000	0.000000e+000	0.000000e+000
5802360236.024	0.000000e+000	0.000000e+000	5.649535e-001	-5.378045e-001	0.000000e+000	0.000000e+000	0.000000e+000	0.000000e+000
5802380238.024	0.000000e+000	0.000000e+000	5.602444e-001	-5.425767e-001	0.000000e+000	0.000000e+000	0.000000e+000	0.000000e+000
5802400240.024	0.000000e+000	0.000000e+000	5.556332e-001	-5.472155e-001	0.000000e+000	0.000000e+000	0.000000e+000	0.000000e+000
5802420242.024	0.000000e+000	0.000000e+000	5.506940e-001	-5.515364e-001	0.000000e+000	0.000000e+000	0.000000e+000	0.000000e+000
5802440244.024	0.000000e+000	0.000000e+000	5.461029e-001	-5.571073e-001	0.000000e+000	0.000000e+000	0.000000e+000	0.000000e+000
5802460246.025	0.000000e+000	0.000000e+000	5.414250e-001	-5.623016e-001	0.000000e+000	0.000000e+000	0.000000e+000	0.000000e+000
5802480248.025	0.000000e+000	0.000000e+000	5.368252e-001	-5.678838e-001	0.000000e+000	0.000000e+000	0.000000e+000	0.000000e+000
5802500250.025	0.000000e+000	0.000000e+000	5.319412e-001	-5.722690e-001	0.000000e+000	0.000000e+000	0.000000e+000	0.000000e+000
5802520252.025	0.000000e+000	0.000000e+000	5.271140e-001	-5.769473e-001	0.000000e+000	0.000000e+000	0.000000e+000	0.000000e+000
5802540254.025	0.000000e+000	0.000000e+000	5.221008e-001	-5.807245e-001	0.000000e+000	0.000000e+000	0.000000e+000	0.000000e+000
5802560256.026	0.000000e+000	0.000000e+000	5.172432e-001	-5.855011e-001	0.000000e+000	0.000000e+000	0.000000e+000	0.000000e+000
5802580258.026	0.000000e+000	0.000000e+000	5.124896e-001	-5.902184e-001	0.000000e+000	0.000000e+000	0.000000e+000	0.000000e+000
5802600260.026	0.000000e+000	0.000000e+000	5.074680e-001	-5.953914e-001	0.000000e+000	0.000000e+000	0.000000e+000	0.000000e+000
5802620262.026	0.000000e+000	0.000000e+000	5.026235e-001	-6.003264e-001	0.000000e+000	0.000000e+000	0.000000e+000	0.000000e+000
5802640264.026	0.000000e+000	0.000000e+000	4.975869e-001	-6.043699e-001	0.000000e+000	0.000000e+000	0.000000e+000	0.000000e+000
5802660266.027	0.000000e+000	0.000000e+000	4.925865e-001	-6.085981e-001	0.000000e+000	0.000000e+000	0.000000e+000	0.000000e+000
5802680268.027	0.000000e+000	0.000000e+000	4.874830e-001	-6.120746e-001	0.000000e+000	0.000000e+000	0.000000e+000	0.000000e+000
5802700270.027	0.000000e+000	0.000000e+000	4.822935e-001	-6.169616e-001	0.000000e+000	0.000000e+000	0.000000e+000	0.000000e+000
5802720272.027	0.000000e+000	0.000000e+000	4.770799e-001	-6.209827e-001	0.000000e+000	0.000000e+000	0.000000e+000	0.000000e+000
5802740274.027	0.000000e+000	0.000000e+000	4.721101e-001	-6.261052e-001	0.000000e+000	0.000000e+000	0.000000e+000	0.000000e+000
5802760276.028	0.000000e+000	0.000000e+000	4.669838e-001	-6.301700e-001	0.000000e+000	0.000000e+000	0.000000e+000	0.000000e+000
5802780278.028	0.000000e+000	0.000000e+000	4.616734e-001	-6.343356e-001	0.000000e+000	0.000000e+000	0.000000e+000	0.000000e+000
5802800280.028	0.000000e+000	0.000000e+000	4.562800e-001	-6.377747e-001	0.000000e+000	0.000000e+000	0.000000e+000	0.000000e+000
5802820282.028	0.000000e+000	0.000000e+000	4.509460e-001	-6.415612e-001	0.000000e+000	0.000000e+000	0.000000e+000	0.000000e+000
5802840284.028	0.000000e+000	0.000000e+000	4.457252e-001	-6.456859e-001	0.000000e+000	0.000000e+000	0.000000e+000	0.000000e+000
5802860286.029	0.000000e+000	0.000000e+000	4.402787e-001	-6.496829e-001	0.000000e+000	0.000000e+000	0.000000e+000	0.000000e+000
5802880288.029	0.000000e+000	0.000000e+000	4.350555e-001	-6.544219e-001	0.000000e+000	0.000000e+000	0.000000e+000	0.000000e+000
5802900290.029	0.000000e+000	0.000000e+000	4.294902e-001	-6.579764e-001	0.000000e+000	0.000000e+000	0.000000e+000	0.000000e+000
5802920292.029	0.000000e+000	0.000000e+000	4.238541e-001	-6.618607e-001	0.000000e+000	0.000000e+000	0.000000e+000	0.000000e+000
5802940294.029	0.000000e+000	0.000000e+000	4.184151e-001	-6.645530e-001	0.000000e+000	0.000000e+000	0.000000e+000	0.000000e+000
5802960296.030	0.000000e+000	0.000000e+000	4.128494e-001	-6.688167e-001	0.000000e+000	0.000000e+000	0.000000e+000	0.000000e+000
5802980298.030	0.000000e+000	0.000000e+000	4.071400e-001	-6.717620e-001	0.000000e+000	0.000000e+000	0.000000e+000	0.000000e+000
5803000300.030	0.000000e+000	0.000000e+000	4.014719e-001	-6.761803e-001	0.000000e+000	0.000000e+000	0.000000e+000	0.000000e+000
5803020302.030	0.000000e+000	0.000000e+000	3.959557e-001	-6.795222e-001	0.000000e+000	0.000000e+000	0.000000e+000	0.000000e+000
5803040304.030	0.000000e+000	0.000000e+000	3.901609e-001	-6.832606e-001	0.000000e+000	0.000000e+000	0.000000e+000	0.000000e+000
