!Keysight Technologies,E5063A,MY54502693,A.05.04
!Date: Mon Oct 12 06:42:43 2020
!Data & Calibration Information:
!Freq	S11:NONE(--)	S21:NONE(--)	S12:NONE(--)	S22:NONE(--)
# Hz S RI R 50
4200000000.000	0.000000e+000	0.000000e+000	8.987487e-001	6.019584e-001	0.000000e+000	0.000000e+000	0.000000e+000	0.000000e+000
4200020002.000	0.000000e+000	0.000000e+000	9.058125e-001	6.022783e-001	0.000000e+000	0.000000e+000	0.000000e+000	0.000000e+000
4200040004.000	0.000000e+000	0.000000e+000	9.127011e-001	6.017720e-001	0.000000e+000	0.000000e+000	0.000000e+000	0.000000e+000
4200060006.001	0.000000e+000	0.000000e+000	9.187475e-001	6.003405e-001	0.000000e+000	0.000000e+000	0.000000e+000	0.000000e+000
4200080008.001	0.000000e+000	0.000000e+000	9.254489e-001	5.983936e-001	0.000000e+000	0.000000e+000	0.000000e+000	0.000000e+000
4200100010.001	0.000000e+000	0.000000e+000	9.336865e-001	5.957752e-001	0.000000e+000	0.000000e+000	0.000000e+000	0.000000e+000
4200120012.001	0.000000e+000	0.000000e+000	9.418216e-001	5.924491e-001	0.000000e+000	0.000000e+000	0.000000e+000	0.000000e+000
4200140014.001	0.000000e+000	0.000000e+000	9.510130e-001	5.887358e-001	0.000000e+000	0.000000e+000	0.000000e+000	0.000000e+000
4200160016.002	0.000000e+000	0.000000e+000	9.567262e-001	5.847189e-001	0.000000e+000	0.000000e+000	0.000000e+000	0.000000e+000
4200180018.002	0.000000e+000	0.000000e+000	9.632002e-001	5.802675e-001	0.000000e+000	0.000000e+000	0.000000e+000	0.000000e+000
4200200020.002	0.000000e+000	0.000000e+000	9.683045e-001	5.756232e-001	0.000000e+000	0.000000e+000	0.000000e+000	0.000000e+000
4200220022.002	0.000000e+000	0.000000e+000	9.761831e-001	5.704796e-001	0.000000e+000	0.000000e+000	0.000000e+000	0.000000e+000
4200240024.002	0.000000e+000	0.000000e+000	9.835736e-001	5.648286e-001	0.000000e+000	0.000000e+000	0.000000e+000	0.000000e+000
4200260026.003	0.000000e+000	0.000000e+000	9.920573e-001	5.589575e-001	0.000000e+000	0.000000e+000	0.000000e+000	0.000000e+000
4200280028.003	0.000000e+000	0.000000e+000	9.985528e-001	5.529170e-001	0.000000e+000	0.000000e+000	0.000000e+000	0.000000e+000
4200300030.003	0.000000e+000	0.000000e+000	1.003460e+000	5.469195e-001	0.000000e+000	0.000000e+000	0.000000e+000	0.000000e+000
4200320032.003	0.000000e+000	0.000000e+000	1.008533e+000	5.408341e-001	0.000000e+000	0.000000e+000	0.000000e+000	0.000000e+000
4200340034.003	0.000000e+000	0.000000e+000	1.013134e+000	5.344586e-001	0.000000e+000	0.000000e+000	0.000000e+000	0.000000e+000
4200360036.004	0.000000e+000	0.000000e+000	1.020941e+000	5.275709e-001	0.000000e+000	0.000000e+000	0.000000e+000	0.000000e+000
4200380038.004	0.000000e+000	0.000000e+000	1.027805e+000	5.205815e-001	0.000000e+000	0.000000e+000	0.000000e+000	0.000000e+000
4200400040.004	0.000000e+000	0.000000e+000	1.035667e+000	5.134000e-001	0.000000e+000	0.000000e+000	0.000000e+000	0.000000e+000
4200420042.004	0.000000e+000	0.000000e+000	1.039969e+000	5.063970e-001	0.000000e+000	0.000000e+000	0.000000e+000	0.000000e+000
4200440044.004	0.000000e+000	0.000000e+000	1.044621e+000	4.994723e-001	0.000000e+000	0.000000e+000	0.000000e+000	0.000000e+000
4200460046.005	0.000000e+000	0.000000e+000	1.047833e+000	4.923461e-001	0.000000e+000	0.000000e+000	0.000000e+000	0.000000e+000
4200480048.005	0.000000e+000	0.000000e+000	1.053576e+000	4.847089e-001	0.000000e+000	0.000000e+000	0.000000e+000	0.000000e+000
4200500050.005	0.000000e+000	0.000000e+000	1.060578e+000	4.771134e-001	0.000000e+000	0.000000e+000	0.000000e+000	0.000000e+000
4200520052.005	0.000000e+000	0.000000e+000	1.067468e+000	4.690819e-001	0.000000e+000	0.000000e+000	0.000000e+000	0.000000e+000
4200540054.005	0.000000e+000	0.000000e+000	1.073015e+000	4.613005e-001	0.000000e+000	0.000000e+000	0.000000e+000	0.000000e+000
4200560056.006	0.000000e+000	0.000000e+000	1.076449e+000	4.536574e-001	0.000000e+000	0.000000e+000	0.000000e+000	0.000000e+000
4200580058.006	0.000000e+000	0.000000e+000	1.080099e+000	4.460346e-001	0.000000e+000	0.000000e+000	0.000000e+000	0.000000e+000
4200600060.006	0.000000e+000	0.000000e+000	1.083621e+000	4.381950e-001	0.000000e+000	0.000000e+000	0.000000e+000	0.000000e+000
4200620062.006	0.000000e+000	0.000000e+000	1.089857e+000	4.299001e-001	0.000000e+000	0.000000e+000	0.000000e+000	0.000000e+000
4200640064.006	0.000000e+000	0.000000e+000	1.094939e+000	4.219229e-001	0.000000e+000	0.000000e+000	0.000000e+000	0.000000e+000
4200660066.007	0.000000e+000	0.000000e+000	1.101318e+000	4.131548e-001	0.000000e+000	0.000000e+000	0.000000e+000	0.000000e+000
4200680068.007	0.000000e+000	0.000000e+000	1.104231e+000	4.053062e-001	0.000000e+000	0.000000e+000	0.000000e+000	0.000000e+000
4200700070.007	0.000000e+000	0.000000e+000	1.108214e+000	3.969043e-001	0.000000e+000	0.000000e+000	0.000000e+000	0.000000e+000
4200720072.007	0.000000e+000	0.000000e+000	1.111084e+000	3.889724e-001	0.000000e+000	0.000000e+000	0.000000e+000	0.000000e+000
4200740074.007	0.000000e+000	0.000000e+000	1.115479e+000	3.805112e-001	0.000000e+000	0.000000e+000	0.000000e+000	0.000000e+000
4200760076.008	0.000000e+000	0.000000e+000	1.120658e+000	3.717639e-001	0.000000e+000	0.000000e+000	0.000000e+000	0.000000e+000
4200780078.008	0.000000e+000	0.000000e+000	1.125614e+000	3.627793e-001	0.000000e+000	0.000000e+000	0.000000e+000	0.000000e+000
4200800080.008	0.000000e+000	0.000000e+000	1.130477e+000	3.541140e-001	0.000000e+000	0.000000e+000	0.000000e+000	0.000000e+000
4200820082.008	0.000000e+000	0.000000e+000	1.132832e+000	3.459189e-001	0.000000e+000	0.000000e+000	0.000000e+000	0.000000e+000
4200840084.008	0.000000e+000	0.000000e+000	1.136552e+000	3.373853e-001	0.000000e+000	0.000000e+000	0.000000e+000	0.000000e+000
4200860086.009	0.000000e+000	0.000000e+000	1.138431e+000	3.291394e-001	0.000000e+000	0.000000e+000	0.000000e+000	0.000000e+000
4200880088.009	0.000000e+000	0.000000e+000	1.143587e+000	3.197898e-001	0.000000e+000	0.000000e+000	0.000000e+000	0.000000e+000
4200900090.009	0.000000e+000	0.000000e+000	1.147379e+000	3.108145e-001	0.000000e+000	0.000000e+000	0.000000e+000	0.000000e+000
4200920092.009	0.000000e+000	0.000000e+000	1.152535e+000	3.014456e-001	0.000000e+000	0.000000e+000	0.000000e+000	0.000000e+000
4200940094.009	0.000000e+000	0.000000e+000	1.154924e+000	2.929056e-001	0.000000e+000	0.000000e+000	0.000000e+000	0.000000e+000
4200960096.010	0.000000e+000	0.000000e+000	1.158349e+000	2.840991e-001	0.000000e+000	0.000000e+000	0.000000e+000	0.000000e+000
4200980098.010	0.000000e+000	0.000000e+000	1.160207e+000	2.755962e-001	0.000000e+000	0.000000e+000	0.000000e+000	0.000000e+000
4201000100.010	0.000000e+000	0.000000e+000	1.163499e+000	2.665862e-001	0.000000e+000	0.000000e+000	0.000000e+000	0.000000e+000
4201020102.010	0.000000e+000	0.000000e+000	1.167550e+000	2.571834e-001	0.000000e+000	0.000000e+000	0.000000e+000	0.000000e+000
4201040104.010	0.000000e+000	0.000000e+000	1.171360e+000	2.479094e-001	0.000000e+000	0.000000e+000	0.000000e+000	0.000000e+000
4201060106.011	0.000000e+000	0.000000e+000	1.175695e+000	2.382892e-001	0.000000e+000	0.000000e+000	0.000000e+000	0.000000e+000
4201080108.011	0.000000e+000	0.000000e+000	1.177320e+000	2.296989e-001	0.000000e+000	0.000000e+000	0.000000e+000	0.000000e+000
4201100110.011	0.000000e+000	0.000000e+000	1.180073e+000	2.205673e-001	0.000000e+000	0.000000e+000	0.000000e+000	0.000000e+000
4201120112.011	0.000000e+000	0.000000e+000	1.181413e+000	2.120496e-001	0.000000e+000	0.000000e+000	0.000000e+000	0.000000e+000
4201140114.011	0.000000e+000	0.000000e+000	1.185389e+000	2.023113e-001	0.000000e+000	0.000000e+000	0.000000e+000	0.000000e+000
4201160116.012	0.000000e+000	0.000000e+000	1.188614e+000	1.927770e-001	0.000000e+000	0.000000e+000	0.000000e+000	0.000000e+000
4201180118.012	0.000000e+000	0.000000e+000	1.193067e+000	1.827045e-001	0.000000e+000	0.000000e+000	0.000000e+000	0.000000e+000
4201200120.012	0.000000e+000	0.000000e+000	1.195653e+000	1.734517e-001	0.000000e+000	0.000000e+000	0.000000e+000	0.000000e+000
4201220122.012	0.000000e+000	0.000000e+000	1.197673e+000	1.644529e-001	0.000000e+000	0.000000e+000	0.000000e+000	0.000000e+000
4201240124.012	0.000000e+000	0.000000e+000	1.199172e+000	1.555008e-001	0.000000e+000	0.000000e+000	0.000000e+000	0.000000e+000
4201260126.013	0.000000e+000	0.000000e+000	1.201538e+000	1.462254e-001	0.000000e+000	0.000000e+000	0.000000e+000	0.000000e+000
4201280128.013	0.000000e+000	0.000000e+000	1.205817e+000	1.357856e-001	0.000000e+000	0.000000e+000	0.000000e+000	0.000000e+000
4201300130.013	0.000000e+000	0.000000e+000	1.209077e+000	1.259212e-001	0.000000e+000	0.000000e+000	0.000000e+000	0.000000e+000
4201320132.013	0.000000e+000	0.000000e+000	1.213129e+000	1.155825e-001	0.000000e+000	0.000000e+000	0.000000e+000	0.000000e+000
4201340134.013	0.000000e+000	0.000000e+000	1.214462e+000	1.064396e-001	0.000000e+000	0.000000e+000	0.000000e+000	0.000000e+000
4201360136.014	0.000000e+000	0.000000e+000	1.217331e+000	9.655897e-002	0.000000e+000	0.000000e+000	0.000000e+000	0.000000e+000
4201380138.014	0.000000e+000	0.000000e+000	1.218685e+000	8.744493e-002	0.000000e+000	0.000000e+000	0.000000e+000	0.000000e+000
4201400140.014	0.000000e+000	0.000000e+000	1.222652e+000	7.675614e-002	0.000000e+000	0.000000e+000	0.000000e+000	0.000000e+000
4201420142.014	0.000000e+000	0.000000e+000	1.226252e+000	6.612992e-002	0.000000e+000	0.000000e+000	0.000000e+000	0.000000e+000
4201440144.014	0.000000e+000	0.000000e+000	1.230725e+000	5.494395e-002	0.000000e+000	0.000000e+000	0.000000e+000	0.000000e+000
4201460146.015	0.000000e+000	0.000000e+000	1.233949e+000	4.446467e-002	0.000000e+000	0.000000e+000	0.000000e+000	0.000000e+000
4201480148.015	0.000000e+000	0.000000e+000	1.236544e+000	3.412505e-002	0.000000e+000	0.000000e+000	0.000000e+000	0.000000e+000
4201500150.015	0.000000e+000	0.000000e+000	1.239345e+000	2.352156e-002	0.000000e+000	0.000000e+000	0.000000e+000	0.000000e+000
4201520152.015	0.000000e+000	0.000000e+000	1.242257e+000	1.247824e-002	0.000000e+000	0.000000e+000	0.000000e+000	0.000000e+000
4201540154.015	0.000000e+000	0.000000e+000	1.247654e+000	-3.699068e-004	0.000000e+000	0.000000e+000	0.000000e+000	0.000000e+000
4201560156.016	0.000000e+000	0.000000e+000	1.252374e+000	-1.324113e-002	0.000000e+000	0.000000e+000	0.000000e+000	0.000000e+000
4201580158.016	0.000000e+000	0.000000e+000	1.258852e+000	-2.763489e-002	0.000000e+000	0.000000e+000	0.000000e+000	0.000000e+000
4201600160.016	0.000000e+000	0.000000e+000	1.262582e+000	-4.124336e-002	0.000000e+000	0.000000e+000	0.000000e+000	0.000000e+000
4201620162.016	0.000000e+000	0.000000e+000	1.266887e+000	-5.632654e-002	0.000000e+000	0.000000e+000	0.000000e+000	0.000000e+000
4201640164.016	0.000000e+000	0.000000e+000	1.269935e+000	-7.183955e-002	0.000000e+000	0.000000e+000	0.000000e+000	0.000000e+000
4201660166.017	0.000000e+000	0.000000e+000	1.274908e+000	-9.097049e-002	0.000000e+000	0.000000e+000	0.000000e+000	0.000000e+000
4201680168.017	0.000000e+000	0.000000e+000	1.279304e+000	-1.121124e-001	0.000000e+000	0.000000e+000	0.000000e+000	0.000000e+000
4201700170.017	0.000000e+000	0.000000e+000	1.282675e+000	-1.366441e-001	0.000000e+000	0.000000e+000	0.000000e+000	0.000000e+000
4201720172.017	0.000000e+000	0.000000e+000	1.283269e+000	-1.630359e-001	0.000000e+000	0.000000e+000	0.000000e+000	0.000000e+000
4201740174.017	0.000000e+000	0.000000e+000	1.278430e+000	-1.908485e-001	0.000000e+000	0.000000e+000	0.000000e+000	0.000000e+000
4201760176.018	0.000000e+000	0.000000e+000	1.267720e+000	-2.195476e-001	0.000000e+000	0.000000e+000	0.000000e+000	0.000000e+000
4201780178.018	0.000000e+000	0.000000e+000	1.249650e+000	-2.463961e-001	0.000000e+000	0.000000e+000	0.000000e+000	0.000000e+000
4201800180.018	0.000000e+000	0.000000e+000	1.226555e+000	-2.704577e-001	0.000000e+000	0.000000e+000	0.000000e+000	0.000000e+000
4201820182.018	0.000000e+000	0.000000e+000	1.199988e+000	-2.861628e-001	0.000000e+000	0.000000e+000	0.000000e+000	0.000000e+000
4201840184.018	0.000000e+000	0.000000e+000	1.174165e+000	-2.955481e-001	0.000000e+000	0.000000e+000	0.000000e+000	0.000000e+000
4201860186.019	0.000000e+000	0.000000e+000	1.150297e+000	-2.959533e-001	0.000000e+000	0.000000e+000	0.000000e+000	0.000000e+000
4201880188.019	0.000000e+000	0.000000e+000	1.131286e+000	-2.925788e-001	0.000000e+000	0.000000e+000	0.000000e+000	0.000000e+000
4201900190.019	0.000000e+000	0.000000e+000	1.115623e+000	-2.857404e-001	0.000000e+000	0.000000e+000	0.000000e+000	0.000000e+000
4201920192.019	0.000000e+000	0.000000e+000	1.106091e+000	-2.802743e-001	0.000000e+000	0.000000e+000	0.000000e+000	0.000000e+000
4201940194.019	0.000000e+000	0.000000e+000	1.100677e+000	-2.760358e-001	0.000000e+000	0.000000e+000	0.000000e+000	0.000000e+000
4201960196.020	0.000000e+000	0.000000e+000	1.098101e+000	-2.739597e-001	0.000000e+000	0.000000e+000	0.000000e+000	0.000000e+000
4201980198.020	0.000000e+000	0.000000e+000	1.097407e+000	-2.728761e-001	0.000000e+000	0.000000e+000	0.000000e+000	0.000000e+000
4202000200.020	0.000000e+000	0.000000e+000	1.096016e+000	-2.716039e-001	0.000000e+000	0.000000e+000	0.000000e+000	0.000000e+000
4202020202.020	0.000000e+000	0.000000e+000	1.095617e+000	-2.722288e-001	0.000000e+000	0.000000e+000	0.000000e+000	0.000000e+000
4202040204.020	0.000000e+000	0.000000e+000	1.094980e+000	-2.733249e-001	0.000000e+000	0.000000e+000	0.000000e+000	0.000000e+000
4202060206.021	0.000000e+000	0.000000e+000	1.096546e+000	-2.777488e-001	0.000000e+000	0.000000e+000	0.000000e+000	0.000000e+000
4202080208.021	0.000000e+000	0.000000e+000	1.097649e+000	-2.822810e-001	0.000000e+000	0.000000e+000	0.000000e+000	0.000000e+000
4202100210.021	0.000000e+000	0.000000e+000	1.099710e+000	-2.888609e-001	0.000000e+000	0.000000e+000	0.000000e+000	0.000000e+000
4202120212.021	0.000000e+000	0.000000e+000	1.100066e+000	-2.941597e-001	0.000000e+000	0.000000e+000	0.000000e+000	0.000000e+000
4202140214.021	0.000000e+000	0.000000e+000	1.099412e+000	-2.992180e-001	0.000000e+000	0.000000e+000	0.000000e+000	0.000000e+000
4202160216.022	0.000000e+000	0.000000e+000	1.098483e+000	-3.044417e-001	0.000000e+000	0.000000e+000	0.000000e+000	0.000000e+000
4202180218.022	0.000000e+000	0.000000e+000	1.098060e+000	-3.108358e-001	0.000000e+000	0.000000e+000	0.000000e+000	0.000000e+000
4202200220.022	0.000000e+000	0.000000e+000	1.098818e+000	-3.193986e-001	0.000000e+000	0.000000e+000	0.000000e+000	0.000000e+000
4202220222.022	0.000000e+000	0.000000e+000	1.098696e+000	-3.268371e-001	0.000000e+000	0.000000e+000	0.000000e+000	0.000000e+000
4202240224.022	0.000000e+000	0.000000e+000	1.098620e+000	-3.351549e-001	0.000000e+000	0.000000e+000	0.000000e+000	0.000000e+000
4202260226.023	0.000000e+000	0.000000e+000	1.096899e+000	-3.416874e-001	0.000000e+000	0.000000e+000	0.000000e+000	0.000000e+000
4202280228.023	0.000000e+000	0.000000e+000	1.095916e+000	-3.494995e-001	0.000000e+000	0.000000e+000	0.000000e+000	0.000000e+000
4202300230.023	0.000000e+000	0.000000e+000	1.093802e+000	-3.562996e-001	0.000000e+000	0.000000e+000	0.000000e+000	0.000000e+000
4202320232.023	0.000000e+000	0.000000e+000	1.093130e+000	-3.651579e-001	0.000000e+000	0.000000e+000	0.000000e+000	0.000000e+000
4202340234.023	0.000000e+000	0.000000e+000	1.091840e+000	-3.732022e-001	0.000000e+000	0.000000e+000	0.000000e+000	0.000000e+000
4202360236.024	0.000000e+000	0.000000e+000	1.090863e+000	-3.823528e-001	0.000000e+000	0.000000e+000	0.000000e+000	0.000000e+000
4202380238.024	0.000000e+000	0.000000e+000	1.089079e+000	-3.906623e-001	0.000000e+000	0.000000e+000	0.000000e+000	0.000000e+000
4202400240.024	0.000000e+000	0.000000e+000	1.086431e+000	-3.980747e-001	0.000000e+000	0.000000e+000	0.000000e+000	0.000000e+000
4202420242.024	0.000000e+000	0.000000e+000	1.084062e+000	-4.056465e-001	0.000000e+000	0.000000e+000	0.000000e+000	0.000000e+000
4202440244.024	0.000000e+000	0.000000e+000	1.081384e+000	-4.133773e-001	0.000000e+000	0.000000e+000	0.000000e+000	0.000000e+000
4202460246.025	0.000000e+000	0.000000e+000	1.079541e+000	-4.222738e-001	0.000000e+000	0.000000e+000	0.000000e+000	0.000000e+000
4202480248.025	0.000000e+000	0.000000e+000	1.077336e+000	-4.313175e-001	0.000000e+000	0.000000e+000	0.000000e+000	0.000000e+000
4202500250.025	0.000000e+000	0.000000e+000	1.075676e+000	-4.407747e-001	0.000000e+000	0.000000e+000	0.000000e+000	0.000000e+000
4202520252.025	0.000000e+000	0.000000e+000	1.072241e+000	-4.477668e-001	0.000000e+000	0.000000e+000	0.000000e+000	0.000000e+000
4202540254.025	0.000000e+000	0.000000e+000	1.069516e+000	-4.563630e-001	0.000000e+000	0.000000e+000	0.000000e+000	0.000000e+000
4202560256.026	0.000000e+000	0.000000e+000	1.065650e+000	-4.631573e-001	0.000000e+000	0.000000e+000	0.000000e+000	0.000000e+000
4202580258.026	0.000000e+000	0.000000e+000	1.062870e+000	-4.718861e-001	0.000000e+000	0.000000e+000	0.000000e+000	0.000000e+000
4202600260.026	0.000000e+000	0.000000e+000	1.060132e+000	-4.809540e-001	0.000000e+000	0.000000e+000	0.000000e+000	0.000000e+000
4202620262.026	0.000000e+000	0.000000e+000	1.057616e+000	-4.902754e-001	0.000000e+000	0.000000e+000	0.000000e+000	0.000000e+000
4202640264.026	0.000000e+000	0.000000e+000	1.054495e+000	-4.987296e-001	0.000000e+000	0.000000e+000	0.000000e+000	0.000000e+000
4202660266.027	0.000000e+000	0.000000e+000	1.050609e+000	-5.061085e-001	0.000000e+000	0.000000e+000	0.000000e+000	0.000000e+000
4202680268.027	0.000000e+000	0.000000e+000	1.047129e+000	-5.142076e-001	0.000000e+000	0.000000e+000	0.000000e+000	0.000000e+000
4202700270.027	0.000000e+000	0.000000e+000	1.042698e+000	-5.212304e-001	0.000000e+000	0.000000e+000	0.000000e+000	0.000000e+000
4202720272.027	0.000000e+000	0.000000e+000	1.039745e+000	-5.306117e-001	0.000000e+000	0.000000e+000	0.000000e+000	0.000000e+000
4202740274.027	0.000000e+000	0.000000e+000	1.036164e+000	-5.391157e-001	0.000000e+000	0.000000e+000	0.000000e+000	0.000000e+000
4202760276.028	0.000000e+000	0.000000e+000	1.033117e+000	-5.486150e-001	0.000000e+000	0.000000e+000	0.000000e+000	0.000000e+000
4202780278.028	0.000000e+000	0.000000e+000	1.028786e+000	-5.558823e-001	0.000000e+000	0.000000e+000	0.000000e+000	0.000000e+000
4202800280.028	0.000000e+000	0.000000e+000	1.024668e+000	-5.639432e-001	0.000000e+000	0.000000e+000	0.000000e+000	0.000000e+000
4202820282.028	0.000000e+000	0.000000e+000	1.019844e+000	-5.705195e-001	0.000000e+000	0.000000e+000	0.000000e+000	0.000000e+000
4202840284.028	0.000000e+000	0.000000e+000	1.015827e+000	-5.789622e-001	0.000000e+000	0.000000e+000	0.000000e+000	0.000000e+000
4202860286.029	0.000000e+000	0.000000e+000	1.012061e+000	-5.878506e-001	0.000000e+000	0.000000e+000	0.000000e+000	0.000000e+000
4202880288.029	0.000000e+000	0.000000e+000	1.008187e+000	-5.966529e-001	0.000000e+000	0.000000e+000	0.000000e+000	0.000000e+000
4202900290.029	0.000000e+000	0.000000e+000	1.004141e+000	-6.053971e-001	0.000000e+000	0.000000e+000	0.000000e+000	0.000000e+000
4202920292.029	0.000000e+000	0.000000e+000	9.992107e-001	-6.122683e-001	0.000000e+000	0.000000e+000	0.000000e+000	0.000000e+000
4202940294.029	0.000000e+000	0.000000e+000	9.945398e-001	-6.197269e-001	0.000000e+000	0.000000e+000	0.000000e+000	0.000000e+000
4202960296.030	0.000000e+000	0.000000e+000	9.891167e-001	-6.260572e-001	0.000000e+000	0.000000e+000	0.000000e+000	0.000000e+000
4202980298.030	0.000000e+000	0.000000e+000	9.849363e-001	-6.353089e-001	0.000000e+000	0.000000e+000	0.000000e+000	0.000000e+000
4203000300.030	0.000000e+000	0.000000e+000	9.803851e-001	-6.433487e-001	0.000000e+000	0.000000e+000	0.000000e+000	0.000000e+000
4203020302.030	0.000000e+000	0.000000e+000	9.760132e-001	-6.524908e-001	0.000000e+000	0.000000e+000	0.000000e+000	0.000000e+000
4203040304.030	0.000000e+000	0.000000e+000	9.709368e-001	-6.597289e-001	0.000000e+000	0.000000e+000	0.000000e+000	0.000000e+000
4203060306.031	0.000000e+000	0.000000e+000	9.656814e-001	-6.666967e-001	0.000000e+000	0.000000e+000	0.000000e+000	0.000000e+000
